2023-06-04 21:04:20.782: Read data from HostIP [10.200.7.182:5300] by the command [01 03 20 01 00 02 9E 0B].
2023-06-04 21:04:21.141: Error Message: A connection attempt failed because the connected party did not properly respond after a period of time, or established connection failed because connected host has failed to respond 10.200.7.182:5300

2023-06-04 21:04:21.160: Error Message: A connection attempt failed because the connected party did not properly respond after a period of time, or established connection failed because connected host has failed to respond 10.200.7.182:5300

2023-06-04 21:04:21.333: Error Message: An established connection was aborted by the software in your host machine 10.200.7.182:5300

2023-06-04 21:04:21.333: Error Message: A connection attempt failed because the connected party did not properly respond after a period of time, or established connection failed because connected host has failed to respond 10.200.7.182:5300

2023-06-04 21:04:21.494: Error Message: A connection attempt failed because the connected party did not properly respond after a period of time, or established connection failed because connected host has failed to respond 10.200.7.182:5300

2023-06-04 21:04:21.849: Error Message: An established connection was aborted by the software in your host machine 10.200.7.182:5300

2023-06-04 21:04:22.059: Error Message: An established connection was aborted by the software in your host machine 10.200.7.182:5300

2023-06-04 21:04:22.198: Error Message: An established connection was aborted by the software in your host machine 10.200.7.182:5300

2023-06-04 21:04:22.198: Error Message: A connection attempt failed because the connected party did not properly respond after a period of time, or established connection failed because connected host has failed to respond 10.200.7.182:5300

2023-06-04 21:04:22.315: Error Message: A connection attempt failed because the connected party did not properly respond after a period of time, or established connection failed because connected host has failed to respond 10.200.7.182:5300

2023-06-04 21:04:22.569: Error Message: An established connection was aborted by the software in your host machine 10.200.7.182:5300

2023-06-04 21:04:24.196: Error Message: A socket operation was attempted to an unreachable host 10.200.7.182:5300

2023-06-04 21:04:24.377: Error Message: An established connection was aborted by the software in your host machine 10.200.7.182:5300

2023-06-04 21:04:24.731: Error Message: A connection attempt failed because the connected party did not properly respond after a period of time, or established connection failed because connected host has failed to respond 10.200.7.182:5300

2023-06-04 21:04:25.193: Error Message: A connection attempt failed because the connected party did not properly respond after a period of time, or established connection failed because connected host has failed to respond 10.200.7.182:5300

2023-06-04 21:04:25.201: Error Message: A connection attempt failed because the connected party did not properly respond after a period of time, or established connection failed because connected host has failed to respond 10.200.7.182:5300

2023-06-04 21:04:25.325: Read data from HostIP [10.200.7.182:5300] by the command [05 03 20 01 00 02 9F 8F].
2023-06-04 21:04:25.327: Read data from HostIP [10.200.7.182:5300] by the command [06 03 20 01 00 02 9F BC].
2023-06-04 21:04:25.396: Error Message: An established connection was aborted by the software in your host machine 10.200.7.182:5300

2023-06-04 21:04:25.396: Error Message: A connection attempt failed because the connected party did not properly respond after a period of time, or established connection failed because connected host has failed to respond 10.200.7.182:5300

2023-06-04 21:04:25.566: ParallelExecution time for ParallelExecutionforElectricityMeter: 1643455
2023-06-04 21:04:25.566: Read data from HostIP [10.200.7.182:5300] by the command [03 03 20 01 00 02 9F E9].
2023-06-04 21:04:25.571: Error Message: A connection attempt failed because the connected party did not properly respond after a period of time, or established connection failed because connected host has failed to respond 10.200.7.182:5300

2023-06-04 21:04:25.712: Read data from HostIP [10.200.7.182:5300] by the command [02 03 20 01 00 02 9E 38].
2023-06-04 21:04:25.801: Error Message: An established connection was aborted by the software in your host machine 10.200.7.182:5300

2023-06-04 21:04:25.929: Read data from HostIP [10.200.7.182:5300] by the command [03 03 20 01 00 02 9F E9].
2023-06-04 21:04:25.976: Error Message: An established connection was aborted by the software in your host machine 10.200.7.182:5300

2023-06-04 21:04:26.017: Error Message: A connection attempt failed because the connected party did not properly respond after a period of time, or established connection failed because connected host has failed to respond 10.200.7.182:5300

2023-06-04 21:04:26.024: Error Message: An established connection was aborted by the software in your host machine 10.200.7.182:5300

2023-06-04 21:04:26.084: Read data from HostIP [10.200.7.182:5300] by the command [02 03 20 01 00 02 9E 38].
2023-06-04 21:04:26.121: Error Message: An established connection was aborted by the software in your host machine 10.200.7.182:5300

2023-06-04 21:04:26.148: Read data from HostIP [10.200.7.182:5300] by the command [04 03 20 01 00 02 9E 5E].
2023-06-04 21:04:26.148: ParallelExecution time for ParallelExecutionforElectricityMeter: 1654038
2023-06-04 21:04:26.182: Error Message: A connection attempt failed because the connected party did not properly respond after a period of time, or established connection failed because connected host has failed to respond 10.200.7.182:5300

2023-06-04 21:04:26.182: Error Message: A socket operation was attempted to an unreachable host 10.200.7.182:5300

2023-06-04 21:04:26.502: Read data from HostIP [10.200.7.182:5300] by the command [04 03 20 01 00 02 9E 5E].
2023-06-04 21:04:26.502: Read data from HostIP [10.200.7.182:5300] by the command [06 03 20 01 00 02 9F BC].
2023-06-04 21:04:26.502: Error Message: A connection attempt failed because the connected party did not properly respond after a period of time, or established connection failed because connected host has failed to respond 10.200.7.182:5300

2023-06-04 21:04:26.503: Read data from HostIP [10.200.7.182:5300] by the command [02 03 20 01 00 02 9E 38].
2023-06-04 21:04:26.503: Error Message: An established connection was aborted by the software in your host machine 10.200.7.182:5300

2023-06-04 21:04:26.603: ParallelExecution time for ParallelExecutionforElectricityMeter: 1664498
2023-06-04 21:04:26.606: Read data from HostIP [10.200.7.182:5300] by the command [05 03 20 01 00 02 9F 8F].
2023-06-04 21:04:30.811: Read data from HostIP [10.200.7.182:5300] by the command [01 03 20 01 00 02 9E 0B].
2023-06-04 21:04:40.823: Read data from HostIP [10.200.7.182:5300] by the command [01 03 20 01 00 02 9E 0B].
2023-06-04 21:04:46.530: Error Message: A connection attempt failed because the connected party did not properly respond after a period of time, or established connection failed because connected host has failed to respond 10.200.7.182:5300

2023-06-04 21:04:46.730: Error Message: A connection attempt failed because the connected party did not properly respond after a period of time, or established connection failed because connected host has failed to respond 10.200.7.182:5300

2023-06-04 21:04:46.999: Error Message: A connection attempt failed because the connected party did not properly respond after a period of time, or established connection failed because connected host has failed to respond 10.200.7.182:5300

2023-06-04 21:04:47.142: ParallelExecution time for ParallelExecutionforElectricityMeter: 1655029
2023-06-04 21:04:47.211: Error Message: A connection attempt failed because the connected party did not properly respond after a period of time, or established connection failed because connected host has failed to respond 10.200.7.182:5300

2023-06-04 21:04:47.311: Error Message: A connection attempt failed because the connected party did not properly respond after a period of time, or established connection failed because connected host has failed to respond 10.200.7.182:5300

2023-06-04 21:04:47.492: Error Message: A connection attempt failed because the connected party did not properly respond after a period of time, or established connection failed because connected host has failed to respond 10.200.7.182:5300

2023-06-04 21:04:47.524: Error Message: A connection attempt failed because the connected party did not properly respond after a period of time, or established connection failed because connected host has failed to respond 10.200.7.182:5300

2023-06-04 21:04:47.647: Read data from HostIP [10.200.7.182:5300] by the command [06 03 20 01 00 02 9F BC].
2023-06-04 21:04:47.721: Error Message: A connection attempt failed because the connected party did not properly respond after a period of time, or established connection failed because connected host has failed to respond 10.200.7.182:5300

2023-06-04 21:04:47.888: Error Message: A connection attempt failed because the connected party did not properly respond after a period of time, or established connection failed because connected host has failed to respond 10.200.7.182:5300

2023-06-04 21:04:48.006: Read data from HostIP [10.200.7.182:5300] by the command [04 03 20 01 00 02 9E 5E].
2023-06-04 21:04:48.045: Error Message: A connection attempt failed because the connected party did not properly respond after a period of time, or established connection failed because connected host has failed to respond 10.200.7.182:5300

2023-06-04 21:04:48.209: Error Message: A connection attempt failed because the connected party did not properly respond after a period of time, or established connection failed because connected host has failed to respond 10.200.7.182:5300

2023-06-04 21:04:48.324: Error Message: A connection attempt failed because the connected party did not properly respond after a period of time, or established connection failed because connected host has failed to respond 10.200.7.182:5300

2023-06-04 21:04:48.324: Error Message: A connection attempt failed because the connected party did not properly respond after a period of time, or established connection failed because connected host has failed to respond 10.200.7.182:5300

2023-06-04 21:04:48.348: Error Message: A connection attempt failed because the connected party did not properly respond after a period of time, or established connection failed because connected host has failed to respond 10.200.7.182:5300

2023-06-04 21:04:48.443: Read data from HostIP [10.200.7.182:5300] by the command [03 03 20 01 00 02 9F E9].
2023-06-04 21:04:48.496: Error Message: A connection attempt failed because the connected party did not properly respond after a period of time, or established connection failed because connected host has failed to respond 10.200.7.182:5300

2023-06-04 21:04:48.675: Error Message: A connection attempt failed because the connected party did not properly respond after a period of time, or established connection failed because connected host has failed to respond 10.200.7.182:5300

2023-06-04 21:04:48.723: Error Message: A connection attempt failed because the connected party did not properly respond after a period of time, or established connection failed because connected host has failed to respond 10.200.7.182:5300

2023-06-04 21:04:48.817: Read data from HostIP [10.200.7.182:5300] by the command [03 03 20 01 00 02 9F E9].
2023-06-04 21:04:48.863: Read data from HostIP [10.200.7.182:5300] by the command [04 03 20 01 00 02 9E 5E].
2023-06-04 21:04:48.863: Error Message: A connection attempt failed because the connected party did not properly respond after a period of time, or established connection failed because connected host has failed to respond 10.200.7.182:5300

2023-06-04 21:04:48.977: Error Message: A connection attempt failed because the connected party did not properly respond after a period of time, or established connection failed because connected host has failed to respond 10.200.7.182:5300

2023-06-04 21:04:48.998: Read data from HostIP [10.200.7.182:5300] by the command [05 03 20 01 00 02 9F 8F].
2023-06-04 21:04:49.062: Error Message: A connection attempt failed because the connected party did not properly respond after a period of time, or established connection failed because connected host has failed to respond 10.200.7.182:5300

2023-06-04 21:04:49.109: Read data from HostIP [10.200.7.182:5300] by the command [05 03 20 01 00 02 9F 8F].
2023-06-04 21:04:49.132: Error Message: A connection attempt failed because the connected party did not properly respond after a period of time, or established connection failed because connected host has failed to respond 10.200.7.182:5300

2023-06-04 21:04:49.197: ParallelExecution time for ParallelExecutionforElectricityMeter: 1647061
2023-06-04 21:04:49.198: Error Message: A connection attempt failed because the connected party did not properly respond after a period of time, or established connection failed because connected host has failed to respond 10.200.7.182:5300

2023-06-04 21:04:49.233: Read data from HostIP [10.200.7.182:5300] by the command [03 03 20 01 00 02 9F E9].
2023-06-04 21:04:49.299: Read data from HostIP [10.200.7.182:5300] by the command [06 03 20 01 00 02 9F BC].
2023-06-04 21:04:50.824: Read data from HostIP [10.200.7.182:5300] by the command [01 03 20 01 00 02 9E 0B].
2023-06-04 21:04:52.001: Error Message: A connection attempt failed because the connected party did not properly respond after a period of time, or established connection failed because connected host has failed to respond 10.200.7.182:5300

2023-06-04 21:04:52.193: Error Message: A connection attempt failed because the connected party did not properly respond after a period of time, or established connection failed because connected host has failed to respond 10.200.7.182:5300

2023-06-04 21:04:52.294: Read data from HostIP [10.200.7.182:5300] by the command [02 03 20 01 00 02 9E 38].
2023-06-04 21:05:01.826: Read data from HostIP [10.200.7.182:5300] by the command [01 03 20 01 00 02 9E 0B].
2023-06-04 21:05:01.942: Error Message: A connection attempt failed because the connected party did not properly respond after a period of time, or established connection failed because connected host has failed to respond 10.200.7.182:5300

2023-06-04 21:05:02.139: Error Message: A connection attempt failed because the connected party did not properly respond after a period of time, or established connection failed because connected host has failed to respond 10.200.7.182:5300

2023-06-04 21:05:02.240: Read data from HostIP [10.200.7.182:5300] by the command [02 03 20 01 00 02 9E 38].
2023-06-04 21:05:08.843: Error Message: A connection attempt failed because the connected party did not properly respond after a period of time, or established connection failed because connected host has failed to respond 10.200.7.182:5300

2023-06-04 21:05:09.307: Error Message: A connection attempt failed because the connected party did not properly respond after a period of time, or established connection failed because connected host has failed to respond 10.200.7.182:5300

2023-06-04 21:05:09.382: Error Message: A connection attempt failed because the connected party did not properly respond after a period of time, or established connection failed because connected host has failed to respond 10.200.7.182:5300

2023-06-04 21:05:09.459: ParallelExecution time for ParallelExecutionforElectricityMeter: 1657344
2023-06-04 21:05:09.813: Error Message: A connection attempt failed because the connected party did not properly respond after a period of time, or established connection failed because connected host has failed to respond 10.200.7.182:5300

2023-06-04 21:05:09.882: Error Message: A connection attempt failed because the connected party did not properly respond after a period of time, or established connection failed because connected host has failed to respond 10.200.7.182:5300

2023-06-04 21:05:10.019: Read data from HostIP [10.200.7.182:5300] by the command [05 03 20 01 00 02 9F 8F].
2023-06-04 21:05:10.863: Error Message: A connection attempt failed because the connected party did not properly respond after a period of time, or established connection failed because connected host has failed to respond 10.200.7.182:5300

2023-06-04 21:05:11.327: Error Message: A connection attempt failed because the connected party did not properly respond after a period of time, or established connection failed because connected host has failed to respond 10.200.7.182:5300

2023-06-04 21:05:11.374: Error Message: A connection attempt failed because the connected party did not properly respond after a period of time, or established connection failed because connected host has failed to respond 10.200.7.182:5300

2023-06-04 21:05:11.650: Error Message: A connection attempt failed because the connected party did not properly respond after a period of time, or established connection failed because connected host has failed to respond 10.200.7.182:5300

2023-06-04 21:05:11.700: Error Message: A connection attempt failed because the connected party did not properly respond after a period of time, or established connection failed because connected host has failed to respond 10.200.7.182:5300

2023-06-04 21:05:11.773: Error Message: A connection attempt failed because the connected party did not properly respond after a period of time, or established connection failed because connected host has failed to respond 10.200.7.182:5300

2023-06-04 21:05:11.960: Read data from HostIP [10.200.7.182:5300] by the command [01 03 20 01 00 02 9E 0B].
2023-06-04 21:05:12.097: Read data from HostIP [10.200.7.182:5300] by the command [04 03 20 01 00 02 9E 5E].
2023-06-04 21:05:12.979: Error Message: A connection attempt failed because the connected party did not properly respond after a period of time, or established connection failed because connected host has failed to respond 10.200.7.182:5300

2023-06-04 21:05:12.982: Error Message: A connection attempt failed because the connected party did not properly respond after a period of time, or established connection failed because connected host has failed to respond 10.200.7.182:5300

2023-06-04 21:05:12.982: Error Message: A connection attempt failed because the connected party did not properly respond after a period of time, or established connection failed because connected host has failed to respond 10.200.7.182:5300

2023-06-04 21:05:12.978: Error Message: A connection attempt failed because the connected party did not properly respond after a period of time, or established connection failed because connected host has failed to respond 10.200.7.182:5300

2023-06-04 21:05:13.089: Read data from HostIP [10.200.7.182:5300] by the command [06 03 20 01 00 02 9F BC].
2023-06-04 21:05:13.089: Read data from HostIP [10.200.7.182:5300] by the command [05 03 20 01 00 02 9F 8F].
2023-06-04 21:05:13.583: Error Message: A connection attempt failed because the connected party did not properly respond after a period of time, or established connection failed because connected host has failed to respond 10.200.7.182:5300

2023-06-04 21:05:13.727: Read data from HostIP [10.200.7.182:5300] by the command [04 03 20 01 00 02 9E 5E].
2023-06-04 21:05:13.828: Error Message: A connection attempt failed because the connected party did not properly respond after a period of time, or established connection failed because connected host has failed to respond 10.200.7.182:5300

2023-06-04 21:05:13.828: Error Message: A connection attempt failed because the connected party did not properly respond after a period of time, or established connection failed because connected host has failed to respond 10.200.7.182:5300

2023-06-04 21:05:13.935: Read data from HostIP [10.200.7.182:5300] by the command [06 03 20 01 00 02 9F BC].
2023-06-04 21:05:13.935: Read data from HostIP [10.200.7.182:5300] by the command [04 03 20 01 00 02 9E 5E].
2023-06-04 21:05:13.961: Error Message: A connection attempt failed because the connected party did not properly respond after a period of time, or established connection failed because connected host has failed to respond 10.200.7.182:5300

2023-06-04 21:05:14.041: Error Message: A connection attempt failed because the connected party did not properly respond after a period of time, or established connection failed because connected host has failed to respond 10.200.7.182:5300

2023-06-04 21:05:14.124: Read data from HostIP [10.200.7.182:5300] by the command [02 03 20 01 00 02 9E 38].
2023-06-04 21:05:14.352: Error Message: A connection attempt failed because the connected party did not properly respond after a period of time, or established connection failed because connected host has failed to respond 10.200.7.182:5300

2023-06-04 21:05:14.493: Error Message: A connection attempt failed because the connected party did not properly respond after a period of time, or established connection failed because connected host has failed to respond 10.200.7.182:5300

2023-06-04 21:05:14.494: ParallelExecution time for ParallelExecutionforElectricityMeter: 1652367
2023-06-04 21:05:14.595: Read data from HostIP [10.200.7.182:5300] by the command [03 03 20 01 00 02 9F E9].
2023-06-04 21:05:21.851: Read data from HostIP [10.200.7.182:5300] by the command [01 03 20 01 00 02 9E 0B].
2023-06-04 21:05:22.960: Error Message: A connection attempt failed because the connected party did not properly respond after a period of time, or established connection failed because connected host has failed to respond 10.200.7.182:5300

2023-06-04 21:05:23.150: Error Message: A connection attempt failed because the connected party did not properly respond after a period of time, or established connection failed because connected host has failed to respond 10.200.7.182:5300

2023-06-04 21:05:23.272: Read data from HostIP [10.200.7.182:5300] by the command [02 03 20 01 00 02 9E 38].
2023-06-04 21:05:23.373: Error Message: A connection attempt failed because the connected party did not properly respond after a period of time, or established connection failed because connected host has failed to respond 10.200.7.182:5300

2023-06-04 21:05:23.567: Error Message: A connection attempt failed because the connected party did not properly respond after a period of time, or established connection failed because connected host has failed to respond 10.200.7.182:5300

2023-06-04 21:05:23.668: Read data from HostIP [10.200.7.182:5300] by the command [03 03 20 01 00 02 9F E9].
2023-06-04 21:05:31.695: Error Message: A connection attempt failed because the connected party did not properly respond after a period of time, or established connection failed because connected host has failed to respond 10.200.7.182:5300

2023-06-04 21:05:31.879: Read data from HostIP [10.200.7.182:5300] by the command [01 03 20 01 00 02 9E 0B].
2023-06-04 21:05:31.901: Error Message: A connection attempt failed because the connected party did not properly respond after a period of time, or established connection failed because connected host has failed to respond 10.200.7.182:5300

2023-06-04 21:05:32.003: Read data from HostIP [10.200.7.182:5300] by the command [06 03 20 01 00 02 9F BC].
2023-06-04 21:05:33.278: Error Message: A connection attempt failed because the connected party did not properly respond after a period of time, or established connection failed because connected host has failed to respond 10.200.7.182:5300

2023-06-04 21:05:33.471: Error Message: A connection attempt failed because the connected party did not properly respond after a period of time, or established connection failed because connected host has failed to respond 10.200.7.182:5300

2023-06-04 21:05:33.687: Error Message: A connection attempt failed because the connected party did not properly respond after a period of time, or established connection failed because connected host has failed to respond 10.200.7.182:5300

2023-06-04 21:05:33.771: Error Message: A connection attempt failed because the connected party did not properly respond after a period of time, or established connection failed because connected host has failed to respond 10.200.7.182:5300

2023-06-04 21:05:33.788: Read data from HostIP [10.200.7.182:5300] by the command [02 03 20 01 00 02 9E 38].
2023-06-04 21:05:33.872: Read data from HostIP [10.200.7.182:5300] by the command [05 03 20 01 00 02 9F 8F].
2023-06-04 21:05:34.295: Error Message: A connection attempt failed because the connected party did not properly respond after a period of time, or established connection failed because connected host has failed to respond 10.200.7.182:5300

2023-06-04 21:05:34.518: Error Message: A connection attempt failed because the connected party did not properly respond after a period of time, or established connection failed because connected host has failed to respond 10.200.7.182:5300

2023-06-04 21:05:34.601: Error Message: A connection attempt failed because the connected party did not properly respond after a period of time, or established connection failed because connected host has failed to respond 10.200.7.182:5300

2023-06-04 21:05:34.711: Read data from HostIP [10.200.7.182:5300] by the command [06 03 20 01 00 02 9F BC].
2023-06-04 21:05:34.774: Error Message: A connection attempt failed because the connected party did not properly respond after a period of time, or established connection failed because connected host has failed to respond 10.200.7.182:5300

2023-06-04 21:05:34.887: ParallelExecution time for ParallelExecutionforElectricityMeter: 1662762
2023-06-04 21:05:34.887: Error Message: A connection attempt failed because the connected party did not properly respond after a period of time, or established connection failed because connected host has failed to respond 10.200.7.182:5300

2023-06-04 21:05:35.059: Error Message: A connection attempt failed because the connected party did not properly respond after a period of time, or established connection failed because connected host has failed to respond 10.200.7.182:5300

2023-06-04 21:05:35.176: Read data from HostIP [10.200.7.182:5300] by the command [05 03 20 01 00 02 9F 8F].
2023-06-04 21:05:35.338: Error Message: A connection attempt failed because the connected party did not properly respond after a period of time, or established connection failed because connected host has failed to respond 10.200.7.182:5300

2023-06-04 21:05:35.407: Error Message: A connection attempt failed because the connected party did not properly respond after a period of time, or established connection failed because connected host has failed to respond 10.200.7.182:5300

2023-06-04 21:05:35.662: Error Message: A connection attempt failed because the connected party did not properly respond after a period of time, or established connection failed because connected host has failed to respond 10.200.7.182:5300

2023-06-04 21:05:35.941: Error Message: A connection attempt failed because the connected party did not properly respond after a period of time, or established connection failed because connected host has failed to respond 10.200.7.182:5300

2023-06-04 21:05:36.017: Error Message: A connection attempt failed because the connected party did not properly respond after a period of time, or established connection failed because connected host has failed to respond 10.200.7.182:5300

2023-06-04 21:05:36.114: Error Message: A connection attempt failed because the connected party did not properly respond after a period of time, or established connection failed because connected host has failed to respond 10.200.7.182:5300

2023-06-04 21:05:36.160: ParallelExecution time for ParallelExecutionforElectricityMeter: 1654034
2023-06-04 21:05:36.256: Error Message: A connection attempt failed because the connected party did not properly respond after a period of time, or established connection failed because connected host has failed to respond 10.200.7.182:5300

2023-06-04 21:05:36.256: Read data from HostIP [10.200.7.182:5300] by the command [05 03 20 01 00 02 9F 8F].
2023-06-04 21:05:36.337: Error Message: A connection attempt failed because the connected party did not properly respond after a period of time, or established connection failed because connected host has failed to respond 10.200.7.182:5300

2023-06-04 21:05:36.357: Read data from HostIP [10.200.7.182:5300] by the command [03 03 20 01 00 02 9F E9].
2023-06-04 21:05:36.437: Read data from HostIP [10.200.7.182:5300] by the command [04 03 20 01 00 02 9E 5E].
2023-06-04 21:05:41.877: Read data from HostIP [10.200.7.182:5300] by the command [01 03 20 01 00 02 9E 0B].
2023-06-04 21:05:42.977: Error Message: A connection attempt failed because the connected party did not properly respond after a period of time, or established connection failed because connected host has failed to respond 10.200.7.182:5300

2023-06-04 21:05:43.145: Error Message: A connection attempt failed because the connected party did not properly respond after a period of time, or established connection failed because connected host has failed to respond 10.200.7.182:5300

2023-06-04 21:05:43.247: Read data from HostIP [10.200.7.182:5300] by the command [02 03 20 01 00 02 9E 38].
2023-06-04 21:05:44.405: Error Message: A connection attempt failed because the connected party did not properly respond after a period of time, or established connection failed because connected host has failed to respond 10.200.7.182:5300

2023-06-04 21:05:44.550: Error Message: A connection attempt failed because the connected party did not properly respond after a period of time, or established connection failed because connected host has failed to respond 10.200.7.182:5300

2023-06-04 21:05:44.652: Read data from HostIP [10.200.7.182:5300] by the command [03 03 20 01 00 02 9F E9].
2023-06-04 21:05:44.790: Error Message: A connection attempt failed because the connected party did not properly respond after a period of time, or established connection failed because connected host has failed to respond 10.200.7.182:5300

2023-06-04 21:05:44.942: Error Message: A connection attempt failed because the connected party did not properly respond after a period of time, or established connection failed because connected host has failed to respond 10.200.7.182:5300

2023-06-04 21:05:45.044: Read data from HostIP [10.200.7.182:5300] by the command [04 03 20 01 00 02 9E 5E].
2023-06-04 21:05:51.879: Read data from HostIP [10.200.7.182:5300] by the command [01 03 20 01 00 02 9E 0B].
2023-06-04 21:05:53.117: Error Message: A connection attempt failed because the connected party did not properly respond after a period of time, or established connection failed because connected host has failed to respond 10.200.7.182:5300

2023-06-04 21:05:53.141: Error Message: A connection attempt failed because the connected party did not properly respond after a period of time, or established connection failed because connected host has failed to respond 10.200.7.182:5300

2023-06-04 21:05:53.399: Error Message: A connection attempt failed because the connected party did not properly respond after a period of time, or established connection failed because connected host has failed to respond 10.200.7.182:5300

2023-06-04 21:05:53.506: Error Message: A connection attempt failed because the connected party did not properly respond after a period of time, or established connection failed because connected host has failed to respond 10.200.7.182:5300

2023-06-04 21:05:53.506: Read data from HostIP [10.200.7.182:5300] by the command [02 03 20 01 00 02 9E 38].
2023-06-04 21:05:53.607: ParallelExecution time for ParallelExecutionforElectricityMeter: 1661466
2023-06-04 21:05:54.903: Error Message: A connection attempt failed because the connected party did not properly respond after a period of time, or established connection failed because connected host has failed to respond 10.200.7.182:5300

2023-06-04 21:05:55.085: Error Message: A connection attempt failed because the connected party did not properly respond after a period of time, or established connection failed because connected host has failed to respond 10.200.7.182:5300

2023-06-04 21:05:55.270: Error Message: A connection attempt failed because the connected party did not properly respond after a period of time, or established connection failed because connected host has failed to respond 10.200.7.182:5300

2023-06-04 21:05:55.353: Error Message: A connection attempt failed because the connected party did not properly respond after a period of time, or established connection failed because connected host has failed to respond 10.200.7.182:5300

2023-06-04 21:05:55.391: Read data from HostIP [10.200.7.182:5300] by the command [03 03 20 01 00 02 9F E9].
2023-06-04 21:05:55.455: Read data from HostIP [10.200.7.182:5300] by the command [06 03 20 01 00 02 9F BC].
2023-06-04 21:05:55.841: Error Message: A connection attempt failed because the connected party did not properly respond after a period of time, or established connection failed because connected host has failed to respond 10.200.7.182:5300

2023-06-04 21:05:56.009: Error Message: A connection attempt failed because the connected party did not properly respond after a period of time, or established connection failed because connected host has failed to respond 10.200.7.182:5300

2023-06-04 21:05:56.111: ParallelExecution time for ParallelExecutionforElectricityMeter: 1653970
2023-06-04 21:05:56.336: Error Message: A connection attempt failed because the connected party did not properly respond after a period of time, or established connection failed because connected host has failed to respond 10.200.7.182:5300

2023-06-04 21:05:56.510: Error Message: A connection attempt failed because the connected party did not properly respond after a period of time, or established connection failed because connected host has failed to respond 10.200.7.182:5300

2023-06-04 21:05:56.611: Read data from HostIP [10.200.7.182:5300] by the command [06 03 20 01 00 02 9F BC].
2023-06-04 21:05:57.380: Error Message: A connection attempt failed because the connected party did not properly respond after a period of time, or established connection failed because connected host has failed to respond 10.200.7.182:5300

2023-06-04 21:05:57.514: Error Message: A connection attempt failed because the connected party did not properly respond after a period of time, or established connection failed because connected host has failed to respond 10.200.7.182:5300

2023-06-04 21:05:57.749: Error Message: A connection attempt failed because the connected party did not properly respond after a period of time, or established connection failed because connected host has failed to respond 10.200.7.182:5300

2023-06-04 21:05:58.027: Error Message: A connection attempt failed because the connected party did not properly respond after a period of time, or established connection failed because connected host has failed to respond 10.200.7.182:5300

2023-06-04 21:05:58.120: Error Message: A connection attempt failed because the connected party did not properly respond after a period of time, or established connection failed because connected host has failed to respond 10.200.7.182:5300

2023-06-04 21:05:58.125: Error Message: A connection attempt failed because the connected party did not properly respond after a period of time, or established connection failed because connected host has failed to respond 10.200.7.182:5300

2023-06-04 21:05:58.128: Read data from HostIP [10.200.7.182:5300] by the command [04 03 20 01 00 02 9E 5E].
2023-06-04 21:05:58.221: Read data from HostIP [10.200.7.182:5300] by the command [06 03 20 01 00 02 9F BC].
2023-06-04 21:05:58.226: Read data from HostIP [10.200.7.182:5300] by the command [05 03 20 01 00 02 9F 8F].
2023-06-04 21:06:01.878: Read data from HostIP [10.200.7.182:5300] by the command [01 03 20 01 00 02 9E 0B].
2023-06-04 21:06:02.997: Error Message: A connection attempt failed because the connected party did not properly respond after a period of time, or established connection failed because connected host has failed to respond 10.200.7.182:5300

2023-06-04 21:06:03.191: Error Message: A connection attempt failed because the connected party did not properly respond after a period of time, or established connection failed because connected host has failed to respond 10.200.7.182:5300

2023-06-04 21:06:03.292: Read data from HostIP [10.200.7.182:5300] by the command [02 03 20 01 00 02 9E 38].
2023-06-04 21:06:04.381: Error Message: A connection attempt failed because the connected party did not properly respond after a period of time, or established connection failed because connected host has failed to respond 10.200.7.182:5300

2023-06-04 21:06:04.569: Error Message: A connection attempt failed because the connected party did not properly respond after a period of time, or established connection failed because connected host has failed to respond 10.200.7.182:5300

2023-06-04 21:06:04.671: Read data from HostIP [10.200.7.182:5300] by the command [03 03 20 01 00 02 9F E9].
2023-06-04 21:06:05.771: Error Message: A connection attempt failed because the connected party did not properly respond after a period of time, or established connection failed because connected host has failed to respond 10.200.7.182:5300

2023-06-04 21:06:05.937: Error Message: A connection attempt failed because the connected party did not properly respond after a period of time, or established connection failed because connected host has failed to respond 10.200.7.182:5300

2023-06-04 21:06:06.039: Read data from HostIP [10.200.7.182:5300] by the command [04 03 20 01 00 02 9E 5E].
2023-06-04 21:06:06.166: Error Message: A connection attempt failed because the connected party did not properly respond after a period of time, or established connection failed because connected host has failed to respond 10.200.7.182:5300

2023-06-04 21:06:06.354: Error Message: A connection attempt failed because the connected party did not properly respond after a period of time, or established connection failed because connected host has failed to respond 10.200.7.182:5300

2023-06-04 21:06:06.455: Read data from HostIP [10.200.7.182:5300] by the command [05 03 20 01 00 02 9F 8F].
2023-06-04 21:06:11.894: Read data from HostIP [10.200.7.182:5300] by the command [01 03 20 01 00 02 9E 0B].
2023-06-04 21:06:13.003: Error Message: A connection attempt failed because the connected party did not properly respond after a period of time, or established connection failed because connected host has failed to respond 10.200.7.182:5300

2023-06-04 21:06:13.173: Error Message: A connection attempt failed because the connected party did not properly respond after a period of time, or established connection failed because connected host has failed to respond 10.200.7.182:5300

2023-06-04 21:06:13.275: Read data from HostIP [10.200.7.182:5300] by the command [02 03 20 01 00 02 9E 38].
2023-06-04 21:06:14.631: Error Message: A connection attempt failed because the connected party did not properly respond after a period of time, or established connection failed because connected host has failed to respond 10.200.7.182:5300

2023-06-04 21:06:14.810: Error Message: A connection attempt failed because the connected party did not properly respond after a period of time, or established connection failed because connected host has failed to respond 10.200.7.182:5300

2023-06-04 21:06:14.911: Read data from HostIP [10.200.7.182:5300] by the command [03 03 20 01 00 02 9F E9].
2023-06-04 21:06:16.513: Error Message: A connection attempt failed because the connected party did not properly respond after a period of time, or established connection failed because connected host has failed to respond 10.200.7.182:5300

2023-06-04 21:06:16.773: Error Message: A connection attempt failed because the connected party did not properly respond after a period of time, or established connection failed because connected host has failed to respond 10.200.7.182:5300

2023-06-04 21:06:16.887: Error Message: A connection attempt failed because the connected party did not properly respond after a period of time, or established connection failed because connected host has failed to respond 10.200.7.182:5300

2023-06-04 21:06:17.006: Error Message: A connection attempt failed because the connected party did not properly respond after a period of time, or established connection failed because connected host has failed to respond 10.200.7.182:5300

2023-06-04 21:06:17.006: Read data from HostIP [10.200.7.182:5300] by the command [04 03 20 01 00 02 9E 5E].
2023-06-04 21:06:17.107: ParallelExecution time for ParallelExecutionforElectricityMeter: 1664966
2023-06-04 21:06:17.719: Error Message: A connection attempt failed because the connected party did not properly respond after a period of time, or established connection failed because connected host has failed to respond 10.200.7.182:5300

2023-06-04 21:06:17.873: Error Message: A connection attempt failed because the connected party did not properly respond after a period of time, or established connection failed because connected host has failed to respond 10.200.7.182:5300

2023-06-04 21:06:17.977: ParallelExecution time for ParallelExecutionforElectricityMeter: 1655835
2023-06-04 21:06:19.249: Error Message: A connection attempt failed because the connected party did not properly respond after a period of time, or established connection failed because connected host has failed to respond 10.200.7.182:5300

2023-06-04 21:06:19.493: Error Message: A connection attempt failed because the connected party did not properly respond after a period of time, or established connection failed because connected host has failed to respond 10.200.7.182:5300

2023-06-04 21:06:19.493: Error Message: A connection attempt failed because the connected party did not properly respond after a period of time, or established connection failed because connected host has failed to respond 10.200.7.182:5300

2023-06-04 21:06:19.737: Error Message: A connection attempt failed because the connected party did not properly respond after a period of time, or established connection failed because connected host has failed to respond 10.200.7.182:5300

2023-06-04 21:06:19.854: Read data from HostIP [10.200.7.182:5300] by the command [05 03 20 01 00 02 9F 8F].
2023-06-04 21:06:19.931: Error Message: A connection attempt failed because the connected party did not properly respond after a period of time, or established connection failed because connected host has failed to respond 10.200.7.182:5300

2023-06-04 21:06:19.932: Error Message: A connection attempt failed because the connected party did not properly respond after a period of time, or established connection failed because connected host has failed to respond 10.200.7.182:5300

2023-06-04 21:06:20.032: Read data from HostIP [10.200.7.182:5300] by the command [06 03 20 01 00 02 9F BC].
2023-06-04 21:06:20.033: ParallelExecution time for ParallelExecutionforElectricityMeter: 119250
2023-06-04 21:06:21.893: Read data from HostIP [10.200.7.182:5300] by the command [01 03 20 01 00 02 9E 0B].
2023-06-04 21:06:22.977: Error Message: A connection attempt failed because the connected party did not properly respond after a period of time, or established connection failed because connected host has failed to respond 10.200.7.182:5300

2023-06-04 21:06:23.143: Error Message: A connection attempt failed because the connected party did not properly respond after a period of time, or established connection failed because connected host has failed to respond 10.200.7.182:5300

2023-06-04 21:06:23.245: Read data from HostIP [10.200.7.182:5300] by the command [02 03 20 01 00 02 9E 38].
2023-06-04 21:06:24.427: Error Message: A connection attempt failed because the connected party did not properly respond after a period of time, or established connection failed because connected host has failed to respond 10.200.7.182:5300

2023-06-04 21:06:24.640: Error Message: A connection attempt failed because the connected party did not properly respond after a period of time, or established connection failed because connected host has failed to respond 10.200.7.182:5300

2023-06-04 21:06:24.743: Read data from HostIP [10.200.7.182:5300] by the command [03 03 20 01 00 02 9F E9].
2023-06-04 21:06:24.828: Received Data [0x030304040C000018C0] from Server [10.200.7.182:5300] by the command [0103200100029E0B]
2023-06-04 21:06:24.829: Received Data [0x030304040C000018C0] from Server [10.200.7.182:5300] by the command [0203200100029E38]
2023-06-04 21:06:24.831: Received Data [0x030304040C000018C0] from Server [10.200.7.182:5300] by the command [0303200100029FE9]
2023-06-04 21:06:24.930: Read data from HostIP [10.200.7.182:5300] by the command [02 03 20 01 00 02 9E 38].
2023-06-04 21:06:24.931: Read data from HostIP [10.200.7.182:5300] by the command [03 03 20 01 00 02 9F E9].
2023-06-04 21:06:24.933: Read data from HostIP [10.200.7.182:5300] by the command [04 03 20 01 00 02 9E 5E].
2023-06-04 21:06:25.007: Received Data [0x030304040C000018C0] from Server [10.200.7.182:5300] by the command [0303200100029FE9]
2023-06-04 21:06:25.009: Received Data [0x030304040C000018C0] from Server [10.200.7.182:5300] by the command [0203200100029E38]
2023-06-04 21:06:25.109: Read data from HostIP [10.200.7.182:5300] by the command [04 03 20 01 00 02 9E 5E].
2023-06-04 21:06:25.110: Read data from HostIP [10.200.7.182:5300] by the command [03 03 20 01 00 02 9F E9].
2023-06-04 21:06:25.209: Received Data [0x030304040C000018C0] from Server [10.200.7.182:5300] by the command [0403200100029E5E]
2023-06-04 21:06:25.210: Received Data [0x030304040C000018C0] from Server [10.200.7.182:5300] by the command [0303200100029FE9]
2023-06-04 21:06:25.311: Read data from HostIP [10.200.7.182:5300] by the command [04 03 20 01 00 02 9E 5E].
2023-06-04 21:06:25.311: Read data from HostIP [10.200.7.182:5300] by the command [05 03 20 01 00 02 9F 8F].
2023-06-04 21:06:25.387: Received Data [0x040304040C00006E00] from Server [10.200.7.182:5300] by the command [0403200100029E5E]
2023-06-04 21:06:25.388: Received Data [0x040304040C00006E00] from Server [10.200.7.182:5300] by the command [0503200100029F8F]
2023-06-04 21:06:25.488: Read data from HostIP [10.200.7.182:5300] by the command [05 03 20 01 00 02 9F 8F].
2023-06-04 21:06:25.489: Read data from HostIP [10.200.7.182:5300] by the command [06 03 20 01 00 02 9F BC].
2023-06-04 21:06:25.809: Error Message: A connection attempt failed because the connected party did not properly respond after a period of time, or established connection failed because connected host has failed to respond 10.200.7.182:5300

2023-06-04 21:06:25.996: Error Message: A connection attempt failed because the connected party did not properly respond after a period of time, or established connection failed because connected host has failed to respond 10.200.7.182:5300

2023-06-04 21:06:26.027: Received Data [0x040304040C00006E00] from Server [10.200.7.182:5300] by the command [0503200100029F8F]
2023-06-04 21:06:26.029: Received Data [0x040304040C00006E00] from Server [10.200.7.182:5300] by the command [0603200100029FBC]
2023-06-04 21:06:26.030: Received Data [0x040304040C00006E00] from Server [10.200.7.182:5300] by the command [0403200100029E5E]
2023-06-04 21:06:26.097: Read data from HostIP [10.200.7.182:5300] by the command [04 03 20 01 00 02 9E 5E].
2023-06-04 21:06:26.128: Read data from HostIP [10.200.7.182:5300] by the command [06 03 20 01 00 02 9F BC].
2023-06-04 21:06:26.130: ParallelExecution time for ParallelExecutionforElectricityMeter: 24251
2023-06-04 21:06:26.131: Read data from HostIP [10.200.7.182:5300] by the command [05 03 20 01 00 02 9F 8F].
2023-06-04 21:06:26.175: Received Data [0x040304040C00006E00] from Server [10.200.7.182:5300] by the command [0403200100029E5E]
2023-06-04 21:06:26.216: Received Data [0x050304040D00002F00] from Server [10.200.7.182:5300] by the command [0603200100029FBC]
2023-06-04 21:06:26.217: Received Data [0x050304040D00002F00] from Server [10.200.7.182:5300] by the command [0503200100029F8F]
2023-06-04 21:06:26.277: Read data from HostIP [10.200.7.182:5300] by the command [05 03 20 01 00 02 9F 8F].
2023-06-04 21:06:26.318: ParallelExecution time for ParallelExecutionforElectricityMeter: 4424
2023-06-04 21:06:26.320: Read data from HostIP [10.200.7.182:5300] by the command [06 03 20 01 00 02 9F BC].
2023-06-04 21:06:26.408: Received Data [0x060304040D00001C00] from Server [10.200.7.182:5300] by the command [0503200100029F8F]
2023-06-04 21:06:26.411: Received Data [0x060304040D00001C00] from Server [10.200.7.182:5300] by the command [0603200100029FBC]
2023-06-04 21:06:26.510: Read data from HostIP [10.200.7.182:5300] by the command [06 03 20 01 00 02 9F BC].
2023-06-04 21:06:26.512: ParallelExecution time for ParallelExecutionforElectricityMeter: 44634
2023-06-04 21:06:26.586: Received Data [0x060304040D00001C00] from Server [10.200.7.182:5300] by the command [0603200100029FBC]
2023-06-04 21:06:26.687: ParallelExecution time for ParallelExecutionforElectricityMeter: 64835
2023-06-04 21:06:27.199: Error Message: A connection attempt failed because the connected party did not properly respond after a period of time, or established connection failed because connected host has failed to respond 10.200.7.182:5300

2023-06-04 21:06:27.464: Error Message: A connection attempt failed because the connected party did not properly respond after a period of time, or established connection failed because connected host has failed to respond 10.200.7.182:5300

2023-06-04 21:06:27.602: Read data from HostIP [10.200.7.182:5300] by the command [05 03 20 01 00 02 9F 8F].
2023-06-04 21:06:27.634: Error Message: A connection attempt failed because the connected party did not properly respond after a period of time, or established connection failed because connected host has failed to respond 10.200.7.182:5300

2023-06-04 21:06:27.776: Received Data [0x050304040D00002F00] from Server [10.200.7.182:5300] by the command [0503200100029F8F]
2023-06-04 21:06:27.910: Error Message: A connection attempt failed because the connected party did not properly respond after a period of time, or established connection failed because connected host has failed to respond 10.200.7.182:5300

2023-06-04 21:06:27.910: Read data from HostIP [10.200.7.182:5300] by the command [06 03 20 01 00 02 9F BC].
2023-06-04 21:06:28.011: Read data from HostIP [10.200.7.182:5300] by the command [06 03 20 01 00 02 9F BC].
2023-06-04 21:06:28.091: Received Data [0x060304040D00001C00] from Server [10.200.7.182:5300] by the command [0603200100029FBC]
2023-06-04 21:06:28.091: Received Data [0x060304040D00001C00] from Server [10.200.7.182:5300] by the command [0603200100029FBC]
2023-06-04 21:06:28.192: ParallelExecution time for ParallelExecutionforElectricityMeter: 86365
2023-06-04 21:06:28.193: ParallelExecution time for ParallelExecutionforElectricityMeter: 107369
2023-06-04 21:06:31.893: Read data from HostIP [10.200.7.182:5300] by the command [01 03 20 01 00 02 9E 0B].
2023-06-04 21:06:31.972: Received Data [0x010304040D00006AC0] from Server [10.200.7.182:5300] by the command [0103200100029E0B]
2023-06-04 21:06:32.073: Read data from HostIP [10.200.7.182:5300] by the command [02 03 20 01 00 02 9E 38].
2023-06-04 21:06:32.498: Received Data [0x020304040D000059C0] from Server [10.200.7.182:5300] by the command [0203200100029E38]
2023-06-04 21:06:32.599: Read data from HostIP [10.200.7.182:5300] by the command [03 03 20 01 00 02 9F E9].
2023-06-04 21:06:32.679: Received Data [0x030304040C000018C0] from Server [10.200.7.182:5300] by the command [0303200100029FE9]
2023-06-04 21:06:32.781: Read data from HostIP [10.200.7.182:5300] by the command [04 03 20 01 00 02 9E 5E].
2023-06-04 21:06:33.007: Error Message: A connection attempt failed because the connected party did not properly respond after a period of time, or established connection failed because connected host has failed to respond 10.200.7.182:5300

2023-06-04 21:06:33.187: Error Message: A connection attempt failed because the connected party did not properly respond after a period of time, or established connection failed because connected host has failed to respond 10.200.7.182:5300

2023-06-04 21:06:33.288: Read data from HostIP [10.200.7.182:5300] by the command [02 03 20 01 00 02 9E 38].
2023-06-04 21:06:34.390: Error Message: A connection attempt failed because the connected party did not properly respond after a period of time, or established connection failed because connected host has failed to respond 10.200.7.182:5300

2023-06-04 21:06:34.558: Error Message: A connection attempt failed because the connected party did not properly respond after a period of time, or established connection failed because connected host has failed to respond 10.200.7.182:5300

2023-06-04 21:06:34.659: Read data from HostIP [10.200.7.182:5300] by the command [03 03 20 01 00 02 9F E9].
2023-06-04 21:06:36.031: Error Message: A connection attempt failed because the connected party did not properly respond after a period of time, or established connection failed because connected host has failed to respond 10.200.7.182:5300

2023-06-04 21:06:36.205: Error Message: A connection attempt failed because the connected party did not properly respond after a period of time, or established connection failed because connected host has failed to respond 10.200.7.182:5300

2023-06-04 21:06:36.306: Read data from HostIP [10.200.7.182:5300] by the command [04 03 20 01 00 02 9E 5E].
2023-06-04 21:06:38.126: Error Message: A connection attempt failed because the connected party did not properly respond after a period of time, or established connection failed because connected host has failed to respond 10.200.7.182:5300

2023-06-04 21:06:38.294: Error Message: A connection attempt failed because the connected party did not properly respond after a period of time, or established connection failed because connected host has failed to respond 10.200.7.182:5300

2023-06-04 21:06:38.395: Read data from HostIP [10.200.7.182:5300] by the command [05 03 20 01 00 02 9F 8F].
2023-06-04 21:06:40.968: Error Message: A connection attempt failed because the connected party did not properly respond after a period of time, or established connection failed because connected host has failed to respond 10.200.7.182:5300

2023-06-04 21:06:41.212: Error Message: A connection attempt failed because the connected party did not properly respond after a period of time, or established connection failed because connected host has failed to respond 10.200.7.182:5300

2023-06-04 21:06:41.234: Error Message: A connection attempt failed because the connected party did not properly respond after a period of time, or established connection failed because connected host has failed to respond 10.200.7.182:5300

2023-06-04 21:06:41.313: Read data from HostIP [10.200.7.182:5300] by the command [06 03 20 01 00 02 9F BC].
2023-06-04 21:06:41.392: Error Message: A connection attempt failed because the connected party did not properly respond after a period of time, or established connection failed because connected host has failed to respond 10.200.7.182:5300

2023-06-04 21:06:41.493: ParallelExecution time for ParallelExecutionforElectricityMeter: 130681
2023-06-04 21:06:41.906: Read data from HostIP [10.200.7.182:5300] by the command [01 03 20 01 00 02 9E 0B].
2023-06-04 21:06:45.558: Received Data [0x050304040D00002F00] from Server [10.200.7.182:5300] by the command [0503200100029F8F]
2023-06-04 21:06:45.661: Read data from HostIP [10.200.7.182:5300] by the command [06 03 20 01 00 02 9F BC].
2023-06-04 21:06:48.359: Received Data [0x020304040D000059C0] from Server [10.200.7.182:5300] by the command [0603200100029FBC]
2023-06-04 21:06:48.360: Received Data [0x020304040D000059C0] from Server [10.200.7.182:5300] by the command [0403200100029E5E]
2023-06-04 21:06:48.361: Received Data [0x020304040D000059C0] from Server [10.200.7.182:5300] by the command [0203200100029E38]
2023-06-04 21:06:48.461: ParallelExecution time for ParallelExecutionforElectricityMeter: 96611
2023-06-04 21:06:48.462: Read data from HostIP [10.200.7.182:5300] by the command [05 03 20 01 00 02 9F 8F].
2023-06-04 21:06:48.463: Read data from HostIP [10.200.7.182:5300] by the command [03 03 20 01 00 02 9F E9].
2023-06-04 21:06:48.976: Received Data [0x010304040D00006AC0] from Server [10.200.7.182:5300] by the command [0603200100029FBC]
2023-06-04 21:06:48.976: Received Data [0x010304040D00006AC0] from Server [10.200.7.182:5300] by the command [0503200100029F8F]
2023-06-04 21:06:48.979: Received Data [0x010304040D00006AC0] from Server [10.200.7.182:5300] by the command [0303200100029FE9]
2023-06-04 21:06:48.979: Received Data [0x010304040D00006AC0] from Server [10.200.7.182:5300] by the command [0103200100029E0B]
2023-06-04 21:06:49.077: ParallelExecution time for ParallelExecutionforElectricityMeter: 118252
2023-06-04 21:06:49.078: Read data from HostIP [10.200.7.182:5300] by the command [06 03 20 01 00 02 9F BC].
2023-06-04 21:06:49.080: Read data from HostIP [10.200.7.182:5300] by the command [04 03 20 01 00 02 9E 5E].
2023-06-04 21:06:49.081: Read data from HostIP [10.200.7.182:5300] by the command [02 03 20 01 00 02 9E 38].
2023-06-04 21:06:49.731: Received Data [0x030304040C000018C0] from Server [10.200.7.182:5300] by the command [0603200100029FBC]
2023-06-04 21:06:49.733: Received Data [0x030304040C000018C0] from Server [10.200.7.182:5300] by the command [0403200100029E5E]
2023-06-04 21:06:49.734: Received Data [0x030304040C000018C0] from Server [10.200.7.182:5300] by the command [0303200100029FE9]
2023-06-04 21:06:49.833: ParallelExecution time for ParallelExecutionforElectricityMeter: 17939
2023-06-04 21:06:49.836: Read data from HostIP [10.200.7.182:5300] by the command [04 03 20 01 00 02 9E 5E].
2023-06-04 21:06:49.836: Read data from HostIP [10.200.7.182:5300] by the command [05 03 20 01 00 02 9F 8F].
2023-06-04 21:06:49.910: Received Data [0x040304040C00006E00] from Server [10.200.7.182:5300] by the command [0503200100029F8F]
2023-06-04 21:06:49.910: Received Data [0x040304040C00006E00] from Server [10.200.7.182:5300] by the command [0403200100029E5E]
2023-06-04 21:06:50.011: Read data from HostIP [10.200.7.182:5300] by the command [06 03 20 01 00 02 9F BC].
2023-06-04 21:06:50.012: Read data from HostIP [10.200.7.182:5300] by the command [05 03 20 01 00 02 9F 8F].
2023-06-04 21:06:51.432: Received Data [0x040304040C00006E00] from Server [10.200.7.182:5300] by the command [0603200100029FBC]
2023-06-04 21:06:51.433: Received Data [0x040304040C00006E00] from Server [10.200.7.182:5300] by the command [0503200100029F8F]
2023-06-04 21:06:51.434: Received Data [0x040304040C00006E00] from Server [10.200.7.182:5300] by the command [0203200100029E38]
2023-06-04 21:06:51.435: Received Data [0x040304040C00006E00] from Server [10.200.7.182:5300] by the command [0403200100029E5E]
2023-06-04 21:06:51.533: ParallelExecution time for ParallelExecutionforElectricityMeter: 39641
2023-06-04 21:06:51.534: Read data from HostIP [10.200.7.182:5300] by the command [06 03 20 01 00 02 9F BC].
2023-06-04 21:06:51.535: Read data from HostIP [10.200.7.182:5300] by the command [03 03 20 01 00 02 9F E9].
2023-06-04 21:06:51.536: Read data from HostIP [10.200.7.182:5300] by the command [05 03 20 01 00 02 9F 8F].
2023-06-04 21:06:51.907: Read data from HostIP [10.200.7.182:5300] by the command [01 03 20 01 00 02 9E 0B].
2023-06-04 21:06:51.977: Received Data [0x010304040D00006AC0] from Server [10.200.7.182:5300] by the command [0303200100029FE9]
2023-06-04 21:06:51.977: Received Data [0x010304040D00006AC0] from Server [10.200.7.182:5300] by the command [0603200100029FBC]
2023-06-04 21:06:51.979: Received Data [0x010304040D00006AC0] from Server [10.200.7.182:5300] by the command [0103200100029E0B]
2023-06-04 21:06:52.078: ParallelExecution time for ParallelExecutionforElectricityMeter: 60199
2023-06-04 21:06:52.078: Read data from HostIP [10.200.7.182:5300] by the command [04 03 20 01 00 02 9E 5E].
2023-06-04 21:06:52.080: Read data from HostIP [10.200.7.182:5300] by the command [02 03 20 01 00 02 9E 38].
2023-06-04 21:06:52.606: Received Data [0x050304040D00002F00] from Server [10.200.7.182:5300] by the command [0403200100029E5E]
2023-06-04 21:06:52.607: Received Data [0x050304040D00002F00] from Server [10.200.7.182:5300] by the command [0203200100029E38]
2023-06-04 21:06:52.608: Received Data [0x050304040D00002F00] from Server [10.200.7.182:5300] by the command [0503200100029F8F]
2023-06-04 21:06:52.707: Read data from HostIP [10.200.7.182:5300] by the command [05 03 20 01 00 02 9F 8F].
2023-06-04 21:06:52.709: Read data from HostIP [10.200.7.182:5300] by the command [03 03 20 01 00 02 9F E9].
2023-06-04 21:06:52.710: Read data from HostIP [10.200.7.182:5300] by the command [06 03 20 01 00 02 9F BC].
2023-06-04 21:06:52.774: Received Data [0x002F] from Server [10.200.7.182:5300] by the command [0503200100029F8F]
2023-06-04 21:06:52.775: Received Data [0x002F] from Server [10.200.7.182:5300] by the command [0303200100029FE9]
2023-06-04 21:06:52.876: Read data from HostIP [10.200.7.182:5300] by the command [06 03 20 01 00 02 9F BC].
2023-06-04 21:06:52.877: Read data from HostIP [10.200.7.182:5300] by the command [04 03 20 01 00 02 9E 5E].
2023-06-04 21:06:52.948: Received Data [0x060304040D00001C00] from Server [10.200.7.182:5300] by the command [0403200100029E5E]
2023-06-04 21:06:52.949: Received Data [0x060304040D00001C00] from Server [10.200.7.182:5300] by the command [0603200100029FBC]
2023-06-04 21:06:53.049: Read data from HostIP [10.200.7.182:5300] by the command [05 03 20 01 00 02 9F 8F].
2023-06-04 21:06:53.051: ParallelExecution time for ParallelExecutionforElectricityMeter: 11145
2023-06-04 21:06:53.779: Received Data [0x060304040D00001C00] from Server [10.200.7.182:5300] by the command [0503200100029F8F]
2023-06-04 21:06:53.780: Received Data [0x060304040D00001C00] from Server [10.200.7.182:5300] by the command [0603200100029FBC]
2023-06-04 21:06:53.881: Read data from HostIP [10.200.7.182:5300] by the command [06 03 20 01 00 02 9F BC].
2023-06-04 21:06:53.882: ParallelExecution time for ParallelExecutionforElectricityMeter: 82003
2023-06-04 21:06:53.950: Received Data [0x060304040D00001C00] from Server [10.200.7.182:5300] by the command [0603200100029FBC]
2023-06-04 21:06:54.052: ParallelExecution time for ParallelExecutionforElectricityMeter: 2143
2023-06-04 21:07:01.908: Read data from HostIP [10.200.7.182:5300] by the command [01 03 20 01 00 02 9E 0B].
2023-06-04 21:07:01.979: Received Data [0x010304040D00006AC0] from Server [10.200.7.182:5300] by the command [0103200100029E0B]
2023-06-04 21:07:02.079: Read data from HostIP [10.200.7.182:5300] by the command [02 03 20 01 00 02 9E 38].
2023-06-04 21:07:02.154: Received Data [0x020304040D000059C0] from Server [10.200.7.182:5300] by the command [0203200100029E38]
2023-06-04 21:07:02.255: Read data from HostIP [10.200.7.182:5300] by the command [03 03 20 01 00 02 9F E9].
2023-06-04 21:07:02.376: Received Data [0x030304040D00004900] from Server [10.200.7.182:5300] by the command [0303200100029FE9]
2023-06-04 21:07:02.477: Read data from HostIP [10.200.7.182:5300] by the command [04 03 20 01 00 02 9E 5E].
2023-06-04 21:07:11.917: Read data from HostIP [10.200.7.182:5300] by the command [01 03 20 01 00 02 9E 0B].
2023-06-04 21:07:21.920: Read data from HostIP [10.200.7.182:5300] by the command [01 03 20 01 00 02 9E 0B].
2023-06-04 21:07:21.989: Received Data [0x010304040D00006AC0] from Server [10.200.7.182:5300] by the command [0403200100029E5E]
2023-06-04 21:07:21.990: Received Data [0x010304040D00006AC0] from Server [10.200.7.182:5300] by the command [0103200100029E0B]
2023-06-04 21:07:21.991: Received Data [0x010304040D00006AC0] from Server [10.200.7.182:5300] by the command [0103200100029E0B]
2023-06-04 21:07:22.090: Read data from HostIP [10.200.7.182:5300] by the command [05 03 20 01 00 02 9F 8F].
2023-06-04 21:07:22.091: Read data from HostIP [10.200.7.182:5300] by the command [02 03 20 01 00 02 9E 38].
2023-06-04 21:07:22.092: Read data from HostIP [10.200.7.182:5300] by the command [02 03 20 01 00 02 9E 38].
2023-06-04 21:07:22.159: Received Data [0x02DF00] from Server [10.200.7.182:5300] by the command [0503200100029F8F]
2023-06-04 21:07:22.160: Received Data [0x02DF00] from Server [10.200.7.182:5300] by the command [0203200100029E38]
2023-06-04 21:07:22.260: Read data from HostIP [10.200.7.182:5300] by the command [06 03 20 01 00 02 9F BC].
2023-06-04 21:07:22.261: Read data from HostIP [10.200.7.182:5300] by the command [03 03 20 01 00 02 9F E9].
2023-06-04 21:07:23.253: Received Data [0x020304040D000059C0] from Server [10.200.7.182:5300] by the command [0303200100029FE9]
2023-06-04 21:07:23.255: Received Data [0x020304040D000059C0] from Server [10.200.7.182:5300] by the command [0603200100029FBC]
2023-06-04 21:07:23.256: Received Data [0x020304040D000059C0] from Server [10.200.7.182:5300] by the command [0203200100029E38]
2023-06-04 21:07:23.354: Read data from HostIP [10.200.7.182:5300] by the command [04 03 20 01 00 02 9E 5E].
2023-06-04 21:07:23.356: ParallelExecution time for ParallelExecutionforElectricityMeter: 21448
2023-06-04 21:07:23.357: Read data from HostIP [10.200.7.182:5300] by the command [03 03 20 01 00 02 9F E9].
2023-06-04 21:07:23.477: Received Data [0x030304040D00004900] from Server [10.200.7.182:5300] by the command [0403200100029E5E]
2023-06-04 21:07:23.478: Received Data [0x030304040D00004900] from Server [10.200.7.182:5300] by the command [0303200100029FE9]
2023-06-04 21:07:23.578: Read data from HostIP [10.200.7.182:5300] by the command [05 03 20 01 00 02 9F 8F].
2023-06-04 21:07:23.579: Read data from HostIP [10.200.7.182:5300] by the command [04 03 20 01 00 02 9E 5E].
2023-06-04 21:07:23.656: Received Data [0x040304040D00003FC0] from Server [10.200.7.182:5300] by the command [0503200100029F8F]
2023-06-04 21:07:23.657: Received Data [0x040304040D00003FC0] from Server [10.200.7.182:5300] by the command [0403200100029E5E]
2023-06-04 21:07:23.758: Read data from HostIP [10.200.7.182:5300] by the command [06 03 20 01 00 02 9F BC].
2023-06-04 21:07:23.759: Read data from HostIP [10.200.7.182:5300] by the command [05 03 20 01 00 02 9F 8F].
2023-06-04 21:07:23.836: Received Data [0x022F000304040D00001C00] from Server [10.200.7.182:5300] by the command [0503200100029F8F]
2023-06-04 21:07:23.837: Received Data [0x022F000304040D00001C00] from Server [10.200.7.182:5300] by the command [0603200100029FBC]
2023-06-04 21:07:23.937: Read data from HostIP [10.200.7.182:5300] by the command [06 03 20 01 00 02 9F BC].
2023-06-04 21:07:23.938: ParallelExecution time for ParallelExecutionforElectricityMeter: 12020
2023-06-04 21:07:24.005: Received Data [0x060304040D00001C00] from Server [10.200.7.182:5300] by the command [0603200100029FBC]
2023-06-04 21:07:24.106: ParallelExecution time for ParallelExecutionforElectricityMeter: 2185
2023-06-04 21:07:31.921: Read data from HostIP [10.200.7.182:5300] by the command [01 03 20 01 00 02 9E 0B].
2023-06-04 21:07:31.990: Received Data [0x010304040D00006AC0] from Server [10.200.7.182:5300] by the command [0103200100029E0B]
2023-06-04 21:07:32.092: Read data from HostIP [10.200.7.182:5300] by the command [02 03 20 01 00 02 9E 38].
2023-06-04 21:07:32.296: Received Data [0x020304040D000059C0] from Server [10.200.7.182:5300] by the command [0203200100029E38]
2023-06-04 21:07:32.398: Read data from HostIP [10.200.7.182:5300] by the command [03 03 20 01 00 02 9F E9].
2023-06-04 21:07:32.519: Received Data [0x030304040C000018C0] from Server [10.200.7.182:5300] by the command [0303200100029FE9]
2023-06-04 21:07:32.621: Read data from HostIP [10.200.7.182:5300] by the command [04 03 20 01 00 02 9E 5E].
2023-06-04 21:07:32.690: Received Data [0x040304040C00006E00] from Server [10.200.7.182:5300] by the command [0403200100029E5E]
2023-06-04 21:07:32.791: Read data from HostIP [10.200.7.182:5300] by the command [05 03 20 01 00 02 9F 8F].
2023-06-04 21:07:41.921: Read data from HostIP [10.200.7.182:5300] by the command [01 03 20 01 00 02 9E 0B].
2023-06-04 21:07:41.991: Received Data [0x010304040C00003B00] from Server [10.200.7.182:5300] by the command [0503200100029F8F]
2023-06-04 21:07:41.992: Received Data [0x010304040C00003B00] from Server [10.200.7.182:5300] by the command [0103200100029E0B]
2023-06-04 21:07:42.092: Read data from HostIP [10.200.7.182:5300] by the command [06 03 20 01 00 02 9F BC].
2023-06-04 21:07:42.093: Read data from HostIP [10.200.7.182:5300] by the command [02 03 20 01 00 02 9E 38].
2023-06-04 21:07:42.169: Received Data [0x020304040D000059C0] from Server [10.200.7.182:5300] by the command [0603200100029FBC]
2023-06-04 21:07:42.170: Received Data [0x020304040D000059C0] from Server [10.200.7.182:5300] by the command [0203200100029E38]
2023-06-04 21:07:42.271: ParallelExecution time for ParallelExecutionforElectricityMeter: 10349
2023-06-04 21:07:42.274: Read data from HostIP [10.200.7.182:5300] by the command [03 03 20 01 00 02 9F E9].
2023-06-04 21:07:51.923: Read data from HostIP [10.200.7.182:5300] by the command [01 03 20 01 00 02 9E 0B].
2023-06-04 21:07:51.993: Received Data [0x010304040D00006AC0] from Server [10.200.7.182:5300] by the command [0303200100029FE9]
2023-06-04 21:07:51.995: Received Data [0x010304040D00006AC0] from Server [10.200.7.182:5300] by the command [0103200100029E0B]
2023-06-04 21:07:52.095: Read data from HostIP [10.200.7.182:5300] by the command [04 03 20 01 00 02 9E 5E].
2023-06-04 21:07:52.095: Read data from HostIP [10.200.7.182:5300] by the command [02 03 20 01 00 02 9E 38].
2023-06-04 21:07:52.175: Received Data [0x04590304040D00003FC0] from Server [10.200.7.182:5300] by the command [0203200100029E38]
2023-06-04 21:07:52.175: Received Data [0x04590304040D00003FC0] from Server [10.200.7.182:5300] by the command [0403200100029E5E]
2023-06-04 21:07:52.276: Read data from HostIP [10.200.7.182:5300] by the command [03 03 20 01 00 02 9F E9].
2023-06-04 21:07:52.277: Read data from HostIP [10.200.7.182:5300] by the command [05 03 20 01 00 02 9F 8F].
2023-06-04 21:07:52.354: Received Data [0x042F0020105008004900] from Server [10.200.7.182:5300] by the command [0503200100029F8F]
2023-06-04 21:07:52.355: Received Data [0x042F0020105008004900] from Server [10.200.7.182:5300] by the command [0303200100029FE9]
2023-06-04 21:07:52.455: Read data from HostIP [10.200.7.182:5300] by the command [06 03 20 01 00 02 9F BC].
2023-06-04 21:07:52.457: Read data from HostIP [10.200.7.182:5300] by the command [04 03 20 01 00 02 9E 5E].
2023-06-04 21:07:52.533: Received Data [0x040304040D00003FC0] from Server [10.200.7.182:5300] by the command [0603200100029FBC]
2023-06-04 21:07:52.534: Received Data [0x040304040D00003FC0] from Server [10.200.7.182:5300] by the command [0403200100029E5E]
2023-06-04 21:07:52.635: ParallelExecution time for ParallelExecutionforElectricityMeter: 10713
2023-06-04 21:07:52.636: Read data from HostIP [10.200.7.182:5300] by the command [05 03 20 01 00 02 9F 8F].
2023-06-04 21:07:52.704: Received Data [0x050304040D00002F00] from Server [10.200.7.182:5300] by the command [0503200100029F8F]
2023-06-04 21:07:52.806: Read data from HostIP [10.200.7.182:5300] by the command [06 03 20 01 00 02 9F BC].
2023-06-04 21:08:01.923: Read data from HostIP [10.200.7.182:5300] by the command [01 03 20 01 00 02 9E 0B].
2023-06-04 21:08:01.994: Received Data [0x010304040D00006AC0] from Server [10.200.7.182:5300] by the command [0603200100029FBC]
2023-06-04 21:08:01.995: Received Data [0x010304040D00006AC0] from Server [10.200.7.182:5300] by the command [0103200100029E0B]
2023-06-04 21:08:02.095: ParallelExecution time for ParallelExecutionforElectricityMeter: 10172
2023-06-04 21:08:02.096: Read data from HostIP [10.200.7.182:5300] by the command [02 03 20 01 00 02 9E 38].
2023-06-04 21:08:02.166: Received Data [0x020304040D000059C0] from Server [10.200.7.182:5300] by the command [0203200100029E38]
2023-06-04 21:08:02.268: Read data from HostIP [10.200.7.182:5300] by the command [03 03 20 01 00 02 9F E9].
2023-06-04 21:08:02.336: Received Data [0x030304040D00004900] from Server [10.200.7.182:5300] by the command [0303200100029FE9]
2023-06-04 21:08:02.438: Read data from HostIP [10.200.7.182:5300] by the command [04 03 20 01 00 02 9E 5E].
2023-06-04 21:08:11.924: Read data from HostIP [10.200.7.182:5300] by the command [01 03 20 01 00 02 9E 0B].
2023-06-04 21:08:21.925: Read data from HostIP [10.200.7.182:5300] by the command [01 03 20 01 00 02 9E 0B].
2023-06-04 21:08:21.996: Received Data [0x010304040D00006AC0] from Server [10.200.7.182:5300] by the command [0403200100029E5E]
2023-06-04 21:08:21.997: Received Data [0x010304040D00006AC0] from Server [10.200.7.182:5300] by the command [0103200100029E0B]
2023-06-04 21:08:21.998: Received Data [0x010304040D00006AC0] from Server [10.200.7.182:5300] by the command [0103200100029E0B]
2023-06-04 21:08:22.096: Read data from HostIP [10.200.7.182:5300] by the command [05 03 20 01 00 02 9F 8F].
2023-06-04 21:08:22.097: Read data from HostIP [10.200.7.182:5300] by the command [02 03 20 01 00 02 9E 38].
2023-06-04 21:08:22.099: Read data from HostIP [10.200.7.182:5300] by the command [02 03 20 01 00 02 9E 38].
2023-06-04 21:08:22.167: Received Data [0x050304040D00002F00] from Server [10.200.7.182:5300] by the command [0503200100029F8F]
2023-06-04 21:08:22.168: Received Data [0x050304040D00002F00] from Server [10.200.7.182:5300] by the command [0203200100029E38]
2023-06-04 21:08:22.268: Read data from HostIP [10.200.7.182:5300] by the command [06 03 20 01 00 02 9F BC].
2023-06-04 21:08:22.268: Read data from HostIP [10.200.7.182:5300] by the command [03 03 20 01 00 02 9F E9].
2023-06-04 21:08:22.347: Received Data [0x030304040D00004900] from Server [10.200.7.182:5300] by the command [0303200100029FE9]
2023-06-04 21:08:22.347: Received Data [0x030304040D00004900] from Server [10.200.7.182:5300] by the command [0603200100029FBC]
2023-06-04 21:08:22.450: ParallelExecution time for ParallelExecutionforElectricityMeter: 20525
2023-06-04 21:08:22.450: Read data from HostIP [10.200.7.182:5300] by the command [04 03 20 01 00 02 9E 5E].
2023-06-04 21:08:23.170: Received Data [0x020304040D000059C0] from Server [10.200.7.182:5300] by the command [0403200100029E5E]
2023-06-04 21:08:23.171: Received Data [0x020304040D000059C0] from Server [10.200.7.182:5300] by the command [0203200100029E38]
2023-06-04 21:08:23.273: Read data from HostIP [10.200.7.182:5300] by the command [05 03 20 01 00 02 9F 8F].
2023-06-04 21:08:23.273: Read data from HostIP [10.200.7.182:5300] by the command [03 03 20 01 00 02 9F E9].
2023-06-04 21:08:23.344: Received Data [0x030304040C000018C0] from Server [10.200.7.182:5300] by the command [0303200100029FE9]
2023-06-04 21:08:23.344: Received Data [0x030304040C000018C0] from Server [10.200.7.182:5300] by the command [0503200100029F8F]
2023-06-04 21:08:23.445: Read data from HostIP [10.200.7.182:5300] by the command [06 03 20 01 00 02 9F BC].
2023-06-04 21:08:23.445: Read data from HostIP [10.200.7.182:5300] by the command [04 03 20 01 00 02 9E 5E].
2023-06-04 21:08:31.926: Read data from HostIP [10.200.7.182:5300] by the command [01 03 20 01 00 02 9E 0B].
2023-06-04 21:08:31.997: Received Data [0x010304040D00006AC0] from Server [10.200.7.182:5300] by the command [0603200100029FBC]
2023-06-04 21:08:31.998: Received Data [0x010304040D00006AC0] from Server [10.200.7.182:5300] by the command [0403200100029E5E]
2023-06-04 21:08:31.999: Received Data [0x010304040D00006AC0] from Server [10.200.7.182:5300] by the command [0103200100029E0B]
2023-06-04 21:08:32.098: Read data from HostIP [10.200.7.182:5300] by the command [05 03 20 01 00 02 9F 8F].
2023-06-04 21:08:32.098: ParallelExecution time for ParallelExecutionforElectricityMeter: 20174
2023-06-04 21:08:32.099: Read data from HostIP [10.200.7.182:5300] by the command [02 03 20 01 00 02 9E 38].
2023-06-04 21:08:32.178: Received Data [0x042F0304040D000059C0] from Server [10.200.7.182:5300] by the command [0503200100029F8F]
2023-06-04 21:08:32.178: Received Data [0x042F0304040D000059C0] from Server [10.200.7.182:5300] by the command [0203200100029E38]
2023-06-04 21:08:32.279: Read data from HostIP [10.200.7.182:5300] by the command [03 03 20 01 00 02 9F E9].
2023-06-04 21:08:32.279: Read data from HostIP [10.200.7.182:5300] by the command [06 03 20 01 00 02 9F BC].
2023-06-04 21:08:32.363: Received Data [0x011C000304040D00004900] from Server [10.200.7.182:5300] by the command [0603200100029FBC]
2023-06-04 21:08:32.364: Received Data [0x011C000304040D00004900] from Server [10.200.7.182:5300] by the command [0303200100029FE9]
2023-06-04 21:08:32.465: ParallelExecution time for ParallelExecutionforElectricityMeter: 10540
2023-06-04 21:08:32.466: Read data from HostIP [10.200.7.182:5300] by the command [04 03 20 01 00 02 9E 5E].
2023-06-04 21:08:41.936: Read data from HostIP [10.200.7.182:5300] by the command [01 03 20 01 00 02 9E 0B].
2023-06-04 21:08:51.937: Read data from HostIP [10.200.7.182:5300] by the command [01 03 20 01 00 02 9E 0B].
2023-06-04 21:08:52.010: Received Data [0x010304040D00006AC0] from Server [10.200.7.182:5300] by the command [0103200100029E0B]
2023-06-04 21:08:52.010: Received Data [0x010304040D00006AC0] from Server [10.200.7.182:5300] by the command [0403200100029E5E]
2023-06-04 21:08:52.011: Received Data [0x010304040D00006AC0] from Server [10.200.7.182:5300] by the command [0103200100029E0B]
2023-06-04 21:08:52.110: Read data from HostIP [10.200.7.182:5300] by the command [05 03 20 01 00 02 9F 8F].
2023-06-04 21:08:52.110: Read data from HostIP [10.200.7.182:5300] by the command [02 03 20 01 00 02 9E 38].
2023-06-04 21:08:52.113: Read data from HostIP [10.200.7.182:5300] by the command [02 03 20 01 00 02 9E 38].
2023-06-04 21:08:52.191: Received Data [0x00598020105008002F00] from Server [10.200.7.182:5300] by the command [0203200100029E38]
2023-06-04 21:08:52.192: Received Data [0x00598020105008002F00] from Server [10.200.7.182:5300] by the command [0503200100029F8F]
2023-06-04 21:08:52.293: Read data from HostIP [10.200.7.182:5300] by the command [03 03 20 01 00 02 9F E9].
2023-06-04 21:08:52.293: Read data from HostIP [10.200.7.182:5300] by the command [06 03 20 01 00 02 9F BC].
2023-06-04 21:08:52.373: Received Data [0x060304040D00001C00] from Server [10.200.7.182:5300] by the command [0303200100029FE9]
2023-06-04 21:08:52.374: Received Data [0x060304040D00001C00] from Server [10.200.7.182:5300] by the command [0603200100029FBC]
2023-06-04 21:08:52.474: Read data from HostIP [10.200.7.182:5300] by the command [04 03 20 01 00 02 9E 5E].
2023-06-04 21:08:52.475: ParallelExecution time for ParallelExecutionforElectricityMeter: 20548
2023-06-04 21:08:53.183: Received Data [0x020304040D000059C0] from Server [10.200.7.182:5300] by the command [0403200100029E5E]
2023-06-04 21:08:53.184: Received Data [0x020304040D000059C0] from Server [10.200.7.182:5300] by the command [0203200100029E38]
2023-06-04 21:08:53.284: Read data from HostIP [10.200.7.182:5300] by the command [05 03 20 01 00 02 9F 8F].
2023-06-04 21:08:53.285: Read data from HostIP [10.200.7.182:5300] by the command [03 03 20 01 00 02 9F E9].
2023-06-04 21:08:53.368: Received Data [0x04494020105008002F00] from Server [10.200.7.182:5300] by the command [0303200100029FE9]
2023-06-04 21:08:53.370: Received Data [0x04494020105008002F00] from Server [10.200.7.182:5300] by the command [0503200100029F8F]
2023-06-04 21:08:53.470: Read data from HostIP [10.200.7.182:5300] by the command [04 03 20 01 00 02 9E 5E].
2023-06-04 21:08:53.472: Read data from HostIP [10.200.7.182:5300] by the command [06 03 20 01 00 02 9F BC].
2023-06-04 21:09:01.938: Read data from HostIP [10.200.7.182:5300] by the command [01 03 20 01 00 02 9E 0B].
2023-06-04 21:09:02.012: Received Data [0x010304040D00006AC0] from Server [10.200.7.182:5300] by the command [0403200100029E5E]
2023-06-04 21:09:02.014: Received Data [0x010304040D00006AC0] from Server [10.200.7.182:5300] by the command [0603200100029FBC]
2023-06-04 21:09:02.015: Received Data [0x010304040D00006AC0] from Server [10.200.7.182:5300] by the command [0103200100029E0B]
2023-06-04 21:09:02.114: Read data from HostIP [10.200.7.182:5300] by the command [05 03 20 01 00 02 9F 8F].
2023-06-04 21:09:02.115: ParallelExecution time for ParallelExecutionforElectricityMeter: 20179
2023-06-04 21:09:02.115: Read data from HostIP [10.200.7.182:5300] by the command [02 03 20 01 00 02 9E 38].
2023-06-04 21:09:02.189: Received Data [0x020304040D000059C0] from Server [10.200.7.182:5300] by the command [0503200100029F8F]
2023-06-04 21:09:02.190: Received Data [0x020304040D000059C0] from Server [10.200.7.182:5300] by the command [0203200100029E38]
2023-06-04 21:09:02.290: Read data from HostIP [10.200.7.182:5300] by the command [06 03 20 01 00 02 9F BC].
2023-06-04 21:09:02.291: Read data from HostIP [10.200.7.182:5300] by the command [03 03 20 01 00 02 9F E9].
2023-06-04 21:09:02.365: Received Data [0x060304040D00001C00] from Server [10.200.7.182:5300] by the command [0303200100029FE9]
2023-06-04 21:09:02.366: Received Data [0x060304040D00001C00] from Server [10.200.7.182:5300] by the command [0603200100029FBC]
2023-06-04 21:09:02.466: Read data from HostIP [10.200.7.182:5300] by the command [04 03 20 01 00 02 9E 5E].
2023-06-04 21:09:02.467: ParallelExecution time for ParallelExecutionforElectricityMeter: 10529
2023-06-04 21:09:11.950: Read data from HostIP [10.200.7.182:5300] by the command [01 03 20 01 00 02 9E 0B].
2023-06-04 21:09:12.061: Received Data [0x010304040D00006AC0] from Server [10.200.7.182:5300] by the command [0403200100029E5E]
2023-06-04 21:09:12.062: Received Data [0x010304040D00006AC0] from Server [10.200.7.182:5300] by the command [0103200100029E0B]
2023-06-04 21:09:12.163: Read data from HostIP [10.200.7.182:5300] by the command [02 03 20 01 00 02 9E 38].
2023-06-04 21:09:12.163: Read data from HostIP [10.200.7.182:5300] by the command [05 03 20 01 00 02 9F 8F].
2023-06-04 21:09:12.233: Received Data [0x0459C0] from Server [10.200.7.182:5300] by the command [0203200100029E38]
2023-06-04 21:09:12.234: Received Data [0x0459C0] from Server [10.200.7.182:5300] by the command [0503200100029F8F]
2023-06-04 21:09:12.336: Read data from HostIP [10.200.7.182:5300] by the command [03 03 20 01 00 02 9F E9].
2023-06-04 21:09:12.336: Read data from HostIP [10.200.7.182:5300] by the command [06 03 20 01 00 02 9F BC].
2023-06-04 21:09:12.407: Received Data [0x060304040D00001C00] from Server [10.200.7.182:5300] by the command [0603200100029FBC]
2023-06-04 21:09:12.407: Received Data [0x060304040D00001C00] from Server [10.200.7.182:5300] by the command [0303200100029FE9]
2023-06-04 21:09:12.508: ParallelExecution time for ParallelExecutionforElectricityMeter: 10569
2023-06-04 21:09:12.510: Read data from HostIP [10.200.7.182:5300] by the command [04 03 20 01 00 02 9E 5E].
2023-06-04 21:09:21.951: Read data from HostIP [10.200.7.182:5300] by the command [01 03 20 01 00 02 9E 0B].
2023-06-04 21:09:31.952: Read data from HostIP [10.200.7.182:5300] by the command [01 03 20 01 00 02 9E 0B].
2023-06-04 21:09:32.154: Received Data [0x010304040D00006AC0] from Server [10.200.7.182:5300] by the command [0403200100029E5E]
2023-06-04 21:09:32.156: Received Data [0x010304040D00006AC0] from Server [10.200.7.182:5300] by the command [0103200100029E0B]
2023-06-04 21:09:32.157: Received Data [0x010304040D00006AC0] from Server [10.200.7.182:5300] by the command [0103200100029E0B]
2023-06-04 21:09:32.255: Read data from HostIP [10.200.7.182:5300] by the command [05 03 20 01 00 02 9F 8F].
2023-06-04 21:09:32.257: Read data from HostIP [10.200.7.182:5300] by the command [02 03 20 01 00 02 9E 38].
2023-06-04 21:09:32.258: Read data from HostIP [10.200.7.182:5300] by the command [02 03 20 01 00 02 9E 38].
2023-06-04 21:09:32.332: Received Data [0x020304040D000059C0] from Server [10.200.7.182:5300] by the command [0503200100029F8F]
2023-06-04 21:09:32.334: Received Data [0x020304040D000059C0] from Server [10.200.7.182:5300] by the command [0203200100029E38]
2023-06-04 21:09:32.433: Read data from HostIP [10.200.7.182:5300] by the command [06 03 20 01 00 02 9F BC].
2023-06-04 21:09:32.435: Read data from HostIP [10.200.7.182:5300] by the command [03 03 20 01 00 02 9F E9].
2023-06-04 21:09:32.512: Received Data [0x041C201010080018C0] from Server [10.200.7.182:5300] by the command [0603200100029FBC]
2023-06-04 21:09:32.513: Received Data [0x041C201010080018C0] from Server [10.200.7.182:5300] by the command [0303200100029FE9]
2023-06-04 21:09:32.614: Read data from HostIP [10.200.7.182:5300] by the command [04 03 20 01 00 02 9E 5E].
2023-06-04 21:09:32.614: ParallelExecution time for ParallelExecutionforElectricityMeter: 20664
2023-06-04 21:09:37.107: Received Data [0x030304040C000018C0] from Server [10.200.7.182:5300] by the command [0403200100029E5E]
2023-06-04 21:09:37.107: Received Data [0x030304040C000018C0] from Server [10.200.7.182:5300] by the command [0203200100029E38]
2023-06-04 21:09:37.208: Read data from HostIP [10.200.7.182:5300] by the command [05 03 20 01 00 02 9F 8F].
2023-06-04 21:09:37.209: Read data from HostIP [10.200.7.182:5300] by the command [03 03 20 01 00 02 9F E9].
2023-06-04 21:09:37.279: Received Data [0x030304040C000018C0] from Server [10.200.7.182:5300] by the command [0303200100029FE9]
2023-06-04 21:09:37.280: Received Data [0x030304040C000018C0] from Server [10.200.7.182:5300] by the command [0503200100029F8F]
2023-06-04 21:09:37.382: Read data from HostIP [10.200.7.182:5300] by the command [06 03 20 01 00 02 9F BC].
2023-06-04 21:09:37.382: Read data from HostIP [10.200.7.182:5300] by the command [04 03 20 01 00 02 9E 5E].
2023-06-04 21:09:37.455: Received Data [0x060304040D00001C00] from Server [10.200.7.182:5300] by the command [0403200100029E5E]
2023-06-04 21:09:37.456: Received Data [0x060304040D00001C00] from Server [10.200.7.182:5300] by the command [0603200100029FBC]
2023-06-04 21:09:37.557: Read data from HostIP [10.200.7.182:5300] by the command [05 03 20 01 00 02 9F 8F].
2023-06-04 21:09:37.557: ParallelExecution time for ParallelExecutionforElectricityMeter: 15606
2023-06-04 21:09:40.440: Received Data [0x030304040C000018C0] from Server [10.200.7.182:5300] by the command [0503200100029F8F]
2023-06-04 21:09:40.541: Read data from HostIP [10.200.7.182:5300] by the command [06 03 20 01 00 02 9F BC].
2023-06-04 21:09:40.612: Received Data [0x060304040D00001C00] from Server [10.200.7.182:5300] by the command [0603200100029FBC]
2023-06-04 21:09:40.714: ParallelExecution time for ParallelExecutionforElectricityMeter: 8761
2023-06-04 21:09:41.965: Read data from HostIP [10.200.7.182:5300] by the command [01 03 20 01 00 02 9E 0B].
2023-06-04 21:09:51.967: Read data from HostIP [10.200.7.182:5300] by the command [01 03 20 01 00 02 9E 0B].
2023-06-04 21:09:57.620: Received Data [0x030304040C000018C0] from Server [10.200.7.182:5300] by the command [0103200100029E0B]
2023-06-04 21:09:57.621: Received Data [0x030304040C000018C0] from Server [10.200.7.182:5300] by the command [0103200100029E0B]
2023-06-04 21:09:57.722: Read data from HostIP [10.200.7.182:5300] by the command [02 03 20 01 00 02 9E 38].
2023-06-04 21:09:57.722: Read data from HostIP [10.200.7.182:5300] by the command [02 03 20 01 00 02 9E 38].
2023-06-04 21:09:57.793: Received Data [0x0259C0] from Server [10.200.7.182:5300] by the command [0203200100029E38]
2023-06-04 21:09:57.794: Received Data [0x0259C0] from Server [10.200.7.182:5300] by the command [0203200100029E38]
2023-06-04 21:09:57.895: Read data from HostIP [10.200.7.182:5300] by the command [03 03 20 01 00 02 9F E9].
2023-06-04 21:09:57.895: Read data from HostIP [10.200.7.182:5300] by the command [03 03 20 01 00 02 9F E9].
2023-06-04 21:09:57.966: Received Data [0x084014] from Server [10.200.7.182:5300] by the command [0303200100029FE9]
2023-06-04 21:09:57.967: Received Data [0x084014] from Server [10.200.7.182:5300] by the command [0303200100029FE9]
2023-06-04 21:09:58.068: Read data from HostIP [10.200.7.182:5300] by the command [04 03 20 01 00 02 9E 5E].
2023-06-04 21:09:58.068: Read data from HostIP [10.200.7.182:5300] by the command [04 03 20 01 00 02 9E 5E].
2023-06-04 21:09:58.846: Received Data [0x030304040C000018C0] from Server [10.200.7.182:5300] by the command [0403200100029E5E]
2023-06-04 21:09:58.847: Received Data [0x030304040C000018C0] from Server [10.200.7.182:5300] by the command [0403200100029E5E]
2023-06-04 21:09:58.948: Read data from HostIP [10.200.7.182:5300] by the command [05 03 20 01 00 02 9F 8F].
2023-06-04 21:09:58.948: Read data from HostIP [10.200.7.182:5300] by the command [05 03 20 01 00 02 9F 8F].
2023-06-04 21:09:59.018: Received Data [0x002F00] from Server [10.200.7.182:5300] by the command [0503200100029F8F]
2023-06-04 21:09:59.019: Received Data [0x002F00] from Server [10.200.7.182:5300] by the command [0503200100029F8F]
2023-06-04 21:09:59.119: Read data from HostIP [10.200.7.182:5300] by the command [06 03 20 01 00 02 9F BC].
2023-06-04 21:09:59.121: Read data from HostIP [10.200.7.182:5300] by the command [06 03 20 01 00 02 9F BC].
2023-06-04 21:10:00.038: Received Data [0x030304040C000018C0] from Server [10.200.7.182:5300] by the command [0603200100029FBC]
2023-06-04 21:10:00.040: Received Data [0x030304040C000018C0] from Server [10.200.7.182:5300] by the command [0603200100029FBC]
2023-06-04 21:10:00.139: ParallelExecution time for ParallelExecutionforElectricityMeter: 8173
2023-06-04 21:10:00.141: ParallelExecution time for ParallelExecutionforElectricityMeter: 18176
2023-06-04 21:10:01.968: Read data from HostIP [10.200.7.182:5300] by the command [01 03 20 01 00 02 9E 0B].
2023-06-04 21:10:02.040: Received Data [0x010304040D00006AC0] from Server [10.200.7.182:5300] by the command [0103200100029E0B]
2023-06-04 21:10:02.141: Read data from HostIP [10.200.7.182:5300] by the command [02 03 20 01 00 02 9E 38].
2023-06-04 21:10:02.211: Received Data [0x020304040D000059C0] from Server [10.200.7.182:5300] by the command [0203200100029E38]
2023-06-04 21:10:02.313: Read data from HostIP [10.200.7.182:5300] by the command [03 03 20 01 00 02 9F E9].
2023-06-04 21:10:02.384: Received Data [0x030304040C000018C0] from Server [10.200.7.182:5300] by the command [0303200100029FE9]
2023-06-04 21:10:02.486: Read data from HostIP [10.200.7.182:5300] by the command [04 03 20 01 00 02 9E 5E].
2023-06-04 21:10:02.555: Received Data [0x040304040C00006E00] from Server [10.200.7.182:5300] by the command [0403200100029E5E]
2023-06-04 21:10:02.656: Read data from HostIP [10.200.7.182:5300] by the command [05 03 20 01 00 02 9F 8F].
2023-06-04 21:10:03.230: Received Data [0x030304040C000018C0] from Server [10.200.7.182:5300] by the command [0503200100029F8F]
2023-06-04 21:10:03.331: Read data from HostIP [10.200.7.182:5300] by the command [06 03 20 01 00 02 9F BC].
2023-06-04 21:10:03.428: Received Data [0x060304040C00004DC0] from Server [10.200.7.182:5300] by the command [0603200100029FBC]
2023-06-04 21:10:03.529: ParallelExecution time for ParallelExecutionforElectricityMeter: 1560
2023-06-04 21:10:11.980: Read data from HostIP [10.200.7.182:5300] by the command [01 03 20 01 00 02 9E 0B].
2023-06-04 21:10:21.980: Read data from HostIP [10.200.7.182:5300] by the command [01 03 20 01 00 02 9E 0B].
2023-06-04 21:10:22.052: Received Data [0x010304040D00006AC0] from Server [10.200.7.182:5300] by the command [0103200100029E0B]
2023-06-04 21:10:22.053: Received Data [0x010304040D00006AC0] from Server [10.200.7.182:5300] by the command [0103200100029E0B]
2023-06-04 21:10:22.153: Read data from HostIP [10.200.7.182:5300] by the command [02 03 20 01 00 02 9E 38].
2023-06-04 21:10:22.154: Read data from HostIP [10.200.7.182:5300] by the command [02 03 20 01 00 02 9E 38].
2023-06-04 21:10:31.996: Read data from HostIP [10.200.7.182:5300] by the command [01 03 20 01 00 02 9E 0B].
2023-06-04 21:10:42.001: Read data from HostIP [10.200.7.182:5300] by the command [01 03 20 01 00 02 9E 0B].
2023-06-04 21:10:42.073: Received Data [0x010304040D00006AC0] from Server [10.200.7.182:5300] by the command [0203200100029E38]
2023-06-04 21:10:42.074: Received Data [0x010304040D00006AC0] from Server [10.200.7.182:5300] by the command [0203200100029E38]
2023-06-04 21:10:42.076: Received Data [0x010304040D00006AC0] from Server [10.200.7.182:5300] by the command [0103200100029E0B]
2023-06-04 21:10:42.077: Received Data [0x010304040D00006AC0] from Server [10.200.7.182:5300] by the command [0103200100029E0B]
2023-06-04 21:10:42.175: Read data from HostIP [10.200.7.182:5300] by the command [03 03 20 01 00 02 9F E9].
2023-06-04 21:10:42.175: Read data from HostIP [10.200.7.182:5300] by the command [03 03 20 01 00 02 9F E9].
2023-06-04 21:10:42.178: Read data from HostIP [10.200.7.182:5300] by the command [02 03 20 01 00 02 9E 38].
2023-06-04 21:10:42.179: Read data from HostIP [10.200.7.182:5300] by the command [02 03 20 01 00 02 9E 38].
2023-06-04 21:10:42.247: Received Data [0x001005] from Server [10.200.7.182:5300] by the command [0303200100029FE9]
2023-06-04 21:10:42.247: Received Data [0x001005] from Server [10.200.7.182:5300] by the command [0303200100029FE9]
2023-06-04 21:10:42.350: Read data from HostIP [10.200.7.182:5300] by the command [04 03 20 01 00 02 9E 5E].
2023-06-04 21:10:42.350: Read data from HostIP [10.200.7.182:5300] by the command [04 03 20 01 00 02 9E 5E].
2023-06-04 21:10:42.525: Received Data [0x040304040C00006E00] from Server [10.200.7.182:5300] by the command [0403200100029E5E]
2023-06-04 21:10:42.526: Received Data [0x040304040C00006E00] from Server [10.200.7.182:5300] by the command [0403200100029E5E]
2023-06-04 21:10:42.626: Read data from HostIP [10.200.7.182:5300] by the command [05 03 20 01 00 02 9F 8F].
2023-06-04 21:10:42.627: Read data from HostIP [10.200.7.182:5300] by the command [05 03 20 01 00 02 9F 8F].
2023-06-04 21:10:42.705: Received Data [0x050304040D00002F00] from Server [10.200.7.182:5300] by the command [0503200100029F8F]
2023-06-04 21:10:42.707: Received Data [0x050304040D00002F00] from Server [10.200.7.182:5300] by the command [0503200100029F8F]
2023-06-04 21:10:42.807: Read data from HostIP [10.200.7.182:5300] by the command [06 03 20 01 00 02 9F BC].
2023-06-04 21:10:42.808: Read data from HostIP [10.200.7.182:5300] by the command [06 03 20 01 00 02 9F BC].
2023-06-04 21:10:42.886: Received Data [0x060304040D00001C00] from Server [10.200.7.182:5300] by the command [0603200100029FBC]
2023-06-04 21:10:42.887: Received Data [0x060304040D00001C00] from Server [10.200.7.182:5300] by the command [0603200100029FBC]
2023-06-04 21:10:42.987: ParallelExecution time for ParallelExecutionforElectricityMeter: 31006
2023-06-04 21:10:42.989: ParallelExecution time for ParallelExecutionforElectricityMeter: 21008
2023-06-04 21:10:43.257: Received Data [0x020304040D000059C0] from Server [10.200.7.182:5300] by the command [0203200100029E38]
2023-06-04 21:10:43.259: Received Data [0x020304040D000059C0] from Server [10.200.7.182:5300] by the command [0203200100029E38]
2023-06-04 21:10:43.359: Read data from HostIP [10.200.7.182:5300] by the command [03 03 20 01 00 02 9F E9].
2023-06-04 21:10:43.360: Read data from HostIP [10.200.7.182:5300] by the command [03 03 20 01 00 02 9F E9].
2023-06-04 21:10:47.142: Received Data [0x050304040E0000DF00] from Server [10.200.7.182:5300] by the command [0303200100029FE9]
2023-06-04 21:10:47.143: Received Data [0x050304040E0000DF00] from Server [10.200.7.182:5300] by the command [0303200100029FE9]
2023-06-04 21:10:47.243: Read data from HostIP [10.200.7.182:5300] by the command [04 03 20 01 00 02 9E 5E].
2023-06-04 21:10:47.244: Read data from HostIP [10.200.7.182:5300] by the command [04 03 20 01 00 02 9E 5E].
2023-06-04 21:10:47.323: Received Data [0x040304040D00003FC0] from Server [10.200.7.182:5300] by the command [0403200100029E5E]
2023-06-04 21:10:47.324: Received Data [0x040304040D00003FC0] from Server [10.200.7.182:5300] by the command [0403200100029E5E]
2023-06-04 21:10:47.424: Read data from HostIP [10.200.7.182:5300] by the command [05 03 20 01 00 02 9F 8F].
2023-06-04 21:10:47.425: Read data from HostIP [10.200.7.182:5300] by the command [05 03 20 01 00 02 9F 8F].
2023-06-04 21:10:47.495: Received Data [0x02DF00] from Server [10.200.7.182:5300] by the command [0503200100029F8F]
2023-06-04 21:10:47.496: Received Data [0x02DF00] from Server [10.200.7.182:5300] by the command [0503200100029F8F]
2023-06-04 21:10:47.597: Read data from HostIP [10.200.7.182:5300] by the command [06 03 20 01 00 02 9F BC].
2023-06-04 21:10:47.598: Read data from HostIP [10.200.7.182:5300] by the command [06 03 20 01 00 02 9F BC].
2023-06-04 21:10:52.001: Read data from HostIP [10.200.7.182:5300] by the command [01 03 20 01 00 02 9E 0B].
2023-06-04 21:10:52.078: Received Data [0x010304040E00009AC0] from Server [10.200.7.182:5300] by the command [0603200100029FBC]
2023-06-04 21:10:52.080: Received Data [0x010304040E00009AC0] from Server [10.200.7.182:5300] by the command [0103200100029E0B]
2023-06-04 21:10:52.080: Received Data [0x010304040E00009AC0] from Server [10.200.7.182:5300] by the command [0603200100029FBC]
2023-06-04 21:10:52.184: ParallelExecution time for ParallelExecutionforElectricityMeter: 10183
2023-06-04 21:10:52.185: ParallelExecution time for ParallelExecutionforElectricityMeter: 20190
2023-06-04 21:10:52.185: Read data from HostIP [10.200.7.182:5300] by the command [02 03 20 01 00 02 9E 38].
2023-06-04 21:10:52.255: Received Data [0x020304040D000059C0] from Server [10.200.7.182:5300] by the command [0203200100029E38]
2023-06-04 21:10:52.357: Read data from HostIP [10.200.7.182:5300] by the command [03 03 20 01 00 02 9F E9].
2023-06-04 21:10:52.461: Received Data [0x030304040D00004900] from Server [10.200.7.182:5300] by the command [0303200100029FE9]
2023-06-04 21:10:52.562: Read data from HostIP [10.200.7.182:5300] by the command [04 03 20 01 00 02 9E 5E].
2023-06-04 21:10:55.343: Received Data [0x050304040D00002F00] from Server [10.200.7.182:5300] by the command [0403200100029E5E]
2023-06-04 21:10:55.444: Read data from HostIP [10.200.7.182:5300] by the command [05 03 20 01 00 02 9F 8F].
2023-06-04 21:10:55.516: Received Data [0x050304040D00002F00] from Server [10.200.7.182:5300] by the command [0503200100029F8F]
2023-06-04 21:10:55.617: Read data from HostIP [10.200.7.182:5300] by the command [06 03 20 01 00 02 9F BC].
