2023-06-04 20:00:01.361: Read data from HostIP [10.200.7.182:5300] by the command [01 03 20 01 00 02 9E 0B].
2023-06-04 20:00:02.493: Error Message: A connection attempt failed because the connected party did not properly respond after a period of time, or established connection failed because connected host has failed to respond 10.200.7.182:5300

2023-06-04 20:00:02.684: Error Message: A connection attempt failed because the connected party did not properly respond after a period of time, or established connection failed because connected host has failed to respond 10.200.7.182:5300

2023-06-04 20:00:02.785: Read data from HostIP [10.200.7.182:5300] by the command [02 03 20 01 00 02 9E 38].
2023-06-04 20:00:03.887: Error Message: A connection attempt failed because the connected party did not properly respond after a period of time, or established connection failed because connected host has failed to respond 10.200.7.182:5300

2023-06-04 20:00:04.078: Error Message: A connection attempt failed because the connected party did not properly respond after a period of time, or established connection failed because connected host has failed to respond 10.200.7.182:5300

2023-06-04 20:00:04.180: Read data from HostIP [10.200.7.182:5300] by the command [03 03 20 01 00 02 9F E9].
2023-06-04 20:00:05.298: Error Message: A connection attempt failed because the connected party did not properly respond after a period of time, or established connection failed because connected host has failed to respond 10.200.7.182:5300

2023-06-04 20:00:05.481: Error Message: A connection attempt failed because the connected party did not properly respond after a period of time, or established connection failed because connected host has failed to respond 10.200.7.182:5300

2023-06-04 20:00:05.582: Read data from HostIP [10.200.7.182:5300] by the command [04 03 20 01 00 02 9E 5E].
2023-06-04 20:00:06.756: Error Message: A connection attempt failed because the connected party did not properly respond after a period of time, or established connection failed because connected host has failed to respond 10.200.7.182:5300

2023-06-04 20:00:06.952: Error Message: A connection attempt failed because the connected party did not properly respond after a period of time, or established connection failed because connected host has failed to respond 10.200.7.182:5300

2023-06-04 20:00:07.053: Read data from HostIP [10.200.7.182:5300] by the command [05 03 20 01 00 02 9F 8F].
2023-06-04 20:00:08.105: Error Message: A connection attempt failed because the connected party did not properly respond after a period of time, or established connection failed because connected host has failed to respond 10.200.7.182:5300

2023-06-04 20:00:08.299: Error Message: A connection attempt failed because the connected party did not properly respond after a period of time, or established connection failed because connected host has failed to respond 10.200.7.182:5300

2023-06-04 20:00:08.411: Read data from HostIP [10.200.7.182:5300] by the command [06 03 20 01 00 02 9F BC].
2023-06-04 20:00:09.502: Error Message: A connection attempt failed because the connected party did not properly respond after a period of time, or established connection failed because connected host has failed to respond 10.200.7.182:5300

2023-06-04 20:00:09.693: Error Message: A connection attempt failed because the connected party did not properly respond after a period of time, or established connection failed because connected host has failed to respond 10.200.7.182:5300

2023-06-04 20:00:09.794: ParallelExecution time for ParallelExecutionforElectricityMeter: 128481
2023-06-04 20:00:11.372: Read data from HostIP [10.200.7.182:5300] by the command [01 03 20 01 00 02 9E 0B].
2023-06-04 20:00:12.490: Error Message: A connection attempt failed because the connected party did not properly respond after a period of time, or established connection failed because connected host has failed to respond 10.200.7.182:5300

2023-06-04 20:00:12.681: Error Message: A connection attempt failed because the connected party did not properly respond after a period of time, or established connection failed because connected host has failed to respond 10.200.7.182:5300

2023-06-04 20:00:12.783: Read data from HostIP [10.200.7.182:5300] by the command [02 03 20 01 00 02 9E 38].
2023-06-04 20:00:13.886: Error Message: A connection attempt failed because the connected party did not properly respond after a period of time, or established connection failed because connected host has failed to respond 10.200.7.182:5300

2023-06-04 20:00:14.074: Error Message: A connection attempt failed because the connected party did not properly respond after a period of time, or established connection failed because connected host has failed to respond 10.200.7.182:5300

2023-06-04 20:00:14.175: Read data from HostIP [10.200.7.182:5300] by the command [03 03 20 01 00 02 9F E9].
2023-06-04 20:00:15.294: Error Message: A connection attempt failed because the connected party did not properly respond after a period of time, or established connection failed because connected host has failed to respond 10.200.7.182:5300

2023-06-04 20:00:15.472: Error Message: A connection attempt failed because the connected party did not properly respond after a period of time, or established connection failed because connected host has failed to respond 10.200.7.182:5300

2023-06-04 20:00:15.573: Read data from HostIP [10.200.7.182:5300] by the command [04 03 20 01 00 02 9E 5E].
2023-06-04 20:00:16.748: Error Message: A connection attempt failed because the connected party did not properly respond after a period of time, or established connection failed because connected host has failed to respond 10.200.7.182:5300

2023-06-04 20:00:16.935: Error Message: A connection attempt failed because the connected party did not properly respond after a period of time, or established connection failed because connected host has failed to respond 10.200.7.182:5300

2023-06-04 20:00:17.036: Read data from HostIP [10.200.7.182:5300] by the command [05 03 20 01 00 02 9F 8F].
2023-06-04 20:00:18.132: Error Message: A connection attempt failed because the connected party did not properly respond after a period of time, or established connection failed because connected host has failed to respond 10.200.7.182:5300

2023-06-04 20:00:18.314: Error Message: A connection attempt failed because the connected party did not properly respond after a period of time, or established connection failed because connected host has failed to respond 10.200.7.182:5300

2023-06-04 20:00:18.415: Read data from HostIP [10.200.7.182:5300] by the command [06 03 20 01 00 02 9F BC].
2023-06-04 20:00:19.589: Error Message: A connection attempt failed because the connected party did not properly respond after a period of time, or established connection failed because connected host has failed to respond 10.200.7.182:5300

2023-06-04 20:00:19.776: Error Message: A connection attempt failed because the connected party did not properly respond after a period of time, or established connection failed because connected host has failed to respond 10.200.7.182:5300

2023-06-04 20:00:19.877: ParallelExecution time for ParallelExecutionforElectricityMeter: 128550
2023-06-04 20:00:21.374: Read data from HostIP [10.200.7.182:5300] by the command [01 03 20 01 00 02 9E 0B].
2023-06-04 20:00:22.485: Error Message: A connection attempt failed because the connected party did not properly respond after a period of time, or established connection failed because connected host has failed to respond 10.200.7.182:5300

2023-06-04 20:00:22.665: Error Message: A connection attempt failed because the connected party did not properly respond after a period of time, or established connection failed because connected host has failed to respond 10.200.7.182:5300

2023-06-04 20:00:22.766: Read data from HostIP [10.200.7.182:5300] by the command [02 03 20 01 00 02 9E 38].
2023-06-04 20:00:23.920: Error Message: A connection attempt failed because the connected party did not properly respond after a period of time, or established connection failed because connected host has failed to respond 10.200.7.182:5300

2023-06-04 20:00:24.102: Error Message: A connection attempt failed because the connected party did not properly respond after a period of time, or established connection failed because connected host has failed to respond 10.200.7.182:5300

2023-06-04 20:00:24.204: Read data from HostIP [10.200.7.182:5300] by the command [03 03 20 01 00 02 9F E9].
2023-06-04 20:00:25.299: Error Message: A connection attempt failed because the connected party did not properly respond after a period of time, or established connection failed because connected host has failed to respond 10.200.7.182:5300

2023-06-04 20:00:25.472: Error Message: A connection attempt failed because the connected party did not properly respond after a period of time, or established connection failed because connected host has failed to respond 10.200.7.182:5300

2023-06-04 20:00:25.574: Read data from HostIP [10.200.7.182:5300] by the command [04 03 20 01 00 02 9E 5E].
2023-06-04 20:00:26.732: Error Message: A connection attempt failed because the connected party did not properly respond after a period of time, or established connection failed because connected host has failed to respond 10.200.7.182:5300

2023-06-04 20:00:26.917: Error Message: A connection attempt failed because the connected party did not properly respond after a period of time, or established connection failed because connected host has failed to respond 10.200.7.182:5300

2023-06-04 20:00:27.019: Read data from HostIP [10.200.7.182:5300] by the command [05 03 20 01 00 02 9F 8F].
2023-06-04 20:00:28.205: Error Message: A connection attempt failed because the connected party did not properly respond after a period of time, or established connection failed because connected host has failed to respond 10.200.7.182:5300

2023-06-04 20:00:28.388: Error Message: A connection attempt failed because the connected party did not properly respond after a period of time, or established connection failed because connected host has failed to respond 10.200.7.182:5300

2023-06-04 20:00:28.490: Read data from HostIP [10.200.7.182:5300] by the command [06 03 20 01 00 02 9F BC].
2023-06-04 20:00:29.533: Error Message: A connection attempt failed because the connected party did not properly respond after a period of time, or established connection failed because connected host has failed to respond 10.200.7.182:5300

2023-06-04 20:00:29.711: Error Message: A connection attempt failed because the connected party did not properly respond after a period of time, or established connection failed because connected host has failed to respond 10.200.7.182:5300

2023-06-04 20:00:29.814: ParallelExecution time for ParallelExecutionforElectricityMeter: 128484
2023-06-04 20:00:31.374: Read data from HostIP [10.200.7.182:5300] by the command [01 03 20 01 00 02 9E 0B].
2023-06-04 20:00:32.490: Error Message: A connection attempt failed because the connected party did not properly respond after a period of time, or established connection failed because connected host has failed to respond 10.200.7.182:5300

2023-06-04 20:00:32.673: Error Message: A connection attempt failed because the connected party did not properly respond after a period of time, or established connection failed because connected host has failed to respond 10.200.7.182:5300

2023-06-04 20:00:32.775: Read data from HostIP [10.200.7.182:5300] by the command [02 03 20 01 00 02 9E 38].
2023-06-04 20:00:33.925: Error Message: A connection attempt failed because the connected party did not properly respond after a period of time, or established connection failed because connected host has failed to respond 10.200.7.182:5300

2023-06-04 20:00:34.107: Error Message: A connection attempt failed because the connected party did not properly respond after a period of time, or established connection failed because connected host has failed to respond 10.200.7.182:5300

2023-06-04 20:00:34.209: Read data from HostIP [10.200.7.182:5300] by the command [03 03 20 01 00 02 9F E9].
2023-06-04 20:00:35.311: Error Message: A connection attempt failed because the connected party did not properly respond after a period of time, or established connection failed because connected host has failed to respond 10.200.7.182:5300

2023-06-04 20:00:35.487: Error Message: A connection attempt failed because the connected party did not properly respond after a period of time, or established connection failed because connected host has failed to respond 10.200.7.182:5300

2023-06-04 20:00:35.588: Read data from HostIP [10.200.7.182:5300] by the command [04 03 20 01 00 02 9E 5E].
2023-06-04 20:00:36.704: Error Message: A connection attempt failed because the connected party did not properly respond after a period of time, or established connection failed because connected host has failed to respond 10.200.7.182:5300

2023-06-04 20:00:36.894: Error Message: A connection attempt failed because the connected party did not properly respond after a period of time, or established connection failed because connected host has failed to respond 10.200.7.182:5300

2023-06-04 20:00:36.994: Read data from HostIP [10.200.7.182:5300] by the command [05 03 20 01 00 02 9F 8F].
2023-06-04 20:00:38.205: Error Message: A connection attempt failed because the connected party did not properly respond after a period of time, or established connection failed because connected host has failed to respond 10.200.7.182:5300

2023-06-04 20:00:38.389: Error Message: A connection attempt failed because the connected party did not properly respond after a period of time, or established connection failed because connected host has failed to respond 10.200.7.182:5300

2023-06-04 20:00:38.490: Read data from HostIP [10.200.7.182:5300] by the command [06 03 20 01 00 02 9F BC].
2023-06-04 20:00:39.540: Error Message: A connection attempt failed because the connected party did not properly respond after a period of time, or established connection failed because connected host has failed to respond 10.200.7.182:5300

2023-06-04 20:00:39.733: Error Message: A connection attempt failed because the connected party did not properly respond after a period of time, or established connection failed because connected host has failed to respond 10.200.7.182:5300

2023-06-04 20:00:39.834: ParallelExecution time for ParallelExecutionforElectricityMeter: 128505
2023-06-04 20:00:41.386: Read data from HostIP [10.200.7.182:5300] by the command [01 03 20 01 00 02 9E 0B].
2023-06-04 20:00:42.502: Error Message: A connection attempt failed because the connected party did not properly respond after a period of time, or established connection failed because connected host has failed to respond 10.200.7.182:5300

2023-06-04 20:00:42.692: Error Message: A connection attempt failed because the connected party did not properly respond after a period of time, or established connection failed because connected host has failed to respond 10.200.7.182:5300

2023-06-04 20:00:42.794: Read data from HostIP [10.200.7.182:5300] by the command [02 03 20 01 00 02 9E 38].
2023-06-04 20:00:43.897: Error Message: A connection attempt failed because the connected party did not properly respond after a period of time, or established connection failed because connected host has failed to respond 10.200.7.182:5300

2023-06-04 20:00:44.087: Error Message: A connection attempt failed because the connected party did not properly respond after a period of time, or established connection failed because connected host has failed to respond 10.200.7.182:5300

2023-06-04 20:00:44.190: Read data from HostIP [10.200.7.182:5300] by the command [03 03 20 01 00 02 9F E9].
2023-06-04 20:00:45.334: Error Message: A connection attempt failed because the connected party did not properly respond after a period of time, or established connection failed because connected host has failed to respond 10.200.7.182:5300

2023-06-04 20:00:45.511: Error Message: A connection attempt failed because the connected party did not properly respond after a period of time, or established connection failed because connected host has failed to respond 10.200.7.182:5300

2023-06-04 20:00:45.612: Read data from HostIP [10.200.7.182:5300] by the command [04 03 20 01 00 02 9E 5E].
2023-06-04 20:00:46.702: Error Message: A connection attempt failed because the connected party did not properly respond after a period of time, or established connection failed because connected host has failed to respond 10.200.7.182:5300

2023-06-04 20:00:46.900: Error Message: A connection attempt failed because the connected party did not properly respond after a period of time, or established connection failed because connected host has failed to respond 10.200.7.182:5300

2023-06-04 20:00:47.001: Read data from HostIP [10.200.7.182:5300] by the command [05 03 20 01 00 02 9F 8F].
2023-06-04 20:00:48.149: Error Message: A connection attempt failed because the connected party did not properly respond after a period of time, or established connection failed because connected host has failed to respond 10.200.7.182:5300

2023-06-04 20:00:48.339: Error Message: A connection attempt failed because the connected party did not properly respond after a period of time, or established connection failed because connected host has failed to respond 10.200.7.182:5300

2023-06-04 20:00:48.441: Read data from HostIP [10.200.7.182:5300] by the command [06 03 20 01 00 02 9F BC].
2023-06-04 20:00:49.611: Error Message: A connection attempt failed because the connected party did not properly respond after a period of time, or established connection failed because connected host has failed to respond 10.200.7.182:5300

2023-06-04 20:00:49.803: Error Message: A connection attempt failed because the connected party did not properly respond after a period of time, or established connection failed because connected host has failed to respond 10.200.7.182:5300

2023-06-04 20:00:49.905: ParallelExecution time for ParallelExecutionforElectricityMeter: 128562
2023-06-04 20:00:51.387: Read data from HostIP [10.200.7.182:5300] by the command [01 03 20 01 00 02 9E 0B].
2023-06-04 20:00:52.503: Error Message: A connection attempt failed because the connected party did not properly respond after a period of time, or established connection failed because connected host has failed to respond 10.200.7.182:5300

2023-06-04 20:00:52.708: Error Message: A connection attempt failed because the connected party did not properly respond after a period of time, or established connection failed because connected host has failed to respond 10.200.7.182:5300

2023-06-04 20:00:52.809: Read data from HostIP [10.200.7.182:5300] by the command [02 03 20 01 00 02 9E 38].
2023-06-04 20:00:53.912: Error Message: A connection attempt failed because the connected party did not properly respond after a period of time, or established connection failed because connected host has failed to respond 10.200.7.182:5300

2023-06-04 20:00:54.098: Error Message: A connection attempt failed because the connected party did not properly respond after a period of time, or established connection failed because connected host has failed to respond 10.200.7.182:5300

2023-06-04 20:00:54.200: Read data from HostIP [10.200.7.182:5300] by the command [03 03 20 01 00 02 9F E9].
2023-06-04 20:00:55.336: Error Message: A connection attempt failed because the connected party did not properly respond after a period of time, or established connection failed because connected host has failed to respond 10.200.7.182:5300

2023-06-04 20:00:55.524: Error Message: A connection attempt failed because the connected party did not properly respond after a period of time, or established connection failed because connected host has failed to respond 10.200.7.182:5300

2023-06-04 20:00:55.625: Read data from HostIP [10.200.7.182:5300] by the command [04 03 20 01 00 02 9E 5E].
2023-06-04 20:00:56.725: Error Message: A connection attempt failed because the connected party did not properly respond after a period of time, or established connection failed because connected host has failed to respond 10.200.7.182:5300

2023-06-04 20:00:56.908: Error Message: A connection attempt failed because the connected party did not properly respond after a period of time, or established connection failed because connected host has failed to respond 10.200.7.182:5300

2023-06-04 20:00:57.010: Read data from HostIP [10.200.7.182:5300] by the command [05 03 20 01 00 02 9F 8F].
2023-06-04 20:00:58.114: Error Message: A connection attempt failed because the connected party did not properly respond after a period of time, or established connection failed because connected host has failed to respond 10.200.7.182:5300

2023-06-04 20:00:58.294: Error Message: A connection attempt failed because the connected party did not properly respond after a period of time, or established connection failed because connected host has failed to respond 10.200.7.182:5300

2023-06-04 20:00:58.395: Read data from HostIP [10.200.7.182:5300] by the command [06 03 20 01 00 02 9F BC].
2023-06-04 20:00:59.624: Error Message: A connection attempt failed because the connected party did not properly respond after a period of time, or established connection failed because connected host has failed to respond 10.200.7.182:5300

2023-06-04 20:00:59.800: Error Message: A connection attempt failed because the connected party did not properly respond after a period of time, or established connection failed because connected host has failed to respond 10.200.7.182:5300

2023-06-04 20:00:59.902: ParallelExecution time for ParallelExecutionforElectricityMeter: 128558
2023-06-04 20:01:01.391: Read data from HostIP [10.200.7.182:5300] by the command [01 03 20 01 00 02 9E 0B].
2023-06-04 20:01:02.510: Error Message: A connection attempt failed because the connected party did not properly respond after a period of time, or established connection failed because connected host has failed to respond 10.200.7.182:5300

2023-06-04 20:01:02.694: Error Message: A connection attempt failed because the connected party did not properly respond after a period of time, or established connection failed because connected host has failed to respond 10.200.7.182:5300

2023-06-04 20:01:02.796: Read data from HostIP [10.200.7.182:5300] by the command [02 03 20 01 00 02 9E 38].
2023-06-04 20:01:03.922: Error Message: A connection attempt failed because the connected party did not properly respond after a period of time, or established connection failed because connected host has failed to respond 10.200.7.182:5300

2023-06-04 20:01:04.089: Error Message: A connection attempt failed because the connected party did not properly respond after a period of time, or established connection failed because connected host has failed to respond 10.200.7.182:5300

2023-06-04 20:01:04.190: Read data from HostIP [10.200.7.182:5300] by the command [03 03 20 01 00 02 9F E9].
2023-06-04 20:01:05.334: Error Message: A connection attempt failed because the connected party did not properly respond after a period of time, or established connection failed because connected host has failed to respond 10.200.7.182:5300

2023-06-04 20:01:05.519: Error Message: A connection attempt failed because the connected party did not properly respond after a period of time, or established connection failed because connected host has failed to respond 10.200.7.182:5300

2023-06-04 20:01:05.620: Read data from HostIP [10.200.7.182:5300] by the command [04 03 20 01 00 02 9E 5E].
2023-06-04 20:01:06.755: Error Message: A connection attempt failed because the connected party did not properly respond after a period of time, or established connection failed because connected host has failed to respond 10.200.7.182:5300

2023-06-04 20:01:06.940: Error Message: A connection attempt failed because the connected party did not properly respond after a period of time, or established connection failed because connected host has failed to respond 10.200.7.182:5300

2023-06-04 20:01:07.041: Read data from HostIP [10.200.7.182:5300] by the command [05 03 20 01 00 02 9F 8F].
2023-06-04 20:01:08.122: Error Message: A connection attempt failed because the connected party did not properly respond after a period of time, or established connection failed because connected host has failed to respond 10.200.7.182:5300

2023-06-04 20:01:08.309: Error Message: A connection attempt failed because the connected party did not properly respond after a period of time, or established connection failed because connected host has failed to respond 10.200.7.182:5300

