2023-06-04 15:00:00.062: Received Data [0x010304040C00003B00] from Server [10.200.7.182:5300] by the command [0403200100029E5E]
2023-06-04 15:00:00.067: Received Data [0x010304040C00003B00] from Server [10.200.7.182:5300] by the command [0103200100029E0B]
2023-06-04 15:00:00.164: Read data from HostIP [10.200.7.182:5300] by the command [05 03 20 01 00 02 9F 8F].
2023-06-04 15:00:00.168: Read data from HostIP [10.200.7.182:5300] by the command [02 03 20 01 00 02 9E 38].
2023-06-04 15:00:00.373: Received Data [0x020304040C00000800] from Server [10.200.7.182:5300] by the command [0503200100029F8F]
2023-06-04 15:00:00.406: Received Data [0x020304040C00000800] from Server [10.200.7.182:5300] by the command [0203200100029E38]
2023-06-04 15:00:00.507: Read data from HostIP [10.200.7.182:5300] by the command [06 03 20 01 00 02 9F BC].
2023-06-04 15:00:00.507: Read data from HostIP [10.200.7.182:5300] by the command [03 03 20 01 00 02 9F E9].
2023-06-04 15:00:09.894: Read data from HostIP [10.200.7.182:5300] by the command [01 03 20 01 00 02 9E 0B].
2023-06-04 15:00:10.072: Received Data [0x010304040C00003B00] from Server [10.200.7.182:5300] by the command [0303200100029FE9]
2023-06-04 15:00:10.072: Received Data [0x010304040C00003B00] from Server [10.200.7.182:5300] by the command [0603200100029FBC]
2023-06-04 15:00:10.075: Received Data [0x010304040C00003B00] from Server [10.200.7.182:5300] by the command [0103200100029E0B]
2023-06-04 15:00:10.173: Read data from HostIP [10.200.7.182:5300] by the command [04 03 20 01 00 02 9E 5E].
2023-06-04 15:00:10.174: ParallelExecution time for ParallelExecutionforElectricityMeter: 20293
2023-06-04 15:00:10.176: Read data from HostIP [10.200.7.182:5300] by the command [02 03 20 01 00 02 9E 38].
2023-06-04 15:00:10.415: Received Data [0x020304040C00000800] from Server [10.200.7.182:5300] by the command [0403200100029E5E]
2023-06-04 15:00:10.417: Received Data [0x020304040C00000800] from Server [10.200.7.182:5300] by the command [0203200100029E38]
2023-06-04 15:00:10.517: Read data from HostIP [10.200.7.182:5300] by the command [05 03 20 01 00 02 9F 8F].
2023-06-04 15:00:10.518: Read data from HostIP [10.200.7.182:5300] by the command [03 03 20 01 00 02 9F E9].
2023-06-04 15:00:10.697: Received Data [0x050304040C00007EC0] from Server [10.200.7.182:5300] by the command [0303200100029FE9]
2023-06-04 15:00:10.701: Received Data [0x050304040C00007EC0] from Server [10.200.7.182:5300] by the command [0503200100029F8F]
2023-06-04 15:00:10.798: Read data from HostIP [10.200.7.182:5300] by the command [04 03 20 01 00 02 9E 5E].
2023-06-04 15:00:10.803: Read data from HostIP [10.200.7.182:5300] by the command [06 03 20 01 00 02 9F BC].
2023-06-04 15:00:10.970: Received Data [0x040304040C00006E00] from Server [10.200.7.182:5300] by the command [0403200100029E5E]
2023-06-04 15:00:10.971: Received Data [0x040304040C00006E00] from Server [10.200.7.182:5300] by the command [0603200100029FBC]
2023-06-04 15:00:11.071: Read data from HostIP [10.200.7.182:5300] by the command [05 03 20 01 00 02 9F 8F].
2023-06-04 15:00:11.072: ParallelExecution time for ParallelExecutionforElectricityMeter: 11190
2023-06-04 15:00:19.895: Read data from HostIP [10.200.7.182:5300] by the command [01 03 20 01 00 02 9E 0B].
2023-06-04 15:00:20.073: Received Data [0x010304040C00003B00] from Server [10.200.7.182:5300] by the command [0503200100029F8F]
2023-06-04 15:00:20.075: Received Data [0x010304040C00003B00] from Server [10.200.7.182:5300] by the command [0103200100029E0B]
2023-06-04 15:00:20.173: Read data from HostIP [10.200.7.182:5300] by the command [06 03 20 01 00 02 9F BC].
2023-06-04 15:00:20.176: Read data from HostIP [10.200.7.182:5300] by the command [02 03 20 01 00 02 9E 38].
2023-06-04 15:00:20.468: Received Data [0x020304040C00000800] from Server [10.200.7.182:5300] by the command [0203200100029E38]
2023-06-04 15:00:20.469: Received Data [0x020304040C00000800] from Server [10.200.7.182:5300] by the command [0603200100029FBC]
2023-06-04 15:00:20.570: ParallelExecution time for ParallelExecutionforElectricityMeter: 10675
2023-06-04 15:00:20.570: Read data from HostIP [10.200.7.182:5300] by the command [03 03 20 01 00 02 9F E9].
2023-06-04 15:00:29.896: Read data from HostIP [10.200.7.182:5300] by the command [01 03 20 01 00 02 9E 0B].
2023-06-04 15:00:30.069: Received Data [0x010304040C00003B00] from Server [10.200.7.182:5300] by the command [0303200100029FE9]
2023-06-04 15:00:30.072: Received Data [0x010304040C00003B00] from Server [10.200.7.182:5300] by the command [0103200100029E0B]
2023-06-04 15:00:30.171: Read data from HostIP [10.200.7.182:5300] by the command [04 03 20 01 00 02 9E 5E].
2023-06-04 15:00:30.174: Read data from HostIP [10.200.7.182:5300] by the command [02 03 20 01 00 02 9E 38].
2023-06-04 15:00:30.350: Received Data [0x020304040C00000800] from Server [10.200.7.182:5300] by the command [0403200100029E5E]
2023-06-04 15:00:30.354: Received Data [0x020304040C00000800] from Server [10.200.7.182:5300] by the command [0203200100029E38]
2023-06-04 15:00:30.452: Read data from HostIP [10.200.7.182:5300] by the command [05 03 20 01 00 02 9F 8F].
2023-06-04 15:00:30.456: Read data from HostIP [10.200.7.182:5300] by the command [03 03 20 01 00 02 9F E9].
2023-06-04 15:00:39.910: Read data from HostIP [10.200.7.182:5300] by the command [01 03 20 01 00 02 9E 0B].
2023-06-04 15:00:40.086: Received Data [0x010304040C00003B00] from Server [10.200.7.182:5300] by the command [0503200100029F8F]
2023-06-04 15:00:40.087: Received Data [0x010304040C00003B00] from Server [10.200.7.182:5300] by the command [0103200100029E0B]
2023-06-04 15:00:40.088: Received Data [0x010304040C00003B00] from Server [10.200.7.182:5300] by the command [0303200100029FE9]
2023-06-04 15:00:40.188: Read data from HostIP [10.200.7.182:5300] by the command [06 03 20 01 00 02 9F BC].
2023-06-04 15:00:40.189: Read data from HostIP [10.200.7.182:5300] by the command [02 03 20 01 00 02 9E 38].
2023-06-04 15:00:40.190: Read data from HostIP [10.200.7.182:5300] by the command [04 03 20 01 00 02 9E 5E].
2023-06-04 15:00:40.376: Received Data [0x060304040C00004DC0] from Server [10.200.7.182:5300] by the command [0203200100029E38]
2023-06-04 15:00:40.376: Received Data [0x060304040C00004DC0] from Server [10.200.7.182:5300] by the command [0603200100029FBC]
2023-06-04 15:00:40.478: ParallelExecution time for ParallelExecutionforElectricityMeter: 20582
2023-06-04 15:00:40.478: Read data from HostIP [10.200.7.182:5300] by the command [03 03 20 01 00 02 9F E9].
2023-06-04 15:00:40.743: Received Data [0x030304040C000018C0] from Server [10.200.7.182:5300] by the command [0303200100029FE9]
2023-06-04 15:00:40.844: Read data from HostIP [10.200.7.182:5300] by the command [04 03 20 01 00 02 9E 5E].
2023-06-04 15:00:41.023: Received Data [0x040304040C00006E00] from Server [10.200.7.182:5300] by the command [0403200100029E5E]
2023-06-04 15:00:41.125: Read data from HostIP [10.200.7.182:5300] by the command [05 03 20 01 00 02 9F 8F].
2023-06-04 15:00:41.364: Received Data [0x040304040C00006E00] from Server [10.200.7.182:5300] by the command [0503200100029F8F]
2023-06-04 15:00:41.367: Received Data [0x040304040C00006E00] from Server [10.200.7.182:5300] by the command [0403200100029E5E]
2023-06-04 15:00:41.465: Read data from HostIP [10.200.7.182:5300] by the command [06 03 20 01 00 02 9F BC].
2023-06-04 15:00:41.469: Read data from HostIP [10.200.7.182:5300] by the command [05 03 20 01 00 02 9F 8F].
2023-06-04 15:00:41.651: Received Data [0x050304040C00007EC0] from Server [10.200.7.182:5300] by the command [0603200100029FBC]
2023-06-04 15:00:41.651: Received Data [0x050304040C00007EC0] from Server [10.200.7.182:5300] by the command [0503200100029F8F]
2023-06-04 15:00:41.752: ParallelExecution time for ParallelExecutionforElectricityMeter: 1841
2023-06-04 15:00:41.753: Read data from HostIP [10.200.7.182:5300] by the command [06 03 20 01 00 02 9F BC].
2023-06-04 15:00:49.910: Read data from HostIP [10.200.7.182:5300] by the command [01 03 20 01 00 02 9E 0B].
2023-06-04 15:00:59.911: Read data from HostIP [10.200.7.182:5300] by the command [01 03 20 01 00 02 9E 0B].
2023-06-04 15:01:00.097: Received Data [0x010304040C00003B00] from Server [10.200.7.182:5300] by the command [0103200100029E0B]
2023-06-04 15:01:00.099: Received Data [0x010304040C00003B00] from Server [10.200.7.182:5300] by the command [0603200100029FBC]
2023-06-04 15:01:00.101: Received Data [0x010304040C00003B00] from Server [10.200.7.182:5300] by the command [0103200100029E0B]
2023-06-04 15:01:00.198: Read data from HostIP [10.200.7.182:5300] by the command [02 03 20 01 00 02 9E 38].
2023-06-04 15:01:00.201: ParallelExecution time for ParallelExecutionforElectricityMeter: 30303
2023-06-04 15:01:00.202: Read data from HostIP [10.200.7.182:5300] by the command [02 03 20 01 00 02 9E 38].
2023-06-04 15:01:09.938: Read data from HostIP [10.200.7.182:5300] by the command [01 03 20 01 00 02 9E 0B].
2023-06-04 15:01:10.115: Received Data [0x010304040C00003B00] from Server [10.200.7.182:5300] by the command [0103200100029E0B]
2023-06-04 15:01:10.116: Received Data [0x010304040C00003B00] from Server [10.200.7.182:5300] by the command [0203200100029E38]
2023-06-04 15:01:10.116: Received Data [0x010304040C00003B00] from Server [10.200.7.182:5300] by the command [0203200100029E38]
2023-06-04 15:01:10.216: Read data from HostIP [10.200.7.182:5300] by the command [02 03 20 01 00 02 9E 38].
2023-06-04 15:01:10.217: Read data from HostIP [10.200.7.182:5300] by the command [03 03 20 01 00 02 9F E9].
2023-06-04 15:01:10.217: Read data from HostIP [10.200.7.182:5300] by the command [03 03 20 01 00 02 9F E9].
2023-06-04 15:01:10.395: Received Data [0x030304040C000018C0] from Server [10.200.7.182:5300] by the command [0203200100029E38]
2023-06-04 15:01:10.396: Received Data [0x030304040C000018C0] from Server [10.200.7.182:5300] by the command [0303200100029FE9]
2023-06-04 15:01:10.496: Read data from HostIP [10.200.7.182:5300] by the command [03 03 20 01 00 02 9F E9].
2023-06-04 15:01:10.497: Read data from HostIP [10.200.7.182:5300] by the command [04 03 20 01 00 02 9E 5E].
2023-06-04 15:01:10.680: Received Data [0x026E000304040C000018C0] from Server [10.200.7.182:5300] by the command [0403200100029E5E]
2023-06-04 15:01:10.681: Received Data [0x026E000304040C000018C0] from Server [10.200.7.182:5300] by the command [0303200100029FE9]
2023-06-04 15:01:10.781: Read data from HostIP [10.200.7.182:5300] by the command [05 03 20 01 00 02 9F 8F].
2023-06-04 15:01:10.782: Read data from HostIP [10.200.7.182:5300] by the command [04 03 20 01 00 02 9E 5E].
2023-06-04 15:01:10.971: Received Data [0x027E000304040C00006E00] from Server [10.200.7.182:5300] by the command [0503200100029F8F]
2023-06-04 15:01:10.971: Received Data [0x027E000304040C00006E00] from Server [10.200.7.182:5300] by the command [0403200100029E5E]
2023-06-04 15:01:11.072: Read data from HostIP [10.200.7.182:5300] by the command [05 03 20 01 00 02 9F 8F].
2023-06-04 15:01:11.072: Read data from HostIP [10.200.7.182:5300] by the command [06 03 20 01 00 02 9F BC].
2023-06-04 15:01:11.396: Received Data [0x030304040C000018C0] from Server [10.200.7.182:5300] by the command [0503200100029F8F]
2023-06-04 15:01:11.397: Received Data [0x030304040C000018C0] from Server [10.200.7.182:5300] by the command [0603200100029FBC]
2023-06-04 15:01:11.398: Received Data [0x030304040C000018C0] from Server [10.200.7.182:5300] by the command [0303200100029FE9]
2023-06-04 15:01:11.497: Read data from HostIP [10.200.7.182:5300] by the command [06 03 20 01 00 02 9F BC].
2023-06-04 15:01:11.498: ParallelExecution time for ParallelExecutionforElectricityMeter: 21587
2023-06-04 15:01:11.499: Read data from HostIP [10.200.7.182:5300] by the command [04 03 20 01 00 02 9E 5E].
2023-06-04 15:01:11.677: Received Data [0x044D0304040C00006E00] from Server [10.200.7.182:5300] by the command [0603200100029FBC]
2023-06-04 15:01:11.679: Received Data [0x044D0304040C00006E00] from Server [10.200.7.182:5300] by the command [0403200100029E5E]
2023-06-04 15:01:11.778: ParallelExecution time for ParallelExecutionforElectricityMeter: 1840
2023-06-04 15:01:11.781: Read data from HostIP [10.200.7.182:5300] by the command [05 03 20 01 00 02 9F 8F].
2023-06-04 15:01:19.938: Read data from HostIP [10.200.7.182:5300] by the command [01 03 20 01 00 02 9E 0B].
2023-06-04 15:01:20.114: Received Data [0x010304040C00003B00] from Server [10.200.7.182:5300] by the command [0503200100029F8F]
2023-06-04 15:01:20.116: Received Data [0x010304040C00003B00] from Server [10.200.7.182:5300] by the command [0103200100029E0B]
2023-06-04 15:01:20.216: Read data from HostIP [10.200.7.182:5300] by the command [06 03 20 01 00 02 9F BC].
2023-06-04 15:01:20.218: Read data from HostIP [10.200.7.182:5300] by the command [02 03 20 01 00 02 9E 38].
2023-06-04 15:01:20.401: Received Data [0x020304040C00000800] from Server [10.200.7.182:5300] by the command [0603200100029FBC]
2023-06-04 15:01:20.402: Received Data [0x020304040C00000800] from Server [10.200.7.182:5300] by the command [0203200100029E38]
2023-06-04 15:01:20.504: ParallelExecution time for ParallelExecutionforElectricityMeter: 20591
2023-06-04 15:01:20.504: Read data from HostIP [10.200.7.182:5300] by the command [03 03 20 01 00 02 9F E9].
2023-06-04 15:01:29.941: Read data from HostIP [10.200.7.182:5300] by the command [01 03 20 01 00 02 9E 0B].
2023-06-04 15:01:30.113: Received Data [0x010304040C00003B00] from Server [10.200.7.182:5300] by the command [0103200100029E0B]
2023-06-04 15:01:30.115: Received Data [0x010304040C00003B00] from Server [10.200.7.182:5300] by the command [0303200100029FE9]
2023-06-04 15:01:30.214: Read data from HostIP [10.200.7.182:5300] by the command [02 03 20 01 00 02 9E 38].
2023-06-04 15:01:30.216: Read data from HostIP [10.200.7.182:5300] by the command [04 03 20 01 00 02 9E 5E].
2023-06-04 15:01:39.942: Read data from HostIP [10.200.7.182:5300] by the command [01 03 20 01 00 02 9E 0B].
2023-06-04 15:01:40.117: Received Data [0x010304040D00006AC0] from Server [10.200.7.182:5300] by the command [0203200100029E38]
2023-06-04 15:01:40.118: Received Data [0x010304040D00006AC0] from Server [10.200.7.182:5300] by the command [0403200100029E5E]
2023-06-04 15:01:40.122: Received Data [0x010304040D00006AC0] from Server [10.200.7.182:5300] by the command [0103200100029E0B]
2023-06-04 15:01:40.218: Read data from HostIP [10.200.7.182:5300] by the command [03 03 20 01 00 02 9F E9].
2023-06-04 15:01:40.219: Read data from HostIP [10.200.7.182:5300] by the command [05 03 20 01 00 02 9F 8F].
2023-06-04 15:01:40.224: Read data from HostIP [10.200.7.182:5300] by the command [02 03 20 01 00 02 9E 38].
2023-06-04 15:01:40.401: Received Data [0x030304040C000018C0] from Server [10.200.7.182:5300] by the command [0503200100029F8F]
2023-06-04 15:01:40.404: Received Data [0x030304040C000018C0] from Server [10.200.7.182:5300] by the command [0303200100029FE9]
2023-06-04 15:01:40.503: Read data from HostIP [10.200.7.182:5300] by the command [06 03 20 01 00 02 9F BC].
2023-06-04 15:01:40.506: Read data from HostIP [10.200.7.182:5300] by the command [04 03 20 01 00 02 9E 5E].
2023-06-04 15:01:41.395: Received Data [0x020304040C00000800] from Server [10.200.7.182:5300] by the command [0603200100029FBC]
2023-06-04 15:01:41.415: Received Data [0x020304040C00000800] from Server [10.200.7.182:5300] by the command [0203200100029E38]
2023-06-04 15:01:41.415: Received Data [0x020304040C00000800] from Server [10.200.7.182:5300] by the command [0403200100029E5E]
2023-06-04 15:01:41.516: ParallelExecution time for ParallelExecutionforElectricityMeter: 21577
2023-06-04 15:01:41.517: Read data from HostIP [10.200.7.182:5300] by the command [03 03 20 01 00 02 9F E9].
2023-06-04 15:01:41.517: Read data from HostIP [10.200.7.182:5300] by the command [05 03 20 01 00 02 9F 8F].
2023-06-04 15:01:41.700: Received Data [0x002F201010080018C0] from Server [10.200.7.182:5300] by the command [0503200100029F8F]
2023-06-04 15:01:41.701: Received Data [0x002F201010080018C0] from Server [10.200.7.182:5300] by the command [0303200100029FE9]
2023-06-04 15:01:41.802: Read data from HostIP [10.200.7.182:5300] by the command [06 03 20 01 00 02 9F BC].
2023-06-04 15:01:41.804: Read data from HostIP [10.200.7.182:5300] by the command [04 03 20 01 00 02 9E 5E].
2023-06-04 15:01:41.979: Received Data [0x044DC0] from Server [10.200.7.182:5300] by the command [0603200100029FBC]
2023-06-04 15:01:41.979: Received Data [0x044DC0] from Server [10.200.7.182:5300] by the command [0403200100029E5E]
2023-06-04 15:01:42.080: ParallelExecution time for ParallelExecutionforElectricityMeter: 12139
2023-06-04 15:01:42.080: Read data from HostIP [10.200.7.182:5300] by the command [05 03 20 01 00 02 9F 8F].
2023-06-04 15:01:42.284: Received Data [0x050304040C00007EC0] from Server [10.200.7.182:5300] by the command [0503200100029F8F]
2023-06-04 15:01:42.385: Read data from HostIP [10.200.7.182:5300] by the command [06 03 20 01 00 02 9F BC].
2023-06-04 15:01:42.560: Received Data [0x060304040C00004DC0] from Server [10.200.7.182:5300] by the command [0603200100029FBC]
2023-06-04 15:01:42.661: ParallelExecution time for ParallelExecutionforElectricityMeter: 2719
2023-06-04 15:01:49.943: Read data from HostIP [10.200.7.182:5300] by the command [01 03 20 01 00 02 9E 0B].
2023-06-04 15:01:50.114: Received Data [0x010304040C00003B00] from Server [10.200.7.182:5300] by the command [0103200100029E0B]
2023-06-04 15:01:50.216: Read data from HostIP [10.200.7.182:5300] by the command [02 03 20 01 00 02 9E 38].
2023-06-04 15:01:59.944: Read data from HostIP [10.200.7.182:5300] by the command [01 03 20 01 00 02 9E 0B].
2023-06-04 15:02:00.133: Received Data [0x010304040C00003B00] from Server [10.200.7.182:5300] by the command [0203200100029E38]
2023-06-04 15:02:00.134: Received Data [0x010304040C00003B00] from Server [10.200.7.182:5300] by the command [0103200100029E0B]
2023-06-04 15:02:00.235: Read data from HostIP [10.200.7.182:5300] by the command [03 03 20 01 00 02 9F E9].
2023-06-04 15:02:00.235: Read data from HostIP [10.200.7.182:5300] by the command [02 03 20 01 00 02 9E 38].
2023-06-04 15:02:00.418: Received Data [0x030304040B0000A901] from Server [10.200.7.182:5300] by the command [0203200100029E38]
2023-06-04 15:02:00.420: Received Data [0x030304040B0000A901] from Server [10.200.7.182:5300] by the command [0303200100029FE9]
2023-06-04 15:02:00.519: Read data from HostIP [10.200.7.182:5300] by the command [03 03 20 01 00 02 9F E9].
2023-06-04 15:02:00.521: Read data from HostIP [10.200.7.182:5300] by the command [04 03 20 01 00 02 9E 5E].
2023-06-04 15:02:00.698: Received Data [0x04770604040B0000DFC1] from Server [10.200.7.182:5300] by the command [0303200100029FE9]
2023-06-04 15:02:00.702: Received Data [0x04770604040B0000DFC1] from Server [10.200.7.182:5300] by the command [0403200100029E5E]
2023-06-04 15:02:00.799: Read data from HostIP [10.200.7.182:5300] by the command [04 03 20 01 00 02 9E 5E].
2023-06-04 15:02:00.803: Read data from HostIP [10.200.7.182:5300] by the command [05 03 20 01 00 02 9F 8F].
2023-06-04 15:02:00.968: Received Data [0x02DFC1] from Server [10.200.7.182:5300] by the command [0403200100029E5E]
2023-06-04 15:02:00.973: Received Data [0x02DFC1] from Server [10.200.7.182:5300] by the command [0503200100029F8F]
2023-06-04 15:02:01.070: Read data from HostIP [10.200.7.182:5300] by the command [05 03 20 01 00 02 9F 8F].
2023-06-04 15:02:01.074: Read data from HostIP [10.200.7.182:5300] by the command [06 03 20 01 00 02 9F BC].
2023-06-04 15:02:01.257: Received Data [0x060304040B0000FC01] from Server [10.200.7.182:5300] by the command [0503200100029F8F]
2023-06-04 15:02:01.257: Received Data [0x060304040B0000FC01] from Server [10.200.7.182:5300] by the command [0603200100029FBC]
2023-06-04 15:02:01.358: ParallelExecution time for ParallelExecutionforElectricityMeter: 11414
2023-06-04 15:02:01.358: Read data from HostIP [10.200.7.182:5300] by the command [06 03 20 01 00 02 9F BC].
2023-06-04 15:02:09.944: Read data from HostIP [10.200.7.182:5300] by the command [01 03 20 01 00 02 9E 0B].
2023-06-04 15:02:10.121: Received Data [0x010304040C00003B00] from Server [10.200.7.182:5300] by the command [0603200100029FBC]
2023-06-04 15:02:10.123: Received Data [0x010304040C00003B00] from Server [10.200.7.182:5300] by the command [0103200100029E0B]
2023-06-04 15:02:10.223: ParallelExecution time for ParallelExecutionforElectricityMeter: 10278
2023-06-04 15:02:10.224: Read data from HostIP [10.200.7.182:5300] by the command [02 03 20 01 00 02 9E 38].
2023-06-04 15:02:19.946: Read data from HostIP [10.200.7.182:5300] by the command [01 03 20 01 00 02 9E 0B].
2023-06-04 15:02:20.122: Received Data [0x010304040C00003B00] from Server [10.200.7.182:5300] by the command [0203200100029E38]
2023-06-04 15:02:20.123: Received Data [0x010304040C00003B00] from Server [10.200.7.182:5300] by the command [0103200100029E0B]
2023-06-04 15:02:20.224: Read data from HostIP [10.200.7.182:5300] by the command [03 03 20 01 00 02 9F E9].
2023-06-04 15:02:20.225: Read data from HostIP [10.200.7.182:5300] by the command [02 03 20 01 00 02 9E 38].
2023-06-04 15:02:20.419: Received Data [0x020304040C00000800] from Server [10.200.7.182:5300] by the command [0303200100029FE9]
2023-06-04 15:02:20.419: Received Data [0x020304040C00000800] from Server [10.200.7.182:5300] by the command [0203200100029E38]
2023-06-04 15:02:20.521: Read data from HostIP [10.200.7.182:5300] by the command [04 03 20 01 00 02 9E 5E].
2023-06-04 15:02:20.521: Read data from HostIP [10.200.7.182:5300] by the command [03 03 20 01 00 02 9F E9].
2023-06-04 15:02:21.173: Received Data [0x] from Server [10.200.7.182:5300] by the command [0303200100029FE9]
2023-06-04 15:02:21.274: Read data from HostIP [10.200.7.182:5300] by the command [04 03 20 01 00 02 9E 5E].
2023-06-04 15:02:21.447: Received Data [0x040304040C00006E00] from Server [10.200.7.182:5300] by the command [0403200100029E5E]
2023-06-04 15:02:21.451: Received Data [0x040304040C00006E00] from Server [10.200.7.182:5300] by the command [0403200100029E5E]
2023-06-04 15:02:21.549: Read data from HostIP [10.200.7.182:5300] by the command [05 03 20 01 00 02 9F 8F].
2023-06-04 15:02:21.552: Read data from HostIP [10.200.7.182:5300] by the command [05 03 20 01 00 02 9F 8F].
2023-06-04 15:02:22.728: Received Data [0x050304040C00007EC0] from Server [10.200.7.182:5300] by the command [0503200100029F8F]
2023-06-04 15:02:22.729: Received Data [0x050304040C00007EC0] from Server [10.200.7.182:5300] by the command [0503200100029F8F]
2023-06-04 15:02:22.829: Read data from HostIP [10.200.7.182:5300] by the command [06 03 20 01 00 02 9F BC].
2023-06-04 15:02:22.831: Read data from HostIP [10.200.7.182:5300] by the command [06 03 20 01 00 02 9F BC].
2023-06-04 15:02:23.005: Received Data [0x004DC0] from Server [10.200.7.182:5300] by the command [0603200100029FBC]
2023-06-04 15:02:23.006: Received Data [0x004DC0] from Server [10.200.7.182:5300] by the command [0603200100029FBC]
2023-06-04 15:02:23.106: ParallelExecution time for ParallelExecutionforElectricityMeter: 13161
2023-06-04 15:02:23.108: ParallelExecution time for ParallelExecutionforElectricityMeter: 3162
2023-06-04 15:02:29.946: Read data from HostIP [10.200.7.182:5300] by the command [01 03 20 01 00 02 9E 0B].
2023-06-04 15:02:30.137: Received Data [0x010304040C00003B00] from Server [10.200.7.182:5300] by the command [0103200100029E0B]
2023-06-04 15:02:30.238: Read data from HostIP [10.200.7.182:5300] by the command [02 03 20 01 00 02 9E 38].
2023-06-04 15:02:39.958: Read data from HostIP [10.200.7.182:5300] by the command [01 03 20 01 00 02 9E 0B].
2023-06-04 15:02:40.200: Received Data [0x010304040C00003B00] from Server [10.200.7.182:5300] by the command [0203200100029E38]
2023-06-04 15:02:40.201: Received Data [0x010304040C00003B00] from Server [10.200.7.182:5300] by the command [0103200100029E0B]
2023-06-04 15:02:40.302: Read data from HostIP [10.200.7.182:5300] by the command [03 03 20 01 00 02 9F E9].
2023-06-04 15:02:40.302: Read data from HostIP [10.200.7.182:5300] by the command [02 03 20 01 00 02 9E 38].
2023-06-04 15:02:49.958: Read data from HostIP [10.200.7.182:5300] by the command [01 03 20 01 00 02 9E 0B].
2023-06-04 15:02:50.245: Received Data [0x010304040C00003B00] from Server [10.200.7.182:5300] by the command [0203200100029E38]
2023-06-04 15:02:50.245: Received Data [0x010304040C00003B00] from Server [10.200.7.182:5300] by the command [0303200100029FE9]
2023-06-04 15:02:50.249: Received Data [0x010304040C00003B00] from Server [10.200.7.182:5300] by the command [0103200100029E0B]
2023-06-04 15:02:50.346: Read data from HostIP [10.200.7.182:5300] by the command [03 03 20 01 00 02 9F E9].
2023-06-04 15:02:50.347: Read data from HostIP [10.200.7.182:5300] by the command [04 03 20 01 00 02 9E 5E].
2023-06-04 15:02:50.350: Read data from HostIP [10.200.7.182:5300] by the command [02 03 20 01 00 02 9E 38].
2023-06-04 15:02:50.531: Received Data [0x030304040C000018C0] from Server [10.200.7.182:5300] by the command [0303200100029FE9]
2023-06-04 15:02:50.532: Received Data [0x030304040C000018C0] from Server [10.200.7.182:5300] by the command [0403200100029E5E]
2023-06-04 15:02:50.632: Read data from HostIP [10.200.7.182:5300] by the command [04 03 20 01 00 02 9E 5E].
2023-06-04 15:02:50.633: Read data from HostIP [10.200.7.182:5300] by the command [05 03 20 01 00 02 9F 8F].
2023-06-04 15:02:51.283: Received Data [0x] from Server [10.200.7.182:5300] by the command [0503200100029F8F]
2023-06-04 15:02:51.385: Read data from HostIP [10.200.7.182:5300] by the command [06 03 20 01 00 02 9F BC].
2023-06-04 15:02:51.417: Received Data [0x040304040C00006E00] from Server [10.200.7.182:5300] by the command [0403200100029E5E]
2023-06-04 15:02:51.519: Read data from HostIP [10.200.7.182:5300] by the command [05 03 20 01 00 02 9F 8F].
2023-06-04 15:02:51.696: Received Data [0x050304040D00002F00] from Server [10.200.7.182:5300] by the command [0203200100029E38]
2023-06-04 15:02:51.697: Received Data [0x050304040D00002F00] from Server [10.200.7.182:5300] by the command [0503200100029F8F]
2023-06-04 15:02:51.798: Read data from HostIP [10.200.7.182:5300] by the command [03 03 20 01 00 02 9F E9].
2023-06-04 15:02:51.798: Read data from HostIP [10.200.7.182:5300] by the command [06 03 20 01 00 02 9F BC].
2023-06-04 15:02:52.558: Received Data [0x060304040D00001C00] from Server [10.200.7.182:5300] by the command [0603200100029FBC]
2023-06-04 15:02:52.559: Received Data [0x060304040D00001C00] from Server [10.200.7.182:5300] by the command [0603200100029FBC]
2023-06-04 15:02:52.659: ParallelExecution time for ParallelExecutionforElectricityMeter: 22712
2023-06-04 15:02:52.661: ParallelExecution time for ParallelExecutionforElectricityMeter: 12702
2023-06-04 15:02:59.961: Read data from HostIP [10.200.7.182:5300] by the command [01 03 20 01 00 02 9E 0B].
2023-06-04 15:03:00.139: Received Data [0x010304040D00006AC0] from Server [10.200.7.182:5300] by the command [0303200100029FE9]
2023-06-04 15:03:00.140: Received Data [0x010304040D00006AC0] from Server [10.200.7.182:5300] by the command [0103200100029E0B]
2023-06-04 15:03:00.241: Read data from HostIP [10.200.7.182:5300] by the command [04 03 20 01 00 02 9E 5E].
2023-06-04 15:03:00.242: Read data from HostIP [10.200.7.182:5300] by the command [02 03 20 01 00 02 9E 38].
2023-06-04 15:03:00.896: Received Data [0x] from Server [10.200.7.182:5300] by the command [0403200100029E5E]
2023-06-04 15:03:00.997: Read data from HostIP [10.200.7.182:5300] by the command [05 03 20 01 00 02 9F 8F].
2023-06-04 15:03:01.170: Received Data [0x050304040D00002F00] from Server [10.200.7.182:5300] by the command [0203200100029E38]
2023-06-04 15:03:01.174: Received Data [0x050304040D00002F00] from Server [10.200.7.182:5300] by the command [0503200100029F8F]
2023-06-04 15:03:01.271: Read data from HostIP [10.200.7.182:5300] by the command [03 03 20 01 00 02 9F E9].
2023-06-04 15:03:01.275: Read data from HostIP [10.200.7.182:5300] by the command [06 03 20 01 00 02 9F BC].
2023-06-04 15:03:02.515: Received Data [0x060304040D00001C00] from Server [10.200.7.182:5300] by the command [0303200100029FE9]
2023-06-04 15:03:02.516: Received Data [0x060304040D00001C00] from Server [10.200.7.182:5300] by the command [0603200100029FBC]
2023-06-04 15:03:02.616: Read data from HostIP [10.200.7.182:5300] by the command [04 03 20 01 00 02 9E 5E].
2023-06-04 15:03:02.618: ParallelExecution time for ParallelExecutionforElectricityMeter: 12658
2023-06-04 15:03:09.960: Read data from HostIP [10.200.7.182:5300] by the command [01 03 20 01 00 02 9E 0B].
2023-06-04 15:03:10.137: Received Data [0x010304040D00006AC0] from Server [10.200.7.182:5300] by the command [0103200100029E0B]
2023-06-04 15:03:10.137: Received Data [0x010304040D00006AC0] from Server [10.200.7.182:5300] by the command [0403200100029E5E]
2023-06-04 15:03:10.239: Read data from HostIP [10.200.7.182:5300] by the command [02 03 20 01 00 02 9E 38].
2023-06-04 15:03:10.239: Read data from HostIP [10.200.7.182:5300] by the command [05 03 20 01 00 02 9F 8F].
2023-06-04 15:03:10.431: Received Data [0x02590304040D00002F00] from Server [10.200.7.182:5300] by the command [0203200100029E38]
2023-06-04 15:03:10.433: Received Data [0x02590304040D00002F00] from Server [10.200.7.182:5300] by the command [0503200100029F8F]
2023-06-04 15:03:10.534: Read data from HostIP [10.200.7.182:5300] by the command [03 03 20 01 00 02 9F E9].
2023-06-04 15:03:10.536: Read data from HostIP [10.200.7.182:5300] by the command [06 03 20 01 00 02 9F BC].
2023-06-04 15:03:19.963: Read data from HostIP [10.200.7.182:5300] by the command [01 03 20 01 00 02 9E 0B].
2023-06-04 15:03:20.137: Received Data [0x010304040D00006AC0] from Server [10.200.7.182:5300] by the command [0603200100029FBC]
2023-06-04 15:03:20.139: Received Data [0x010304040D00006AC0] from Server [10.200.7.182:5300] by the command [0303200100029FE9]
2023-06-04 15:03:20.142: Received Data [0x010304040D00006AC0] from Server [10.200.7.182:5300] by the command [0103200100029E0B]
2023-06-04 15:03:20.239: ParallelExecution time for ParallelExecutionforElectricityMeter: 20277
2023-06-04 15:03:20.240: Read data from HostIP [10.200.7.182:5300] by the command [04 03 20 01 00 02 9E 5E].
2023-06-04 15:03:20.244: Read data from HostIP [10.200.7.182:5300] by the command [02 03 20 01 00 02 9E 38].
2023-06-04 15:03:20.433: Received Data [0x020304040D000059C0] from Server [10.200.7.182:5300] by the command [0403200100029E5E]
2023-06-04 15:03:20.435: Received Data [0x020304040D000059C0] from Server [10.200.7.182:5300] by the command [0203200100029E38]
2023-06-04 15:03:20.534: Read data from HostIP [10.200.7.182:5300] by the command [05 03 20 01 00 02 9F 8F].
2023-06-04 15:03:20.536: Read data from HostIP [10.200.7.182:5300] by the command [03 03 20 01 00 02 9F E9].
2023-06-04 15:03:29.963: Read data from HostIP [10.200.7.182:5300] by the command [01 03 20 01 00 02 9E 0B].
2023-06-04 15:03:30.136: Received Data [0x010304040D00006AC0] from Server [10.200.7.182:5300] by the command [0303200100029FE9]
2023-06-04 15:03:30.136: Received Data [0x010304040D00006AC0] from Server [10.200.7.182:5300] by the command [0103200100029E0B]
2023-06-04 15:03:30.136: Received Data [0x010304040D00006AC0] from Server [10.200.7.182:5300] by the command [0503200100029F8F]
2023-06-04 15:03:30.238: Read data from HostIP [10.200.7.182:5300] by the command [06 03 20 01 00 02 9F BC].
2023-06-04 15:03:30.239: Read data from HostIP [10.200.7.182:5300] by the command [02 03 20 01 00 02 9E 38].
2023-06-04 15:03:30.239: Read data from HostIP [10.200.7.182:5300] by the command [04 03 20 01 00 02 9E 5E].
2023-06-04 15:03:30.424: Received Data [0x021C000304040D00003FC0] from Server [10.200.7.182:5300] by the command [0603200100029FBC]
2023-06-04 15:03:30.424: Received Data [0x021C000304040D00003FC0] from Server [10.200.7.182:5300] by the command [0403200100029E5E]
2023-06-04 15:03:30.525: Read data from HostIP [10.200.7.182:5300] by the command [05 03 20 01 00 02 9F 8F].
2023-06-04 15:03:30.525: ParallelExecution time for ParallelExecutionforElectricityMeter: 20564
2023-06-04 15:03:31.417: Received Data [0x020304040D000059C0] from Server [10.200.7.182:5300] by the command [0503200100029F8F]
2023-06-04 15:03:31.417: Received Data [0x020304040D000059C0] from Server [10.200.7.182:5300] by the command [0203200100029E38]
2023-06-04 15:03:31.518: Read data from HostIP [10.200.7.182:5300] by the command [06 03 20 01 00 02 9F BC].
2023-06-04 15:03:31.519: Read data from HostIP [10.200.7.182:5300] by the command [03 03 20 01 00 02 9F E9].
2023-06-04 15:03:31.701: Received Data [0x021C000304040C000018C0] from Server [10.200.7.182:5300] by the command [0603200100029FBC]
2023-06-04 15:03:31.702: Received Data [0x021C000304040C000018C0] from Server [10.200.7.182:5300] by the command [0303200100029FE9]
2023-06-04 15:03:31.802: ParallelExecution time for ParallelExecutionforElectricityMeter: 11839
2023-06-04 15:03:31.804: Read data from HostIP [10.200.7.182:5300] by the command [04 03 20 01 00 02 9E 5E].
2023-06-04 15:03:31.981: Received Data [0x040304040D00003FC0] from Server [10.200.7.182:5300] by the command [0403200100029E5E]
2023-06-04 15:03:32.082: Read data from HostIP [10.200.7.182:5300] by the command [05 03 20 01 00 02 9F 8F].
2023-06-04 15:03:32.260: Received Data [0x050304040D00002F00] from Server [10.200.7.182:5300] by the command [0503200100029F8F]
2023-06-04 15:03:32.361: Read data from HostIP [10.200.7.182:5300] by the command [06 03 20 01 00 02 9F BC].
2023-06-04 15:03:39.975: Read data from HostIP [10.200.7.182:5300] by the command [01 03 20 01 00 02 9E 0B].
2023-06-04 15:03:40.157: Received Data [0x010304040D00006AC0] from Server [10.200.7.182:5300] by the command [0603200100029FBC]
2023-06-04 15:03:40.161: Received Data [0x010304040D00006AC0] from Server [10.200.7.182:5300] by the command [0103200100029E0B]
2023-06-04 15:03:40.259: ParallelExecution time for ParallelExecutionforElectricityMeter: 10296
2023-06-04 15:03:40.263: Read data from HostIP [10.200.7.182:5300] by the command [02 03 20 01 00 02 9E 38].
2023-06-04 15:03:40.442: Received Data [0x020304040D000059C0] from Server [10.200.7.182:5300] by the command [0203200100029E38]
2023-06-04 15:03:40.543: Read data from HostIP [10.200.7.182:5300] by the command [03 03 20 01 00 02 9F E9].
2023-06-04 15:03:40.719: Received Data [0x030304040C000018C0] from Server [10.200.7.182:5300] by the command [0303200100029FE9]
2023-06-04 15:03:40.822: Read data from HostIP [10.200.7.182:5300] by the command [04 03 20 01 00 02 9E 5E].
2023-06-04 15:03:40.993: Received Data [0x040304040C00006E00] from Server [10.200.7.182:5300] by the command [0403200100029E5E]
2023-06-04 15:03:41.096: Read data from HostIP [10.200.7.182:5300] by the command [05 03 20 01 00 02 9F 8F].
2023-06-04 15:03:49.975: Read data from HostIP [10.200.7.182:5300] by the command [01 03 20 01 00 02 9E 0B].
2023-06-04 15:03:59.978: Read data from HostIP [10.200.7.182:5300] by the command [01 03 20 01 00 02 9E 0B].
2023-06-04 15:04:00.151: Received Data [0x010304040D00006AC0] from Server [10.200.7.182:5300] by the command [0103200100029E0B]
2023-06-04 15:04:00.154: Received Data [0x010304040D00006AC0] from Server [10.200.7.182:5300] by the command [0503200100029F8F]
2023-06-04 15:04:00.154: Received Data [0x010304040D00006AC0] from Server [10.200.7.182:5300] by the command [0103200100029E0B]
2023-06-04 15:04:00.253: Read data from HostIP [10.200.7.182:5300] by the command [02 03 20 01 00 02 9E 38].
2023-06-04 15:04:00.255: Read data from HostIP [10.200.7.182:5300] by the command [06 03 20 01 00 02 9F BC].
2023-06-04 15:04:00.256: Read data from HostIP [10.200.7.182:5300] by the command [02 03 20 01 00 02 9E 38].
2023-06-04 15:04:01.431: Received Data [0x060304040D00001C00] from Server [10.200.7.182:5300] by the command [0203200100029E38]
2023-06-04 15:04:01.433: Received Data [0x060304040D00001C00] from Server [10.200.7.182:5300] by the command [0203200100029E38]
2023-06-04 15:04:01.433: Received Data [0x060304040D00001C00] from Server [10.200.7.182:5300] by the command [0603200100029FBC]
2023-06-04 15:04:01.532: Read data from HostIP [10.200.7.182:5300] by the command [03 03 20 01 00 02 9F E9].
2023-06-04 15:04:01.533: Read data from HostIP [10.200.7.182:5300] by the command [03 03 20 01 00 02 9F E9].
2023-06-04 15:04:01.534: ParallelExecution time for ParallelExecutionforElectricityMeter: 21560
2023-06-04 15:04:01.711: Received Data [0x030304040C000018C0] from Server [10.200.7.182:5300] by the command [0303200100029FE9]
2023-06-04 15:04:01.715: Received Data [0x030304040C000018C0] from Server [10.200.7.182:5300] by the command [0303200100029FE9]
2023-06-04 15:04:01.812: Read data from HostIP [10.200.7.182:5300] by the command [04 03 20 01 00 02 9E 5E].
2023-06-04 15:04:01.816: Read data from HostIP [10.200.7.182:5300] by the command [04 03 20 01 00 02 9E 5E].
2023-06-04 15:04:01.990: Received Data [0x040304040D00003FC0] from Server [10.200.7.182:5300] by the command [0403200100029E5E]
2023-06-04 15:04:01.991: Received Data [0x040304040D00003FC0] from Server [10.200.7.182:5300] by the command [0403200100029E5E]
2023-06-04 15:04:02.092: Read data from HostIP [10.200.7.182:5300] by the command [05 03 20 01 00 02 9F 8F].
2023-06-04 15:04:02.092: Read data from HostIP [10.200.7.182:5300] by the command [05 03 20 01 00 02 9F 8F].
2023-06-04 15:04:02.268: Received Data [0x022F00] from Server [10.200.7.182:5300] by the command [0503200100029F8F]
2023-06-04 15:04:02.271: Received Data [0x022F00] from Server [10.200.7.182:5300] by the command [0503200100029F8F]
2023-06-04 15:04:02.370: Read data from HostIP [10.200.7.182:5300] by the command [06 03 20 01 00 02 9F BC].
2023-06-04 15:04:02.372: Read data from HostIP [10.200.7.182:5300] by the command [06 03 20 01 00 02 9F BC].
2023-06-04 15:04:09.994: Read data from HostIP [10.200.7.182:5300] by the command [01 03 20 01 00 02 9E 0B].
2023-06-04 15:04:10.170: Received Data [0x010304040D00006AC0] from Server [10.200.7.182:5300] by the command [0603200100029FBC]
2023-06-04 15:04:10.173: Received Data [0x010304040D00006AC0] from Server [10.200.7.182:5300] by the command [0603200100029FBC]
2023-06-04 15:04:10.174: Received Data [0x010304040D00006AC0] from Server [10.200.7.182:5300] by the command [0103200100029E0B]
2023-06-04 15:04:10.271: ParallelExecution time for ParallelExecutionforElectricityMeter: 20296
2023-06-04 15:04:10.274: ParallelExecution time for ParallelExecutionforElectricityMeter: 10295
2023-06-04 15:04:10.276: Read data from HostIP [10.200.7.182:5300] by the command [02 03 20 01 00 02 9E 38].
2023-06-04 15:04:10.547: Received Data [0x020304040D000059C0] from Server [10.200.7.182:5300] by the command [0203200100029E38]
2023-06-04 15:04:10.649: Read data from HostIP [10.200.7.182:5300] by the command [03 03 20 01 00 02 9F E9].
2023-06-04 15:04:10.824: Received Data [0x030304040C000018C0] from Server [10.200.7.182:5300] by the command [0303200100029FE9]
2023-06-04 15:04:10.926: Read data from HostIP [10.200.7.182:5300] by the command [04 03 20 01 00 02 9E 5E].
2023-06-04 15:04:11.097: Received Data [0x040304040C00006E00] from Server [10.200.7.182:5300] by the command [0403200100029E5E]
2023-06-04 15:04:11.199: Read data from HostIP [10.200.7.182:5300] by the command [05 03 20 01 00 02 9F 8F].
2023-06-04 15:04:19.995: Read data from HostIP [10.200.7.182:5300] by the command [01 03 20 01 00 02 9E 0B].
2023-06-04 15:04:20.172: Received Data [0x010304040C00003B00] from Server [10.200.7.182:5300] by the command [0503200100029F8F]
2023-06-04 15:04:20.174: Received Data [0x010304040C00003B00] from Server [10.200.7.182:5300] by the command [0103200100029E0B]
2023-06-04 15:04:20.273: Read data from HostIP [10.200.7.182:5300] by the command [06 03 20 01 00 02 9F BC].
2023-06-04 15:04:20.274: Read data from HostIP [10.200.7.182:5300] by the command [02 03 20 01 00 02 9E 38].
2023-06-04 15:04:20.595: Received Data [0x020304040C00000800] from Server [10.200.7.182:5300] by the command [0603200100029FBC]
2023-06-04 15:04:20.597: Received Data [0x020304040C00000800] from Server [10.200.7.182:5300] by the command [0203200100029E38]
2023-06-04 15:04:20.697: ParallelExecution time for ParallelExecutionforElectricityMeter: 10703
2023-06-04 15:04:20.699: Read data from HostIP [10.200.7.182:5300] by the command [03 03 20 01 00 02 9F E9].
2023-06-04 15:04:29.997: Read data from HostIP [10.200.7.182:5300] by the command [01 03 20 01 00 02 9E 0B].
2023-06-04 15:04:30.175: Received Data [0x010304040D00006AC0] from Server [10.200.7.182:5300] by the command [0303200100029FE9]
2023-06-04 15:04:30.176: Received Data [0x010304040D00006AC0] from Server [10.200.7.182:5300] by the command [0103200100029E0B]
2023-06-04 15:04:30.277: Read data from HostIP [10.200.7.182:5300] by the command [04 03 20 01 00 02 9E 5E].
2023-06-04 15:04:30.277: Read data from HostIP [10.200.7.182:5300] by the command [02 03 20 01 00 02 9E 38].
2023-06-04 15:04:30.466: Received Data [0x04590304040D00003FC0] from Server [10.200.7.182:5300] by the command [0203200100029E38]
2023-06-04 15:04:30.466: Received Data [0x04590304040D00003FC0] from Server [10.200.7.182:5300] by the command [0403200100029E5E]
2023-06-04 15:04:30.569: Read data from HostIP [10.200.7.182:5300] by the command [03 03 20 01 00 02 9F E9].
2023-06-04 15:04:30.569: Read data from HostIP [10.200.7.182:5300] by the command [05 03 20 01 00 02 9F 8F].
2023-06-04 15:04:30.749: Received Data [0x050304040D00002F00] from Server [10.200.7.182:5300] by the command [0303200100029FE9]
2023-06-04 15:04:30.754: Received Data [0x050304040D00002F00] from Server [10.200.7.182:5300] by the command [0503200100029F8F]
2023-06-04 15:04:30.851: Read data from HostIP [10.200.7.182:5300] by the command [04 03 20 01 00 02 9E 5E].
2023-06-04 15:04:30.855: Read data from HostIP [10.200.7.182:5300] by the command [06 03 20 01 00 02 9F BC].
2023-06-04 15:04:40.012: Read data from HostIP [10.200.7.182:5300] by the command [01 03 20 01 00 02 9E 0B].
2023-06-04 15:04:40.187: Received Data [0x010304040C00003B00] from Server [10.200.7.182:5300] by the command [0403200100029E5E]
2023-06-04 15:04:40.188: Received Data [0x010304040C00003B00] from Server [10.200.7.182:5300] by the command [0603200100029FBC]
2023-06-04 15:04:40.191: Received Data [0x010304040C00003B00] from Server [10.200.7.182:5300] by the command [0103200100029E0B]
2023-06-04 15:04:40.288: ParallelExecution time for ParallelExecutionforElectricityMeter: 20292
2023-06-04 15:04:40.288: Read data from HostIP [10.200.7.182:5300] by the command [05 03 20 01 00 02 9F 8F].
2023-06-04 15:04:40.291: Read data from HostIP [10.200.7.182:5300] by the command [02 03 20 01 00 02 9E 38].
2023-06-04 15:04:50.010: Read data from HostIP [10.200.7.182:5300] by the command [01 03 20 01 00 02 9E 0B].
2023-06-04 15:04:50.188: Received Data [0x010304040D00006AC0] from Server [10.200.7.182:5300] by the command [0503200100029F8F]
2023-06-04 15:04:50.189: Received Data [0x010304040D00006AC0] from Server [10.200.7.182:5300] by the command [0203200100029E38]
2023-06-04 15:04:50.190: Received Data [0x010304040D00006AC0] from Server [10.200.7.182:5300] by the command [0103200100029E0B]
2023-06-04 15:04:50.289: Read data from HostIP [10.200.7.182:5300] by the command [06 03 20 01 00 02 9F BC].
2023-06-04 15:04:50.290: Read data from HostIP [10.200.7.182:5300] by the command [03 03 20 01 00 02 9F E9].
2023-06-04 15:04:50.291: Read data from HostIP [10.200.7.182:5300] by the command [02 03 20 01 00 02 9E 38].
2023-06-04 15:04:50.475: Received Data [0x021C000304040C000018C0] from Server [10.200.7.182:5300] by the command [0603200100029FBC]
2023-06-04 15:04:50.476: Received Data [0x021C000304040C000018C0] from Server [10.200.7.182:5300] by the command [0303200100029FE9]
2023-06-04 15:04:50.576: ParallelExecution time for ParallelExecutionforElectricityMeter: 20578
2023-06-04 15:04:50.577: Read data from HostIP [10.200.7.182:5300] by the command [04 03 20 01 00 02 9E 5E].
2023-06-04 15:04:50.751: Received Data [0x040304040D00003FC0] from Server [10.200.7.182:5300] by the command [0403200100029E5E]
2023-06-04 15:04:50.852: Read data from HostIP [10.200.7.182:5300] by the command [05 03 20 01 00 02 9F 8F].
2023-06-04 15:04:51.028: Received Data [0x050304040D00002F00] from Server [10.200.7.182:5300] by the command [0503200100029F8F]
2023-06-04 15:04:51.129: Read data from HostIP [10.200.7.182:5300] by the command [06 03 20 01 00 02 9F BC].
2023-06-04 15:04:51.466: Received Data [0x020304040D000059C0] from Server [10.200.7.182:5300] by the command [0603200100029FBC]
2023-06-04 15:04:51.468: Received Data [0x020304040D000059C0] from Server [10.200.7.182:5300] by the command [0203200100029E38]
2023-06-04 15:04:51.567: ParallelExecution time for ParallelExecutionforElectricityMeter: 11555
2023-06-04 15:04:51.569: Read data from HostIP [10.200.7.182:5300] by the command [03 03 20 01 00 02 9F E9].
2023-06-04 15:04:51.741: Received Data [0x030304040C000018C0] from Server [10.200.7.182:5300] by the command [0303200100029FE9]
2023-06-04 15:04:51.842: Read data from HostIP [10.200.7.182:5300] by the command [04 03 20 01 00 02 9E 5E].
2023-06-04 15:04:52.019: Received Data [0x040304040C00006E00] from Server [10.200.7.182:5300] by the command [0403200100029E5E]
2023-06-04 15:04:52.120: Read data from HostIP [10.200.7.182:5300] by the command [05 03 20 01 00 02 9F 8F].
2023-06-04 15:05:00.011: Read data from HostIP [10.200.7.182:5300] by the command [01 03 20 01 00 02 9E 0B].
2023-06-04 15:05:00.187: Received Data [0x010304040C00003B00] from Server [10.200.7.182:5300] by the command [0503200100029F8F]
2023-06-04 15:05:00.188: Received Data [0x010304040C00003B00] from Server [10.200.7.182:5300] by the command [0103200100029E0B]
2023-06-04 15:05:00.288: Read data from HostIP [10.200.7.182:5300] by the command [06 03 20 01 00 02 9F BC].
2023-06-04 15:05:00.289: Read data from HostIP [10.200.7.182:5300] by the command [02 03 20 01 00 02 9E 38].
2023-06-04 15:05:00.475: Received Data [0x020304040D000059C0] from Server [10.200.7.182:5300] by the command [0603200100029FBC]
2023-06-04 15:05:00.476: Received Data [0x020304040D000059C0] from Server [10.200.7.182:5300] by the command [0203200100029E38]
2023-06-04 15:05:00.577: ParallelExecution time for ParallelExecutionforElectricityMeter: 10566
2023-06-04 15:05:00.578: Read data from HostIP [10.200.7.182:5300] by the command [03 03 20 01 00 02 9F E9].
2023-06-04 15:05:10.020: Read data from HostIP [10.200.7.182:5300] by the command [01 03 20 01 00 02 9E 0B].
2023-06-04 15:05:10.193: Received Data [0x010304040C00003B00] from Server [10.200.7.182:5300] by the command [0103200100029E0B]
2023-06-04 15:05:10.195: Received Data [0x010304040C00003B00] from Server [10.200.7.182:5300] by the command [0303200100029FE9]
2023-06-04 15:05:10.294: Read data from HostIP [10.200.7.182:5300] by the command [02 03 20 01 00 02 9E 38].
2023-06-04 15:05:10.296: Read data from HostIP [10.200.7.182:5300] by the command [04 03 20 01 00 02 9E 5E].
2023-06-04 15:05:10.472: Received Data [0x040304040C00006E00] from Server [10.200.7.182:5300] by the command [0203200100029E38]
2023-06-04 15:05:10.476: Received Data [0x040304040C00006E00] from Server [10.200.7.182:5300] by the command [0403200100029E5E]
2023-06-04 15:05:10.574: Read data from HostIP [10.200.7.182:5300] by the command [03 03 20 01 00 02 9F E9].
2023-06-04 15:05:10.577: Read data from HostIP [10.200.7.182:5300] by the command [05 03 20 01 00 02 9F 8F].
2023-06-04 15:05:20.021: Read data from HostIP [10.200.7.182:5300] by the command [01 03 20 01 00 02 9E 0B].
2023-06-04 15:05:30.025: Read data from HostIP [10.200.7.182:5300] by the command [01 03 20 01 00 02 9E 0B].
2023-06-04 15:05:30.201: Received Data [0x010304040E00009AC0] from Server [10.200.7.182:5300] by the command [0303200100029FE9]
2023-06-04 15:05:30.201: Received Data [0x010304040E00009AC0] from Server [10.200.7.182:5300] by the command [0103200100029E0B]
2023-06-04 15:05:30.202: Received Data [0x010304040E00009AC0] from Server [10.200.7.182:5300] by the command [0503200100029F8F]
2023-06-04 15:05:30.202: Received Data [0x010304040E00009AC0] from Server [10.200.7.182:5300] by the command [0103200100029E0B]
2023-06-04 15:05:30.302: Read data from HostIP [10.200.7.182:5300] by the command [04 03 20 01 00 02 9E 5E].
2023-06-04 15:05:30.302: Read data from HostIP [10.200.7.182:5300] by the command [02 03 20 01 00 02 9E 38].
2023-06-04 15:05:30.303: Read data from HostIP [10.200.7.182:5300] by the command [02 03 20 01 00 02 9E 38].
2023-06-04 15:05:30.303: Read data from HostIP [10.200.7.182:5300] by the command [06 03 20 01 00 02 9F BC].
2023-06-04 15:05:31.488: Received Data [0x013F000304040D000059C0] from Server [10.200.7.182:5300] by the command [0203200100029E38]
2023-06-04 15:05:31.489: Received Data [0x013F000304040D000059C0] from Server [10.200.7.182:5300] by the command [0603200100029FBC]
2023-06-04 15:05:31.489: Received Data [0x013F000304040D000059C0] from Server [10.200.7.182:5300] by the command [0403200100029E5E]
2023-06-04 15:05:31.490: Received Data [0x013F000304040D000059C0] from Server [10.200.7.182:5300] by the command [0203200100029E38]
2023-06-04 15:05:31.589: Read data from HostIP [10.200.7.182:5300] by the command [03 03 20 01 00 02 9F E9].
2023-06-04 15:05:31.589: ParallelExecution time for ParallelExecutionforElectricityMeter: 31577
2023-06-04 15:05:31.590: Read data from HostIP [10.200.7.182:5300] by the command [05 03 20 01 00 02 9F 8F].
2023-06-04 15:05:31.591: Read data from HostIP [10.200.7.182:5300] by the command [03 03 20 01 00 02 9F E9].
2023-06-04 15:05:31.775: Received Data [0x022F0304040D00004900] from Server [10.200.7.182:5300] by the command [0503200100029F8F]
2023-06-04 15:05:31.776: Received Data [0x022F0304040D00004900] from Server [10.200.7.182:5300] by the command [0303200100029FE9]
2023-06-04 15:05:31.876: Read data from HostIP [10.200.7.182:5300] by the command [06 03 20 01 00 02 9F BC].
2023-06-04 15:05:31.877: Read data from HostIP [10.200.7.182:5300] by the command [04 03 20 01 00 02 9E 5E].
2023-06-04 15:05:40.027: Read data from HostIP [10.200.7.182:5300] by the command [01 03 20 01 00 02 9E 0B].
2023-06-04 15:05:40.203: Received Data [0x010304040D00006AC0] from Server [10.200.7.182:5300] by the command [0303200100029FE9]
2023-06-04 15:05:40.203: Received Data [0x010304040D00006AC0] from Server [10.200.7.182:5300] by the command [0603200100029FBC]
2023-06-04 15:05:40.204: Received Data [0x010304040D00006AC0] from Server [10.200.7.182:5300] by the command [0403200100029E5E]
2023-06-04 15:05:40.206: Received Data [0x010304040D00006AC0] from Server [10.200.7.182:5300] by the command [0103200100029E0B]
2023-06-04 15:05:40.304: Read data from HostIP [10.200.7.182:5300] by the command [04 03 20 01 00 02 9E 5E].
2023-06-04 15:05:40.304: ParallelExecution time for ParallelExecutionforElectricityMeter: 30283
2023-06-04 15:05:40.306: Read data from HostIP [10.200.7.182:5300] by the command [05 03 20 01 00 02 9F 8F].
2023-06-04 15:05:40.308: Read data from HostIP [10.200.7.182:5300] by the command [02 03 20 01 00 02 9E 38].
2023-06-04 15:05:40.491: Received Data [0x022F000304040D00003FC0] from Server [10.200.7.182:5300] by the command [0503200100029F8F]
2023-06-04 15:05:40.491: Received Data [0x022F000304040D00003FC0] from Server [10.200.7.182:5300] by the command [0403200100029E5E]
2023-06-04 15:05:40.591: Read data from HostIP [10.200.7.182:5300] by the command [06 03 20 01 00 02 9F BC].
2023-06-04 15:05:40.592: Read data from HostIP [10.200.7.182:5300] by the command [05 03 20 01 00 02 9F 8F].
2023-06-04 15:05:40.767: Received Data [0x041C00] from Server [10.200.7.182:5300] by the command [0603200100029FBC]
2023-06-04 15:05:40.768: Received Data [0x041C00] from Server [10.200.7.182:5300] by the command [0503200100029F8F]
2023-06-04 15:05:40.869: ParallelExecution time for ParallelExecutionforElectricityMeter: 20846
2023-06-04 15:05:40.869: Read data from HostIP [10.200.7.182:5300] by the command [06 03 20 01 00 02 9F BC].
2023-06-04 15:05:41.045: Received Data [0x060304040D00001C00] from Server [10.200.7.182:5300] by the command [0603200100029FBC]
2023-06-04 15:05:41.146: ParallelExecution time for ParallelExecutionforElectricityMeter: 11120
2023-06-04 15:05:50.029: Read data from HostIP [10.200.7.182:5300] by the command [01 03 20 01 00 02 9E 0B].
2023-06-04 15:05:50.205: Received Data [0x010304040D00006AC0] from Server [10.200.7.182:5300] by the command [0203200100029E38]
2023-06-04 15:05:50.207: Received Data [0x010304040D00006AC0] from Server [10.200.7.182:5300] by the command [0103200100029E0B]
2023-06-04 15:05:50.307: Read data from HostIP [10.200.7.182:5300] by the command [03 03 20 01 00 02 9F E9].
2023-06-04 15:05:50.309: Read data from HostIP [10.200.7.182:5300] by the command [02 03 20 01 00 02 9E 38].
2023-06-04 15:05:50.494: Received Data [0x00210304040E0000A9C0] from Server [10.200.7.182:5300] by the command [0303200100029FE9]
2023-06-04 15:05:50.495: Received Data [0x00210304040E0000A9C0] from Server [10.200.7.182:5300] by the command [0203200100029E38]
2023-06-04 15:05:50.596: Read data from HostIP [10.200.7.182:5300] by the command [04 03 20 01 00 02 9E 5E].
2023-06-04 15:05:50.596: Read data from HostIP [10.200.7.182:5300] by the command [03 03 20 01 00 02 9F E9].
2023-06-04 15:05:50.774: Received Data [0x003F000304040D00004900] from Server [10.200.7.182:5300] by the command [0403200100029E5E]
2023-06-04 15:05:50.776: Received Data [0x003F000304040D00004900] from Server [10.200.7.182:5300] by the command [0303200100029FE9]
2023-06-04 15:05:50.876: Read data from HostIP [10.200.7.182:5300] by the command [05 03 20 01 00 02 9F 8F].
2023-06-04 15:05:50.877: Read data from HostIP [10.200.7.182:5300] by the command [04 03 20 01 00 02 9E 5E].
2023-06-04 15:05:51.061: Received Data [0x050304040E0000DF00] from Server [10.200.7.182:5300] by the command [0403200100029E5E]
2023-06-04 15:05:51.062: Received Data [0x050304040E0000DF00] from Server [10.200.7.182:5300] by the command [0503200100029F8F]
2023-06-04 15:05:51.163: Read data from HostIP [10.200.7.182:5300] by the command [05 03 20 01 00 02 9F 8F].
2023-06-04 15:05:51.164: Read data from HostIP [10.200.7.182:5300] by the command [06 03 20 01 00 02 9F BC].
2023-06-04 15:05:51.461: Received Data [0x050304040E0000DF00] from Server [10.200.7.182:5300] by the command [0603200100029FBC]
2023-06-04 15:05:51.463: Received Data [0x050304040E0000DF00] from Server [10.200.7.182:5300] by the command [0503200100029F8F]
2023-06-04 15:05:51.562: ParallelExecution time for ParallelExecutionforElectricityMeter: 11533
2023-06-04 15:05:51.564: Read data from HostIP [10.200.7.182:5300] by the command [06 03 20 01 00 02 9F BC].
2023-06-04 15:06:00.031: Read data from HostIP [10.200.7.182:5300] by the command [01 03 20 01 00 02 9E 0B].
2023-06-04 15:06:00.200: Received Data [0x010304040D00006AC0] from Server [10.200.7.182:5300] by the command [0603200100029FBC]
2023-06-04 15:06:00.202: Received Data [0x010304040D00006AC0] from Server [10.200.7.182:5300] by the command [0103200100029E0B]
2023-06-04 15:06:00.302: ParallelExecution time for ParallelExecutionforElectricityMeter: 10272
2023-06-04 15:06:00.303: Read data from HostIP [10.200.7.182:5300] by the command [02 03 20 01 00 02 9E 38].
2023-06-04 15:06:00.484: Received Data [0x020304040E0000A9C0] from Server [10.200.7.182:5300] by the command [0203200100029E38]
2023-06-04 15:06:00.586: Read data from HostIP [10.200.7.182:5300] by the command [03 03 20 01 00 02 9F E9].
2023-06-04 15:06:00.764: Received Data [0x030304040D00004900] from Server [10.200.7.182:5300] by the command [0303200100029FE9]
2023-06-04 15:06:00.866: Read data from HostIP [10.200.7.182:5300] by the command [04 03 20 01 00 02 9E 5E].
2023-06-04 15:06:10.039: Read data from HostIP [10.200.7.182:5300] by the command [01 03 20 01 00 02 9E 0B].
2023-06-04 15:06:10.218: Received Data [0x010304040E00009AC0] from Server [10.200.7.182:5300] by the command [0403200100029E5E]
2023-06-04 15:06:10.219: Received Data [0x010304040E00009AC0] from Server [10.200.7.182:5300] by the command [0103200100029E0B]
2023-06-04 15:06:10.319: Read data from HostIP [10.200.7.182:5300] by the command [05 03 20 01 00 02 9F 8F].
2023-06-04 15:06:10.320: Read data from HostIP [10.200.7.182:5300] by the command [02 03 20 01 00 02 9E 38].
2023-06-04 15:06:10.971: Received Data [0x] from Server [10.200.7.182:5300] by the command [0203200100029E38]
2023-06-04 15:06:10.995: Received Data [0x050304040E0000DF00] from Server [10.200.7.182:5300] by the command [0503200100029F8F]
2023-06-04 15:06:11.072: Read data from HostIP [10.200.7.182:5300] by the command [03 03 20 01 00 02 9F E9].
2023-06-04 15:06:11.096: Read data from HostIP [10.200.7.182:5300] by the command [06 03 20 01 00 02 9F BC].
2023-06-04 15:06:20.042: Read data from HostIP [10.200.7.182:5300] by the command [01 03 20 01 00 02 9E 0B].
2023-06-04 15:06:30.050: Read data from HostIP [10.200.7.182:5300] by the command [01 03 20 01 00 02 9E 0B].
2023-06-04 15:06:30.276: Received Data [0x010304040D00006AC0] from Server [10.200.7.182:5300] by the command [0303200100029FE9]
2023-06-04 15:06:30.277: Received Data [0x010304040D00006AC0] from Server [10.200.7.182:5300] by the command [0603200100029FBC]
2023-06-04 15:06:30.277: Received Data [0x010304040D00006AC0] from Server [10.200.7.182:5300] by the command [0103200100029E0B]
2023-06-04 15:06:30.278: Received Data [0x010304040D00006AC0] from Server [10.200.7.182:5300] by the command [0103200100029E0B]
2023-06-04 15:06:30.377: Read data from HostIP [10.200.7.182:5300] by the command [04 03 20 01 00 02 9E 5E].
2023-06-04 15:06:30.378: Read data from HostIP [10.200.7.182:5300] by the command [02 03 20 01 00 02 9E 38].
2023-06-04 15:06:30.378: ParallelExecution time for ParallelExecutionforElectricityMeter: 30347
2023-06-04 15:06:30.379: Read data from HostIP [10.200.7.182:5300] by the command [02 03 20 01 00 02 9E 38].
2023-06-04 15:06:30.562: Received Data [0x0259000304040C00006E00] from Server [10.200.7.182:5300] by the command [0203200100029E38]
2023-06-04 15:06:30.563: Received Data [0x0259000304040C00006E00] from Server [10.200.7.182:5300] by the command [0403200100029E5E]
2023-06-04 15:06:30.663: Read data from HostIP [10.200.7.182:5300] by the command [03 03 20 01 00 02 9F E9].
2023-06-04 15:06:30.664: Read data from HostIP [10.200.7.182:5300] by the command [05 03 20 01 00 02 9F 8F].
2023-06-04 15:06:40.059: Read data from HostIP [10.200.7.182:5300] by the command [01 03 20 01 00 02 9E 0B].
2023-06-04 15:06:40.333: Received Data [0x010304040D00006AC0] from Server [10.200.7.182:5300] by the command [0503200100029F8F]
2023-06-04 15:06:40.336: Received Data [0x010304040D00006AC0] from Server [10.200.7.182:5300] by the command [0303200100029FE9]
2023-06-04 15:06:40.339: Received Data [0x010304040D00006AC0] from Server [10.200.7.182:5300] by the command [0203200100029E38]
2023-06-04 15:06:40.340: Received Data [0x010304040D00006AC0] from Server [10.200.7.182:5300] by the command [0103200100029E0B]
2023-06-04 15:06:40.435: Read data from HostIP [10.200.7.182:5300] by the command [06 03 20 01 00 02 9F BC].
2023-06-04 15:06:40.438: Read data from HostIP [10.200.7.182:5300] by the command [04 03 20 01 00 02 9E 5E].
2023-06-04 15:06:40.440: Read data from HostIP [10.200.7.182:5300] by the command [03 03 20 01 00 02 9F E9].
2023-06-04 15:06:40.442: Read data from HostIP [10.200.7.182:5300] by the command [02 03 20 01 00 02 9E 38].
2023-06-04 15:06:40.612: Received Data [0x060304040D00001C00] from Server [10.200.7.182:5300] by the command [0603200100029FBC]
2023-06-04 15:06:40.613: Received Data [0x060304040D00001C00] from Server [10.200.7.182:5300] by the command [0403200100029E5E]
2023-06-04 15:06:40.714: ParallelExecution time for ParallelExecutionforElectricityMeter: 30675
2023-06-04 15:06:40.715: Read data from HostIP [10.200.7.182:5300] by the command [05 03 20 01 00 02 9F 8F].
2023-06-04 15:06:42.092: Received Data [0x] from Server [10.200.7.182:5300] by the command [0303200100029FE9]
2023-06-04 15:06:42.114: Received Data [0x020304040D000059C0] from Server [10.200.7.182:5300] by the command [0503200100029F8F]
2023-06-04 15:06:42.118: Received Data [0x020304040D000059C0] from Server [10.200.7.182:5300] by the command [0203200100029E38]
2023-06-04 15:06:42.193: Read data from HostIP [10.200.7.182:5300] by the command [04 03 20 01 00 02 9E 5E].
2023-06-04 15:06:42.216: Read data from HostIP [10.200.7.182:5300] by the command [06 03 20 01 00 02 9F BC].
2023-06-04 15:06:42.220: Read data from HostIP [10.200.7.182:5300] by the command [03 03 20 01 00 02 9F E9].
2023-06-04 15:06:42.363: Received Data [0x040304040C00006E00] from Server [10.200.7.182:5300] by the command [0403200100029E5E]
2023-06-04 15:06:42.464: Read data from HostIP [10.200.7.182:5300] by the command [05 03 20 01 00 02 9F 8F].
2023-06-04 15:06:43.455: Received Data [0x030304040C000018C0] from Server [10.200.7.182:5300] by the command [0603200100029FBC]
2023-06-04 15:06:43.455: Received Data [0x030304040C000018C0] from Server [10.200.7.182:5300] by the command [0503200100029F8F]
2023-06-04 15:06:43.458: Received Data [0x030304040C000018C0] from Server [10.200.7.182:5300] by the command [0303200100029FE9]
2023-06-04 15:06:43.557: Read data from HostIP [10.200.7.182:5300] by the command [06 03 20 01 00 02 9F BC].
2023-06-04 15:06:43.557: ParallelExecution time for ParallelExecutionforElectricityMeter: 13506
2023-06-04 15:06:43.560: Read data from HostIP [10.200.7.182:5300] by the command [04 03 20 01 00 02 9E 5E].
2023-06-04 15:06:43.733: Received Data [0x060304040D00001C00] from Server [10.200.7.182:5300] by the command [0603200100029FBC]
2023-06-04 15:06:43.733: Received Data [0x060304040D00001C00] from Server [10.200.7.182:5300] by the command [0403200100029E5E]
2023-06-04 15:06:43.835: Read data from HostIP [10.200.7.182:5300] by the command [05 03 20 01 00 02 9F 8F].
2023-06-04 15:06:43.835: ParallelExecution time for ParallelExecutionforElectricityMeter: 23792
2023-06-04 15:06:50.059: Read data from HostIP [10.200.7.182:5300] by the command [01 03 20 01 00 02 9E 0B].
2023-06-04 15:06:50.238: Received Data [0x010304040D00006AC0] from Server [10.200.7.182:5300] by the command [0503200100029F8F]
2023-06-04 15:06:50.238: Received Data [0x010304040D00006AC0] from Server [10.200.7.182:5300] by the command [0103200100029E0B]
2023-06-04 15:06:50.339: Read data from HostIP [10.200.7.182:5300] by the command [06 03 20 01 00 02 9F BC].
2023-06-04 15:06:50.339: Read data from HostIP [10.200.7.182:5300] by the command [02 03 20 01 00 02 9E 38].
2023-06-04 15:06:50.513: Received Data [0x02A9C0] from Server [10.200.7.182:5300] by the command [0603200100029FBC]
2023-06-04 15:06:50.515: Received Data [0x02A9C0] from Server [10.200.7.182:5300] by the command [0203200100029E38]
2023-06-04 15:06:50.614: ParallelExecution time for ParallelExecutionforElectricityMeter: 10555
2023-06-04 15:06:50.618: Read data from HostIP [10.200.7.182:5300] by the command [03 03 20 01 00 02 9F E9].
2023-06-04 15:06:50.793: Received Data [0x030304040D00004900] from Server [10.200.7.182:5300] by the command [0303200100029FE9]
2023-06-04 15:06:50.895: Read data from HostIP [10.200.7.182:5300] by the command [04 03 20 01 00 02 9E 5E].
2023-06-04 15:07:00.060: Read data from HostIP [10.200.7.182:5300] by the command [01 03 20 01 00 02 9E 0B].
2023-06-04 15:07:00.236: Received Data [0x010304040D00006AC0] from Server [10.200.7.182:5300] by the command [0403200100029E5E]
2023-06-04 15:07:00.238: Received Data [0x010304040D00006AC0] from Server [10.200.7.182:5300] by the command [0103200100029E0B]
2023-06-04 15:07:00.337: Read data from HostIP [10.200.7.182:5300] by the command [05 03 20 01 00 02 9F 8F].
2023-06-04 15:07:00.339: Read data from HostIP [10.200.7.182:5300] by the command [02 03 20 01 00 02 9E 38].
2023-06-04 15:07:00.989: Received Data [0x] from Server [10.200.7.182:5300] by the command [0503200100029F8F]
2023-06-04 15:07:01.011: Received Data [0x020304040E0000A9C0] from Server [10.200.7.182:5300] by the command [0203200100029E38]
2023-06-04 15:07:01.090: Read data from HostIP [10.200.7.182:5300] by the command [06 03 20 01 00 02 9F BC].
2023-06-04 15:07:01.112: Read data from HostIP [10.200.7.182:5300] by the command [03 03 20 01 00 02 9F E9].
2023-06-04 15:07:01.268: Received Data [0x060304040D00001C00] from Server [10.200.7.182:5300] by the command [0603200100029FBC]
2023-06-04 15:07:01.370: ParallelExecution time for ParallelExecutionforElectricityMeter: 11309
2023-06-04 15:07:02.289: Received Data [0x030304040D00004900] from Server [10.200.7.182:5300] by the command [0303200100029FE9]
2023-06-04 15:07:02.390: Read data from HostIP [10.200.7.182:5300] by the command [04 03 20 01 00 02 9E 5E].
2023-06-04 15:07:10.070: Read data from HostIP [10.200.7.182:5300] by the command [01 03 20 01 00 02 9E 0B].
2023-06-04 15:07:10.247: Received Data [0x010304040D00006AC0] from Server [10.200.7.182:5300] by the command [0403200100029E5E]
2023-06-04 15:07:10.248: Received Data [0x010304040D00006AC0] from Server [10.200.7.182:5300] by the command [0103200100029E0B]
2023-06-04 15:07:10.348: Read data from HostIP [10.200.7.182:5300] by the command [05 03 20 01 00 02 9F 8F].
2023-06-04 15:07:10.349: Read data from HostIP [10.200.7.182:5300] by the command [02 03 20 01 00 02 9E 38].
2023-06-04 15:07:10.517: Received Data [0x002F] from Server [10.200.7.182:5300] by the command [0503200100029F8F]
2023-06-04 15:07:10.518: Received Data [0x002F] from Server [10.200.7.182:5300] by the command [0203200100029E38]
2023-06-04 15:07:10.619: Read data from HostIP [10.200.7.182:5300] by the command [06 03 20 01 00 02 9F BC].
2023-06-04 15:07:10.619: Read data from HostIP [10.200.7.182:5300] by the command [03 03 20 01 00 02 9F E9].
2023-06-04 15:07:10.799: Received Data [0x021C000304040C000018C0] from Server [10.200.7.182:5300] by the command [0603200100029FBC]
2023-06-04 15:07:10.802: Received Data [0x021C000304040C000018C0] from Server [10.200.7.182:5300] by the command [0303200100029FE9]
2023-06-04 15:07:10.900: ParallelExecution time for ParallelExecutionforElectricityMeter: 10839
2023-06-04 15:07:10.904: Read data from HostIP [10.200.7.182:5300] by the command [04 03 20 01 00 02 9E 5E].
2023-06-04 15:07:20.070: Read data from HostIP [10.200.7.182:5300] by the command [01 03 20 01 00 02 9E 0B].
2023-06-04 15:07:20.255: Received Data [0x010304040D00006AC0] from Server [10.200.7.182:5300] by the command [0403200100029E5E]
2023-06-04 15:07:20.257: Received Data [0x010304040D00006AC0] from Server [10.200.7.182:5300] by the command [0103200100029E0B]
2023-06-04 15:07:20.357: Read data from HostIP [10.200.7.182:5300] by the command [05 03 20 01 00 02 9F 8F].
2023-06-04 15:07:20.358: Read data from HostIP [10.200.7.182:5300] by the command [02 03 20 01 00 02 9E 38].
2023-06-04 15:07:20.533: Received Data [0x020304040D000059C0] from Server [10.200.7.182:5300] by the command [0503200100029F8F]
2023-06-04 15:07:20.537: Received Data [0x020304040D000059C0] from Server [10.200.7.182:5300] by the command [0203200100029E38]
2023-06-04 15:07:20.635: Read data from HostIP [10.200.7.182:5300] by the command [06 03 20 01 00 02 9F BC].
2023-06-04 15:07:20.638: Read data from HostIP [10.200.7.182:5300] by the command [03 03 20 01 00 02 9F E9].
2023-06-04 15:07:20.811: Received Data [0x060304040D00001C00] from Server [10.200.7.182:5300] by the command [0603200100029FBC]
2023-06-04 15:07:20.811: Received Data [0x060304040D00001C00] from Server [10.200.7.182:5300] by the command [0303200100029FE9]
2023-06-04 15:07:20.913: Read data from HostIP [10.200.7.182:5300] by the command [04 03 20 01 00 02 9E 5E].
2023-06-04 15:07:20.913: ParallelExecution time for ParallelExecutionforElectricityMeter: 10843
2023-06-04 15:07:30.071: Read data from HostIP [10.200.7.182:5300] by the command [01 03 20 01 00 02 9E 0B].
2023-06-04 15:07:30.244: Received Data [0x010304040D00006AC0] from Server [10.200.7.182:5300] by the command [0103200100029E0B]
2023-06-04 15:07:30.246: Received Data [0x010304040D00006AC0] from Server [10.200.7.182:5300] by the command [0403200100029E5E]
2023-06-04 15:07:30.346: Read data from HostIP [10.200.7.182:5300] by the command [02 03 20 01 00 02 9E 38].
2023-06-04 15:07:30.347: Read data from HostIP [10.200.7.182:5300] by the command [05 03 20 01 00 02 9F 8F].
2023-06-04 15:07:30.531: Received Data [0x022F000304040D000059C0] from Server [10.200.7.182:5300] by the command [0503200100029F8F]
2023-06-04 15:07:30.532: Received Data [0x022F000304040D000059C0] from Server [10.200.7.182:5300] by the command [0203200100029E38]
2023-06-04 15:07:30.632: Read data from HostIP [10.200.7.182:5300] by the command [06 03 20 01 00 02 9F BC].
2023-06-04 15:07:30.632: Read data from HostIP [10.200.7.182:5300] by the command [03 03 20 01 00 02 9F E9].
2023-06-04 15:07:30.811: Received Data [0x030304040C000018C0] from Server [10.200.7.182:5300] by the command [0603200100029FBC]
2023-06-04 15:07:30.811: Received Data [0x030304040C000018C0] from Server [10.200.7.182:5300] by the command [0303200100029FE9]
2023-06-04 15:07:30.911: ParallelExecution time for ParallelExecutionforElectricityMeter: 10841
2023-06-04 15:07:30.911: Read data from HostIP [10.200.7.182:5300] by the command [04 03 20 01 00 02 9E 5E].
2023-06-04 15:07:31.088: Received Data [0x040304040C00006E00] from Server [10.200.7.182:5300] by the command [0403200100029E5E]
2023-06-04 15:07:31.189: Read data from HostIP [10.200.7.182:5300] by the command [05 03 20 01 00 02 9F 8F].
2023-06-04 15:07:40.072: Read data from HostIP [10.200.7.182:5300] by the command [01 03 20 01 00 02 9E 0B].
2023-06-04 15:07:50.072: Read data from HostIP [10.200.7.182:5300] by the command [01 03 20 01 00 02 9E 0B].
2023-06-04 15:07:50.246: Received Data [0x010304040D00006AC0] from Server [10.200.7.182:5300] by the command [0503200100029F8F]
2023-06-04 15:07:50.252: Received Data [0x010304040D00006AC0] from Server [10.200.7.182:5300] by the command [0103200100029E0B]
2023-06-04 15:07:50.252: Received Data [0x010304040D00006AC0] from Server [10.200.7.182:5300] by the command [0103200100029E0B]
2023-06-04 15:07:50.347: Read data from HostIP [10.200.7.182:5300] by the command [06 03 20 01 00 02 9F BC].
2023-06-04 15:07:50.353: Read data from HostIP [10.200.7.182:5300] by the command [02 03 20 01 00 02 9E 38].
2023-06-04 15:07:50.353: Read data from HostIP [10.200.7.182:5300] by the command [02 03 20 01 00 02 9E 38].
2023-06-04 15:07:50.524: Received Data [0x021C00] from Server [10.200.7.182:5300] by the command [0603200100029FBC]
2023-06-04 15:07:50.524: Received Data [0x021C00] from Server [10.200.7.182:5300] by the command [0203200100029E38]
2023-06-04 15:07:50.625: Read data from HostIP [10.200.7.182:5300] by the command [03 03 20 01 00 02 9F E9].
2023-06-04 15:07:50.625: ParallelExecution time for ParallelExecutionforElectricityMeter: 20553
2023-06-04 15:07:51.590: Received Data [0x020304040D000059C0] from Server [10.200.7.182:5300] by the command [0303200100029FE9]
2023-06-04 15:07:51.594: Received Data [0x020304040D000059C0] from Server [10.200.7.182:5300] by the command [0203200100029E38]
2023-06-04 15:07:51.691: Read data from HostIP [10.200.7.182:5300] by the command [04 03 20 01 00 02 9E 5E].
2023-06-04 15:07:51.695: Read data from HostIP [10.200.7.182:5300] by the command [03 03 20 01 00 02 9F E9].
2023-06-04 15:07:51.861: Received Data [0x040304040D00003FC0] from Server [10.200.7.182:5300] by the command [0403200100029E5E]
2023-06-04 15:07:51.867: Received Data [0x040304040D00003FC0] from Server [10.200.7.182:5300] by the command [0303200100029FE9]
2023-06-04 15:07:51.963: Read data from HostIP [10.200.7.182:5300] by the command [05 03 20 01 00 02 9F 8F].
2023-06-04 15:07:51.968: Read data from HostIP [10.200.7.182:5300] by the command [04 03 20 01 00 02 9E 5E].
2023-06-04 15:07:52.143: Received Data [0x040304040D00003FC0] from Server [10.200.7.182:5300] by the command [0503200100029F8F]
2023-06-04 15:07:52.148: Received Data [0x040304040D00003FC0] from Server [10.200.7.182:5300] by the command [0403200100029E5E]
2023-06-04 15:07:52.245: Read data from HostIP [10.200.7.182:5300] by the command [06 03 20 01 00 02 9F BC].
2023-06-04 15:07:52.250: Read data from HostIP [10.200.7.182:5300] by the command [05 03 20 01 00 02 9F 8F].
2023-06-04 15:07:52.428: Received Data [0x021C000304040D00002F00] from Server [10.200.7.182:5300] by the command [0603200100029FBC]
2023-06-04 15:07:52.429: Received Data [0x021C000304040D00002F00] from Server [10.200.7.182:5300] by the command [0503200100029F8F]
2023-06-04 15:07:52.529: ParallelExecution time for ParallelExecutionforElectricityMeter: 12457
2023-06-04 15:07:52.531: Read data from HostIP [10.200.7.182:5300] by the command [06 03 20 01 00 02 9F BC].
2023-06-04 15:08:00.073: Read data from HostIP [10.200.7.182:5300] by the command [01 03 20 01 00 02 9E 0B].
2023-06-04 15:08:00.251: Received Data [0x010304040E00009AC0] from Server [10.200.7.182:5300] by the command [0603200100029FBC]
2023-06-04 15:08:00.252: Received Data [0x010304040E00009AC0] from Server [10.200.7.182:5300] by the command [0103200100029E0B]
2023-06-04 15:08:00.352: ParallelExecution time for ParallelExecutionforElectricityMeter: 10279
2023-06-04 15:08:00.353: Read data from HostIP [10.200.7.182:5300] by the command [02 03 20 01 00 02 9E 38].
2023-06-04 15:08:10.086: Read data from HostIP [10.200.7.182:5300] by the command [01 03 20 01 00 02 9E 0B].
2023-06-04 15:08:10.262: Received Data [0x010304040D00006AC0] from Server [10.200.7.182:5300] by the command [0203200100029E38]
2023-06-04 15:08:10.263: Received Data [0x010304040D00006AC0] from Server [10.200.7.182:5300] by the command [0103200100029E0B]
2023-06-04 15:08:10.363: Read data from HostIP [10.200.7.182:5300] by the command [03 03 20 01 00 02 9F E9].
2023-06-04 15:08:10.365: Read data from HostIP [10.200.7.182:5300] by the command [02 03 20 01 00 02 9E 38].
2023-06-04 15:08:10.536: Received Data [0x0481C0] from Server [10.200.7.182:5300] by the command [0303200100029FE9]
2023-06-04 15:08:10.541: Received Data [0x0481C0] from Server [10.200.7.182:5300] by the command [0203200100029E38]
2023-06-04 15:08:10.638: Read data from HostIP [10.200.7.182:5300] by the command [04 03 20 01 00 02 9E 5E].
2023-06-04 15:08:10.643: Read data from HostIP [10.200.7.182:5300] by the command [03 03 20 01 00 02 9F E9].
2023-06-04 15:08:10.867: Received Data [0x030304040D00004900] from Server [10.200.7.182:5300] by the command [0403200100029E5E]
2023-06-04 15:08:10.869: Received Data [0x030304040D00004900] from Server [10.200.7.182:5300] by the command [0303200100029FE9]
2023-06-04 15:08:10.968: Read data from HostIP [10.200.7.182:5300] by the command [05 03 20 01 00 02 9F 8F].
2023-06-04 15:08:10.971: Read data from HostIP [10.200.7.182:5300] by the command [04 03 20 01 00 02 9E 5E].
2023-06-04 15:08:20.090: Read data from HostIP [10.200.7.182:5300] by the command [01 03 20 01 00 02 9E 0B].
2023-06-04 15:08:20.266: Received Data [0x010304040D00006AC0] from Server [10.200.7.182:5300] by the command [0403200100029E5E]
2023-06-04 15:08:20.267: Received Data [0x010304040D00006AC0] from Server [10.200.7.182:5300] by the command [0503200100029F8F]
2023-06-04 15:08:20.267: Received Data [0x010304040D00006AC0] from Server [10.200.7.182:5300] by the command [0103200100029E0B]
2023-06-04 15:08:20.368: Read data from HostIP [10.200.7.182:5300] by the command [05 03 20 01 00 02 9F 8F].
2023-06-04 15:08:20.368: Read data from HostIP [10.200.7.182:5300] by the command [06 03 20 01 00 02 9F BC].
2023-06-04 15:08:20.369: Read data from HostIP [10.200.7.182:5300] by the command [02 03 20 01 00 02 9E 38].
2023-06-04 15:08:20.544: Received Data [0x050304040D00002F00] from Server [10.200.7.182:5300] by the command [0603200100029FBC]
2023-06-04 15:08:20.549: Received Data [0x050304040D00002F00] from Server [10.200.7.182:5300] by the command [0503200100029F8F]
2023-06-04 15:08:20.646: ParallelExecution time for ParallelExecutionforElectricityMeter: 20572
2023-06-04 15:08:20.651: Read data from HostIP [10.200.7.182:5300] by the command [06 03 20 01 00 02 9F BC].
2023-06-04 15:08:21.546: Received Data [0x020304040D000059C0] from Server [10.200.7.182:5300] by the command [0603200100029FBC]
2023-06-04 15:08:21.547: Received Data [0x020304040D000059C0] from Server [10.200.7.182:5300] by the command [0203200100029E38]
2023-06-04 15:08:21.648: ParallelExecution time for ParallelExecutionforElectricityMeter: 11561
2023-06-04 15:08:21.648: Read data from HostIP [10.200.7.182:5300] by the command [03 03 20 01 00 02 9F E9].
2023-06-04 15:08:21.918: Received Data [0x030304040D00004900] from Server [10.200.7.182:5300] by the command [0303200100029FE9]
2023-06-04 15:08:22.019: Read data from HostIP [10.200.7.182:5300] by the command [04 03 20 01 00 02 9E 5E].
2023-06-04 15:08:30.090: Read data from HostIP [10.200.7.182:5300] by the command [01 03 20 01 00 02 9E 0B].
2023-06-04 15:08:30.262: Received Data [0x010304040D00006AC0] from Server [10.200.7.182:5300] by the command [0103200100029E0B]
2023-06-04 15:08:30.264: Received Data [0x010304040D00006AC0] from Server [10.200.7.182:5300] by the command [0403200100029E5E]
2023-06-04 15:08:30.364: Read data from HostIP [10.200.7.182:5300] by the command [02 03 20 01 00 02 9E 38].
2023-06-04 15:08:30.365: Read data from HostIP [10.200.7.182:5300] by the command [05 03 20 01 00 02 9F 8F].
2023-06-04 15:08:30.544: Received Data [0x020304040D000059C0] from Server [10.200.7.182:5300] by the command [0503200100029F8F]
2023-06-04 15:08:30.546: Received Data [0x020304040D000059C0] from Server [10.200.7.182:5300] by the command [0203200100029E38]
2023-06-04 15:08:30.645: Read data from HostIP [10.200.7.182:5300] by the command [06 03 20 01 00 02 9F BC].
2023-06-04 15:08:30.648: Read data from HostIP [10.200.7.182:5300] by the command [03 03 20 01 00 02 9F E9].
2023-06-04 15:08:30.823: Received Data [0x021C00] from Server [10.200.7.182:5300] by the command [0603200100029FBC]
2023-06-04 15:08:30.823: Received Data [0x021C00] from Server [10.200.7.182:5300] by the command [0303200100029FE9]
2023-06-04 15:08:30.924: ParallelExecution time for ParallelExecutionforElectricityMeter: 10835
2023-06-04 15:08:30.925: Read data from HostIP [10.200.7.182:5300] by the command [04 03 20 01 00 02 9E 5E].
2023-06-04 15:08:40.100: Read data from HostIP [10.200.7.182:5300] by the command [01 03 20 01 00 02 9E 0B].
2023-06-04 15:08:40.275: Received Data [0x010304040E00009AC0] from Server [10.200.7.182:5300] by the command [0103200100029E0B]
2023-06-04 15:08:40.276: Received Data [0x010304040E00009AC0] from Server [10.200.7.182:5300] by the command [0403200100029E5E]
2023-06-04 15:08:40.376: Read data from HostIP [10.200.7.182:5300] by the command [02 03 20 01 00 02 9E 38].
2023-06-04 15:08:40.377: Read data from HostIP [10.200.7.182:5300] by the command [05 03 20 01 00 02 9F 8F].
2023-06-04 15:08:41.029: Received Data [0x] from Server [10.200.7.182:5300] by the command [0203200100029E38]
2023-06-04 15:08:41.051: Received Data [0x050304040E0000DF00] from Server [10.200.7.182:5300] by the command [0503200100029F8F]
2023-06-04 15:08:41.130: Read data from HostIP [10.200.7.182:5300] by the command [03 03 20 01 00 02 9F E9].
2023-06-04 15:08:41.153: Read data from HostIP [10.200.7.182:5300] by the command [06 03 20 01 00 02 9F BC].
2023-06-04 15:08:42.326: Received Data [0x060304040E0000EC00] from Server [10.200.7.182:5300] by the command [0303200100029FE9]
2023-06-04 15:08:42.330: Received Data [0x060304040E0000EC00] from Server [10.200.7.182:5300] by the command [0603200100029FBC]
2023-06-04 15:08:42.428: Read data from HostIP [10.200.7.182:5300] by the command [04 03 20 01 00 02 9E 5E].
2023-06-04 15:08:42.432: ParallelExecution time for ParallelExecutionforElectricityMeter: 12341
2023-06-04 15:08:50.100: Read data from HostIP [10.200.7.182:5300] by the command [01 03 20 01 00 02 9E 0B].
2023-06-04 15:08:50.278: Received Data [0x010304040D00006AC0] from Server [10.200.7.182:5300] by the command [0403200100029E5E]
2023-06-04 15:08:50.279: Received Data [0x010304040D00006AC0] from Server [10.200.7.182:5300] by the command [0103200100029E0B]
2023-06-04 15:08:50.379: Read data from HostIP [10.200.7.182:5300] by the command [05 03 20 01 00 02 9F 8F].
2023-06-04 15:08:50.380: Read data from HostIP [10.200.7.182:5300] by the command [02 03 20 01 00 02 9E 38].
2023-06-04 15:08:50.563: Received Data [0x022F000304040D000059C0] from Server [10.200.7.182:5300] by the command [0503200100029F8F]
2023-06-04 15:08:50.564: Received Data [0x022F000304040D000059C0] from Server [10.200.7.182:5300] by the command [0203200100029E38]
2023-06-04 15:08:50.665: Read data from HostIP [10.200.7.182:5300] by the command [06 03 20 01 00 02 9F BC].
2023-06-04 15:08:50.667: Read data from HostIP [10.200.7.182:5300] by the command [03 03 20 01 00 02 9F E9].
2023-06-04 15:08:50.847: Received Data [0x011C000304040D00004900] from Server [10.200.7.182:5300] by the command [0603200100029FBC]
2023-06-04 15:08:50.848: Received Data [0x011C000304040D00004900] from Server [10.200.7.182:5300] by the command [0303200100029FE9]
2023-06-04 15:08:50.949: Read data from HostIP [10.200.7.182:5300] by the command [04 03 20 01 00 02 9E 5E].
2023-06-04 15:08:50.949: ParallelExecution time for ParallelExecutionforElectricityMeter: 10848
2023-06-04 15:09:00.102: Read data from HostIP [10.200.7.182:5300] by the command [01 03 20 01 00 02 9E 0B].
2023-06-04 15:09:10.119: Read data from HostIP [10.200.7.182:5300] by the command [01 03 20 01 00 02 9E 0B].
2023-06-04 15:09:20.121: Read data from HostIP [10.200.7.182:5300] by the command [01 03 20 01 00 02 9E 0B].
2023-06-04 15:09:20.301: Received Data [0x010304040E00009AC0] from Server [10.200.7.182:5300] by the command [0403200100029E5E]
2023-06-04 15:09:20.303: Received Data [0x010304040E00009AC0] from Server [10.200.7.182:5300] by the command [0103200100029E0B]
2023-06-04 15:09:20.304: Received Data [0x010304040E00009AC0] from Server [10.200.7.182:5300] by the command [0103200100029E0B]
2023-06-04 15:09:20.306: Received Data [0x010304040E00009AC0] from Server [10.200.7.182:5300] by the command [0103200100029E0B]
2023-06-04 15:09:20.402: Read data from HostIP [10.200.7.182:5300] by the command [05 03 20 01 00 02 9F 8F].
2023-06-04 15:09:20.404: Read data from HostIP [10.200.7.182:5300] by the command [02 03 20 01 00 02 9E 38].
2023-06-04 15:09:20.406: Read data from HostIP [10.200.7.182:5300] by the command [02 03 20 01 00 02 9E 38].
2023-06-04 15:09:20.407: Read data from HostIP [10.200.7.182:5300] by the command [02 03 20 01 00 02 9E 38].
2023-06-04 15:09:20.587: Received Data [0x01DF000304040E0000A9C0] from Server [10.200.7.182:5300] by the command [0503200100029F8F]
2023-06-04 15:09:20.588: Received Data [0x01DF000304040E0000A9C0] from Server [10.200.7.182:5300] by the command [0203200100029E38]
2023-06-04 15:09:20.688: Read data from HostIP [10.200.7.182:5300] by the command [06 03 20 01 00 02 9F BC].
2023-06-04 15:09:20.689: Read data from HostIP [10.200.7.182:5300] by the command [03 03 20 01 00 02 9F E9].
2023-06-04 15:09:20.874: Received Data [0x00008004040E0000EC00] from Server [10.200.7.182:5300] by the command [0303200100029FE9]
2023-06-04 15:09:20.875: Received Data [0x00008004040E0000EC00] from Server [10.200.7.182:5300] by the command [0603200100029FBC]
2023-06-04 15:09:20.975: Read data from HostIP [10.200.7.182:5300] by the command [04 03 20 01 00 02 9E 5E].
2023-06-04 15:09:20.976: ParallelExecution time for ParallelExecutionforElectricityMeter: 30875
2023-06-04 15:09:22.057: Received Data [0x] from Server [10.200.7.182:5300] by the command [0203200100029E38]
2023-06-04 15:09:22.083: Received Data [0x020304040D000059C0] from Server [10.200.7.182:5300] by the command [0203200100029E38]
2023-06-04 15:09:22.084: Received Data [0x020304040D000059C0] from Server [10.200.7.182:5300] by the command [0403200100029E5E]
2023-06-04 15:09:22.159: Read data from HostIP [10.200.7.182:5300] by the command [03 03 20 01 00 02 9F E9].
2023-06-04 15:09:22.184: Read data from HostIP [10.200.7.182:5300] by the command [03 03 20 01 00 02 9F E9].
2023-06-04 15:09:22.184: Read data from HostIP [10.200.7.182:5300] by the command [05 03 20 01 00 02 9F 8F].
2023-06-04 15:09:22.334: Received Data [0x030304040D00004900] from Server [10.200.7.182:5300] by the command [0303200100029FE9]
2023-06-04 15:09:22.435: Read data from HostIP [10.200.7.182:5300] by the command [04 03 20 01 00 02 9E 5E].
2023-06-04 15:09:23.459: Received Data [0x050304040D00002F00] from Server [10.200.7.182:5300] by the command [0403200100029E5E]
2023-06-04 15:09:23.462: Received Data [0x050304040D00002F00] from Server [10.200.7.182:5300] by the command [0503200100029F8F]
2023-06-04 15:09:23.463: Received Data [0x050304040D00002F00] from Server [10.200.7.182:5300] by the command [0303200100029FE9]
2023-06-04 15:09:23.560: Read data from HostIP [10.200.7.182:5300] by the command [05 03 20 01 00 02 9F 8F].
2023-06-04 15:09:23.563: Read data from HostIP [10.200.7.182:5300] by the command [06 03 20 01 00 02 9F BC].
2023-06-04 15:09:23.564: Read data from HostIP [10.200.7.182:5300] by the command [04 03 20 01 00 02 9E 5E].
2023-06-04 15:09:30.124: Read data from HostIP [10.200.7.182:5300] by the command [01 03 20 01 00 02 9E 0B].
2023-06-04 15:09:30.301: Received Data [0x010304040D00006AC0] from Server [10.200.7.182:5300] by the command [0403200100029E5E]
2023-06-04 15:09:30.302: Received Data [0x010304040D00006AC0] from Server [10.200.7.182:5300] by the command [0503200100029F8F]
2023-06-04 15:09:30.302: Received Data [0x010304040D00006AC0] from Server [10.200.7.182:5300] by the command [0603200100029FBC]
2023-06-04 15:09:30.303: Received Data [0x010304040D00006AC0] from Server [10.200.7.182:5300] by the command [0103200100029E0B]
2023-06-04 15:09:30.402: Read data from HostIP [10.200.7.182:5300] by the command [05 03 20 01 00 02 9F 8F].
2023-06-04 15:09:30.403: ParallelExecution time for ParallelExecutionforElectricityMeter: 30300
2023-06-04 15:09:30.403: Read data from HostIP [10.200.7.182:5300] by the command [06 03 20 01 00 02 9F BC].
2023-06-04 15:09:30.405: Read data from HostIP [10.200.7.182:5300] by the command [02 03 20 01 00 02 9E 38].
2023-06-04 15:09:30.578: Received Data [0x050304040D00002F00] from Server [10.200.7.182:5300] by the command [0503200100029F8F]
2023-06-04 15:09:30.580: Received Data [0x050304040D00002F00] from Server [10.200.7.182:5300] by the command [0603200100029FBC]
2023-06-04 15:09:30.680: Read data from HostIP [10.200.7.182:5300] by the command [06 03 20 01 00 02 9F BC].
2023-06-04 15:09:30.681: ParallelExecution time for ParallelExecutionforElectricityMeter: 20561
2023-06-04 15:09:31.576: Received Data [0x020304040D000059C0] from Server [10.200.7.182:5300] by the command [0203200100029E38]
2023-06-04 15:09:31.578: Received Data [0x020304040D000059C0] from Server [10.200.7.182:5300] by the command [0603200100029FBC]
2023-06-04 15:09:31.677: Read data from HostIP [10.200.7.182:5300] by the command [03 03 20 01 00 02 9F E9].
2023-06-04 15:09:31.679: ParallelExecution time for ParallelExecutionforElectricityMeter: 11557
2023-06-04 15:09:31.847: Received Data [0x030304040D00004900] from Server [10.200.7.182:5300] by the command [0303200100029FE9]
2023-06-04 15:09:31.948: Read data from HostIP [10.200.7.182:5300] by the command [04 03 20 01 00 02 9E 5E].
2023-06-04 15:09:40.133: Read data from HostIP [10.200.7.182:5300] by the command [01 03 20 01 00 02 9E 0B].
2023-06-04 15:09:40.306: Received Data [0x010304040D00006AC0] from Server [10.200.7.182:5300] by the command [0403200100029E5E]
2023-06-04 15:09:40.312: Received Data [0x010304040D00006AC0] from Server [10.200.7.182:5300] by the command [0103200100029E0B]
2023-06-04 15:09:40.408: Read data from HostIP [10.200.7.182:5300] by the command [05 03 20 01 00 02 9F 8F].
2023-06-04 15:09:40.414: Read data from HostIP [10.200.7.182:5300] by the command [02 03 20 01 00 02 9E 38].
2023-06-04 15:09:40.589: Received Data [0xD0090304040D000059C0] from Server [10.200.7.182:5300] by the command [0503200100029F8F]
2023-06-04 15:09:40.592: Received Data [0xD0090304040D000059C0] from Server [10.200.7.182:5300] by the command [0203200100029E38]
2023-06-04 15:09:40.690: Read data from HostIP [10.200.7.182:5300] by the command [06 03 20 01 00 02 9F BC].
2023-06-04 15:09:40.693: Read data from HostIP [10.200.7.182:5300] by the command [03 03 20 01 00 02 9F E9].
2023-06-04 15:09:40.876: Received Data [0x021C0304040D00004900] from Server [10.200.7.182:5300] by the command [0603200100029FBC]
2023-06-04 15:09:40.877: Received Data [0x021C0304040D00004900] from Server [10.200.7.182:5300] by the command [0303200100029FE9]
2023-06-04 15:09:40.979: Read data from HostIP [10.200.7.182:5300] by the command [04 03 20 01 00 02 9E 5E].
2023-06-04 15:09:40.979: ParallelExecution time for ParallelExecutionforElectricityMeter: 10854
2023-06-04 15:09:50.133: Read data from HostIP [10.200.7.182:5300] by the command [01 03 20 01 00 02 9E 0B].
2023-06-04 15:09:50.308: Received Data [0x010304040D00006AC0] from Server [10.200.7.182:5300] by the command [0403200100029E5E]
2023-06-04 15:09:50.309: Received Data [0x010304040D00006AC0] from Server [10.200.7.182:5300] by the command [0103200100029E0B]
2023-06-04 15:09:50.410: Read data from HostIP [10.200.7.182:5300] by the command [05 03 20 01 00 02 9F 8F].
2023-06-04 15:09:50.410: Read data from HostIP [10.200.7.182:5300] by the command [02 03 20 01 00 02 9E 38].
2023-06-04 15:09:50.596: Received Data [0x020304040E0000A9C0] from Server [10.200.7.182:5300] by the command [0503200100029F8F]
2023-06-04 15:09:50.596: Received Data [0x020304040E0000A9C0] from Server [10.200.7.182:5300] by the command [0203200100029E38]
2023-06-04 15:09:50.697: Read data from HostIP [10.200.7.182:5300] by the command [06 03 20 01 00 02 9F BC].
2023-06-04 15:09:50.697: Read data from HostIP [10.200.7.182:5300] by the command [03 03 20 01 00 02 9F E9].
2023-06-04 15:09:50.880: Received Data [0x021C000304040D00004900] from Server [10.200.7.182:5300] by the command [0603200100029FBC]
2023-06-04 15:09:50.883: Received Data [0x021C000304040D00004900] from Server [10.200.7.182:5300] by the command [0303200100029FE9]
2023-06-04 15:09:50.983: ParallelExecution time for ParallelExecutionforElectricityMeter: 10849
2023-06-04 15:09:50.983: Read data from HostIP [10.200.7.182:5300] by the command [04 03 20 01 00 02 9E 5E].
2023-06-04 15:10:00.136: Read data from HostIP [10.200.7.182:5300] by the command [01 03 20 01 00 02 9E 0B].
2023-06-04 15:10:00.309: Received Data [0x010304040E00009AC0] from Server [10.200.7.182:5300] by the command [0403200100029E5E]
2023-06-04 15:10:00.315: Received Data [0x010304040E00009AC0] from Server [10.200.7.182:5300] by the command [0103200100029E0B]
2023-06-04 15:10:00.411: Read data from HostIP [10.200.7.182:5300] by the command [05 03 20 01 00 02 9F 8F].
2023-06-04 15:10:00.417: Read data from HostIP [10.200.7.182:5300] by the command [02 03 20 01 00 02 9E 38].
2023-06-04 15:10:00.594: Received Data [0x020304040E0000A9C0] from Server [10.200.7.182:5300] by the command [0503200100029F8F]
2023-06-04 15:10:00.596: Received Data [0x020304040E0000A9C0] from Server [10.200.7.182:5300] by the command [0203200100029E38]
2023-06-04 15:10:00.695: Read data from HostIP [10.200.7.182:5300] by the command [06 03 20 01 00 02 9F BC].
2023-06-04 15:10:00.697: Read data from HostIP [10.200.7.182:5300] by the command [03 03 20 01 00 02 9F E9].
2023-06-04 15:10:00.879: Received Data [0x02EC0304040D00004900] from Server [10.200.7.182:5300] by the command [0603200100029FBC]
2023-06-04 15:10:00.880: Received Data [0x02EC0304040D00004900] from Server [10.200.7.182:5300] by the command [0303200100029FE9]
2023-06-04 15:10:00.981: ParallelExecution time for ParallelExecutionforElectricityMeter: 10847
2023-06-04 15:10:00.982: Read data from HostIP [10.200.7.182:5300] by the command [04 03 20 01 00 02 9E 5E].
2023-06-04 15:10:10.135: Read data from HostIP [10.200.7.182:5300] by the command [01 03 20 01 00 02 9E 0B].
2023-06-04 15:10:20.136: Read data from HostIP [10.200.7.182:5300] by the command [01 03 20 01 00 02 9E 0B].
2023-06-04 15:10:20.376: Received Data [0x010304040D00006AC0] from Server [10.200.7.182:5300] by the command [0403200100029E5E]
2023-06-04 15:10:20.377: Received Data [0x010304040D00006AC0] from Server [10.200.7.182:5300] by the command [0103200100029E0B]
2023-06-04 15:10:20.377: Received Data [0x010304040D00006AC0] from Server [10.200.7.182:5300] by the command [0103200100029E0B]
2023-06-04 15:10:20.477: Read data from HostIP [10.200.7.182:5300] by the command [05 03 20 01 00 02 9F 8F].
2023-06-04 15:10:20.478: Read data from HostIP [10.200.7.182:5300] by the command [02 03 20 01 00 02 9E 38].
2023-06-04 15:10:20.478: Read data from HostIP [10.200.7.182:5300] by the command [02 03 20 01 00 02 9E 38].
2023-06-04 15:10:21.129: Received Data [0x] from Server [10.200.7.182:5300] by the command [0503200100029F8F]
2023-06-04 15:10:21.230: Read data from HostIP [10.200.7.182:5300] by the command [06 03 20 01 00 02 9F BC].
2023-06-04 15:10:21.295: Received Data [0x020304040D000059C0] from Server [10.200.7.182:5300] by the command [0203200100029E38]
2023-06-04 15:10:21.396: Read data from HostIP [10.200.7.182:5300] by the command [03 03 20 01 00 02 9F E9].
2023-06-04 15:10:21.405: Received Data [0x060304040D00001C00] from Server [10.200.7.182:5300] by the command [0603200100029FBC]
2023-06-04 15:10:21.506: ParallelExecution time for ParallelExecutionforElectricityMeter: 21369
2023-06-04 15:10:21.652: Received Data [0x020304040D000059C0] from Server [10.200.7.182:5300] by the command [0203200100029E38]
2023-06-04 15:10:21.652: Received Data [0x020304040D000059C0] from Server [10.200.7.182:5300] by the command [0303200100029FE9]
2023-06-04 15:10:21.754: Read data from HostIP [10.200.7.182:5300] by the command [04 03 20 01 00 02 9E 5E].
2023-06-04 15:10:21.754: Read data from HostIP [10.200.7.182:5300] by the command [03 03 20 01 00 02 9F E9].
2023-06-04 15:10:21.931: Received Data [0x040304040D00003FC0] from Server [10.200.7.182:5300] by the command [0403200100029E5E]
2023-06-04 15:10:22.032: Read data from HostIP [10.200.7.182:5300] by the command [05 03 20 01 00 02 9F 8F].
2023-06-04 15:10:22.208: Received Data [0x050304040D00002F00] from Server [10.200.7.182:5300] by the command [0503200100029F8F]
2023-06-04 15:10:22.310: Read data from HostIP [10.200.7.182:5300] by the command [06 03 20 01 00 02 9F BC].
2023-06-04 15:10:22.926: Received Data [0x030304040D00004900] from Server [10.200.7.182:5300] by the command [0303200100029FE9]
2023-06-04 15:10:22.928: Received Data [0x030304040D00004900] from Server [10.200.7.182:5300] by the command [0603200100029FBC]
2023-06-04 15:10:23.027: Read data from HostIP [10.200.7.182:5300] by the command [04 03 20 01 00 02 9E 5E].
2023-06-04 15:10:23.029: ParallelExecution time for ParallelExecutionforElectricityMeter: 2893
2023-06-04 15:10:30.137: Read data from HostIP [10.200.7.182:5300] by the command [01 03 20 01 00 02 9E 0B].
2023-06-04 15:10:30.424: Received Data [0x010304040D00006AC0] from Server [10.200.7.182:5300] by the command [0403200100029E5E]
2023-06-04 15:10:30.425: Received Data [0x010304040D00006AC0] from Server [10.200.7.182:5300] by the command [0103200100029E0B]
2023-06-04 15:10:30.526: Read data from HostIP [10.200.7.182:5300] by the command [02 03 20 01 00 02 9E 38].
2023-06-04 15:10:30.526: Read data from HostIP [10.200.7.182:5300] by the command [05 03 20 01 00 02 9F 8F].
2023-06-04 15:10:30.712: Received Data [0x020304040D000059C0] from Server [10.200.7.182:5300] by the command [0503200100029F8F]
2023-06-04 15:10:30.713: Received Data [0x020304040D000059C0] from Server [10.200.7.182:5300] by the command [0203200100029E38]
2023-06-04 15:10:30.813: Read data from HostIP [10.200.7.182:5300] by the command [06 03 20 01 00 02 9F BC].
2023-06-04 15:10:30.814: Read data from HostIP [10.200.7.182:5300] by the command [03 03 20 01 00 02 9F E9].
2023-06-04 15:10:30.999: Received Data [0x030304040D00004900] from Server [10.200.7.182:5300] by the command [0603200100029FBC]
2023-06-04 15:10:31.000: Received Data [0x030304040D00004900] from Server [10.200.7.182:5300] by the command [0303200100029FE9]
2023-06-04 15:10:31.100: ParallelExecution time for ParallelExecutionforElectricityMeter: 20963
2023-06-04 15:10:31.102: Read data from HostIP [10.200.7.182:5300] by the command [04 03 20 01 00 02 9E 5E].
2023-06-04 15:10:40.148: Read data from HostIP [10.200.7.182:5300] by the command [01 03 20 01 00 02 9E 0B].
2023-06-04 15:10:50.153: Read data from HostIP [10.200.7.182:5300] by the command [01 03 20 01 00 02 9E 0B].
2023-06-04 15:10:50.334: Received Data [0x010304040D00006AC0] from Server [10.200.7.182:5300] by the command [0403200100029E5E]
2023-06-04 15:10:50.335: Received Data [0x010304040D00006AC0] from Server [10.200.7.182:5300] by the command [0103200100029E0B]
2023-06-04 15:10:50.339: Received Data [0x010304040D00006AC0] from Server [10.200.7.182:5300] by the command [0103200100029E0B]
2023-06-04 15:10:50.437: Read data from HostIP [10.200.7.182:5300] by the command [05 03 20 01 00 02 9F 8F].
2023-06-04 15:10:50.439: Read data from HostIP [10.200.7.182:5300] by the command [02 03 20 01 00 02 9E 38].
2023-06-04 15:10:50.441: Read data from HostIP [10.200.7.182:5300] by the command [02 03 20 01 00 02 9E 38].
2023-06-04 15:10:50.606: Received Data [0x050304040D00002F00] from Server [10.200.7.182:5300] by the command [0503200100029F8F]
2023-06-04 15:10:50.611: Received Data [0x050304040D00002F00] from Server [10.200.7.182:5300] by the command [0203200100029E38]
2023-06-04 15:10:50.709: Read data from HostIP [10.200.7.182:5300] by the command [06 03 20 01 00 02 9F BC].
2023-06-04 15:10:50.712: Read data from HostIP [10.200.7.182:5300] by the command [03 03 20 01 00 02 9F E9].
2023-06-04 15:11:00.153: Read data from HostIP [10.200.7.182:5300] by the command [01 03 20 01 00 02 9E 0B].
2023-06-04 15:11:00.329: Received Data [0x010304040D00006AC0] from Server [10.200.7.182:5300] by the command [0603200100029FBC]
2023-06-04 15:11:00.331: Received Data [0x010304040D00006AC0] from Server [10.200.7.182:5300] by the command [0303200100029FE9]
2023-06-04 15:11:00.331: Received Data [0x010304040D00006AC0] from Server [10.200.7.182:5300] by the command [0203200100029E38]
2023-06-04 15:11:00.332: Received Data [0x010304040D00006AC0] from Server [10.200.7.182:5300] by the command [0103200100029E0B]
2023-06-04 15:11:00.430: ParallelExecution time for ParallelExecutionforElectricityMeter: 30292
2023-06-04 15:11:00.432: Read data from HostIP [10.200.7.182:5300] by the command [03 03 20 01 00 02 9F E9].
2023-06-04 15:11:00.432: Read data from HostIP [10.200.7.182:5300] by the command [04 03 20 01 00 02 9E 5E].
2023-06-04 15:11:00.434: Read data from HostIP [10.200.7.182:5300] by the command [02 03 20 01 00 02 9E 38].
2023-06-04 15:11:00.670: Received Data [0x030304040D00004900] from Server [10.200.7.182:5300] by the command [0403200100029E5E]
2023-06-04 15:11:00.671: Received Data [0x030304040D00004900] from Server [10.200.7.182:5300] by the command [0303200100029FE9]
2023-06-04 15:11:00.771: Read data from HostIP [10.200.7.182:5300] by the command [04 03 20 01 00 02 9E 5E].
2023-06-04 15:11:00.771: Read data from HostIP [10.200.7.182:5300] by the command [05 03 20 01 00 02 9F 8F].
2023-06-04 15:11:01.609: Received Data [0x020304040D000059C0] from Server [10.200.7.182:5300] by the command [0403200100029E5E]
2023-06-04 15:11:01.610: Received Data [0x020304040D000059C0] from Server [10.200.7.182:5300] by the command [0503200100029F8F]
