2023-06-04 19:37:32.954: Error Message: Unable to read data from the transport connection: A connection attempt failed because the connected party did not properly respond after a period of time, or established connection failed because connected host has failed to respond.

Inner Exception:A connection attempt failed because the connected party did not properly respond after a period of time, or established connection failed because connected host has failed to respond
2023-06-04 19:37:32.969: Error Message: Unable to read data from the transport connection: A connection attempt failed because the connected party did not properly respond after a period of time, or established connection failed because connected host has failed to respond.

Inner Exception:A connection attempt failed because the connected party did not properly respond after a period of time, or established connection failed because connected host has failed to respond
2023-06-04 19:37:33.271: Read data from HostIP [10.200.7.182:5300] by the command [01 03 20 01 00 02 9E 0B].
2023-06-04 19:37:33.384: Error Message: Unable to read data from the transport connection: A connection attempt failed because the connected party did not properly respond after a period of time, or established connection failed because connected host has failed to respond.

Inner Exception:A connection attempt failed because the connected party did not properly respond after a period of time, or established connection failed because connected host has failed to respond
2023-06-04 19:37:33.457: Error Message: Unable to read data from the transport connection: A connection attempt failed because the connected party did not properly respond after a period of time, or established connection failed because connected host has failed to respond.

Inner Exception:A connection attempt failed because the connected party did not properly respond after a period of time, or established connection failed because connected host has failed to respond
2023-06-04 19:37:33.572: Error Message: Unable to read data from the transport connection: A connection attempt failed because the connected party did not properly respond after a period of time, or established connection failed because connected host has failed to respond.

Inner Exception:A connection attempt failed because the connected party did not properly respond after a period of time, or established connection failed because connected host has failed to respond
2023-06-04 19:37:33.774: Error Message: Unable to read data from the transport connection: A connection attempt failed because the connected party did not properly respond after a period of time, or established connection failed because connected host has failed to respond.

Inner Exception:A connection attempt failed because the connected party did not properly respond after a period of time, or established connection failed because connected host has failed to respond
2023-06-04 19:37:33.826: Error Message: Unable to read data from the transport connection: A connection attempt failed because the connected party did not properly respond after a period of time, or established connection failed because connected host has failed to respond.

Inner Exception:A connection attempt failed because the connected party did not properly respond after a period of time, or established connection failed because connected host has failed to respond
2023-06-04 19:37:33.943: Error Message: Unable to read data from the transport connection: A connection attempt failed because the connected party did not properly respond after a period of time, or established connection failed because connected host has failed to respond.

Inner Exception:A connection attempt failed because the connected party did not properly respond after a period of time, or established connection failed because connected host has failed to respond
2023-06-04 19:37:34.589: Error Message: Unable to read data from the transport connection: A connection attempt failed because the connected party did not properly respond after a period of time, or established connection failed because connected host has failed to respond.

Inner Exception:A connection attempt failed because the connected party did not properly respond after a period of time, or established connection failed because connected host has failed to respond
2023-06-04 19:37:34.905: Error Message: Unable to read data from the transport connection: A connection attempt failed because the connected party did not properly respond after a period of time, or established connection failed because connected host has failed to respond.

Inner Exception:A connection attempt failed because the connected party did not properly respond after a period of time, or established connection failed because connected host has failed to respond
2023-06-04 19:37:35.159: Error Message: Unable to read data from the transport connection: A connection attempt failed because the connected party did not properly respond after a period of time, or established connection failed because connected host has failed to respond.

Inner Exception:A connection attempt failed because the connected party did not properly respond after a period of time, or established connection failed because connected host has failed to respond
2023-06-04 19:37:35.361: Read data from HostIP [10.200.7.182:5300] by the command [06 03 20 01 00 02 9F BC].
2023-06-04 19:37:35.442: Error Message: Unable to read data from the transport connection: A connection attempt failed because the connected party did not properly respond after a period of time, or established connection failed because connected host has failed to respond.

Inner Exception:A connection attempt failed because the connected party did not properly respond after a period of time, or established connection failed because connected host has failed to respond
2023-06-04 19:37:35.638: Read data from HostIP [10.200.7.182:5300] by the command [03 03 20 01 00 02 9F E9].
2023-06-04 19:37:35.694: Error Message: Unable to read data from the transport connection: A connection attempt failed because the connected party did not properly respond after a period of time, or established connection failed because connected host has failed to respond.

Inner Exception:A connection attempt failed because the connected party did not properly respond after a period of time, or established connection failed because connected host has failed to respond
2023-06-04 19:37:35.851: Error Message: Unable to read data from the transport connection: A connection attempt failed because the connected party did not properly respond after a period of time, or established connection failed because connected host has failed to respond.

Inner Exception:A connection attempt failed because the connected party did not properly respond after a period of time, or established connection failed because connected host has failed to respond
2023-06-04 19:37:35.851: Read data from HostIP [10.200.7.182:5300] by the command [02 03 20 01 00 02 9E 38].
2023-06-04 19:37:35.956: Error Message: Unable to read data from the transport connection: A connection attempt failed because the connected party did not properly respond after a period of time, or established connection failed because connected host has failed to respond.

Inner Exception:A connection attempt failed because the connected party did not properly respond after a period of time, or established connection failed because connected host has failed to respond
2023-06-04 19:37:36.007: Read data from HostIP [10.200.7.182:5300] by the command [02 03 20 01 00 02 9E 38].
2023-06-04 19:37:36.059: Read data from HostIP [10.200.7.182:5300] by the command [02 03 20 01 00 02 9E 38].
2023-06-04 19:37:43.158: Read data from HostIP [10.200.7.182:5300] by the command [01 03 20 01 00 02 9E 0B].
2023-06-04 19:37:53.163: Read data from HostIP [10.200.7.182:5300] by the command [01 03 20 01 00 02 9E 0B].
2023-06-04 19:37:54.433: Error Message: A connection attempt failed because the connected party did not properly respond after a period of time, or established connection failed because connected host has failed to respond 10.200.7.182:5300

2023-06-04 19:37:54.647: Error Message: A connection attempt failed because the connected party did not properly respond after a period of time, or established connection failed because connected host has failed to respond 10.200.7.182:5300

2023-06-04 19:37:54.748: Read data from HostIP [10.200.7.182:5300] by the command [02 03 20 01 00 02 9E 38].
2023-06-04 19:37:56.599: Error Message: A connection attempt failed because the connected party did not properly respond after a period of time, or established connection failed because connected host has failed to respond 10.200.7.182:5300

2023-06-04 19:37:56.949: Error Message: A connection attempt failed because the connected party did not properly respond after a period of time, or established connection failed because connected host has failed to respond 10.200.7.182:5300

2023-06-04 19:37:56.950: Error Message: A connection attempt failed because the connected party did not properly respond after a period of time, or established connection failed because connected host has failed to respond 10.200.7.182:5300

2023-06-04 19:37:57.073: ParallelExecution time for ParallelExecutionforElectricityMeter: 13936075
2023-06-04 19:37:57.474: Error Message: A connection attempt failed because the connected party did not properly respond after a period of time, or established connection failed because connected host has failed to respond 10.200.7.182:5300

2023-06-04 19:37:57.556: Error Message: A connection attempt failed because the connected party did not properly respond after a period of time, or established connection failed because connected host has failed to respond 10.200.7.182:5300

2023-06-04 19:37:57.681: Error Message: A connection attempt failed because the connected party did not properly respond after a period of time, or established connection failed because connected host has failed to respond 10.200.7.182:5300

2023-06-04 19:37:57.745: Error Message: A connection attempt failed because the connected party did not properly respond after a period of time, or established connection failed because connected host has failed to respond 10.200.7.182:5300

2023-06-04 19:37:57.835: Read data from HostIP [10.200.7.182:5300] by the command [04 03 20 01 00 02 9E 5E].
2023-06-04 19:37:58.149: Error Message: A connection attempt failed because the connected party did not properly respond after a period of time, or established connection failed because connected host has failed to respond 10.200.7.182:5300

2023-06-04 19:37:58.263: Error Message: A connection attempt failed because the connected party did not properly respond after a period of time, or established connection failed because connected host has failed to respond 10.200.7.182:5300

2023-06-04 19:37:58.263: Read data from HostIP [10.200.7.182:5300] by the command [03 03 20 01 00 02 9F E9].
2023-06-04 19:37:58.294: Error Message: A connection attempt failed because the connected party did not properly respond after a period of time, or established connection failed because connected host has failed to respond 10.200.7.182:5300

2023-06-04 19:37:58.364: Read data from HostIP [10.200.7.182:5300] by the command [03 03 20 01 00 02 9F E9].
2023-06-04 19:37:58.395: Read data from HostIP [10.200.7.182:5300] by the command [03 03 20 01 00 02 9F E9].
2023-06-04 19:38:03.172: Read data from HostIP [10.200.7.182:5300] by the command [01 03 20 01 00 02 9E 0B].
2023-06-04 19:38:04.267: Error Message: A connection attempt failed because the connected party did not properly respond after a period of time, or established connection failed because connected host has failed to respond 10.200.7.182:5300

2023-06-04 19:38:04.437: Error Message: A connection attempt failed because the connected party did not properly respond after a period of time, or established connection failed because connected host has failed to respond 10.200.7.182:5300

2023-06-04 19:38:04.537: Read data from HostIP [10.200.7.182:5300] by the command [02 03 20 01 00 02 9E 38].
2023-06-04 19:38:14.285: Error Message: A connection attempt failed because the connected party did not properly respond after a period of time, or established connection failed because connected host has failed to respond 10.200.7.182:5300

2023-06-04 19:38:14.479: Error Message: A connection attempt failed because the connected party did not properly respond after a period of time, or established connection failed because connected host has failed to respond 10.200.7.182:5300

2023-06-04 19:38:14.580: Read data from HostIP [10.200.7.182:5300] by the command [02 03 20 01 00 02 9E 38].
2023-06-04 19:38:14.678: Read data from HostIP [10.200.7.182:5300] by the command [01 03 20 01 00 02 9E 0B].
2023-06-04 19:38:15.895: Error Message: A connection attempt failed because the connected party did not properly respond after a period of time, or established connection failed because connected host has failed to respond 10.200.7.182:5300

2023-06-04 19:38:16.089: Error Message: A connection attempt failed because the connected party did not properly respond after a period of time, or established connection failed because connected host has failed to respond 10.200.7.182:5300

2023-06-04 19:38:16.191: Read data from HostIP [10.200.7.182:5300] by the command [03 03 20 01 00 02 9F E9].
2023-06-04 19:38:18.980: Error Message: A connection attempt failed because the connected party did not properly respond after a period of time, or established connection failed because connected host has failed to respond 10.200.7.182:5300

2023-06-04 19:38:19.163: Error Message: A connection attempt failed because the connected party did not properly respond after a period of time, or established connection failed because connected host has failed to respond 10.200.7.182:5300

2023-06-04 19:38:19.265: Read data from HostIP [10.200.7.182:5300] by the command [05 03 20 01 00 02 9F 8F].
2023-06-04 19:38:19.400: Error Message: A connection attempt failed because the connected party did not properly respond after a period of time, or established connection failed because connected host has failed to respond 10.200.7.182:5300

2023-06-04 19:38:19.635: Error Message: A connection attempt failed because the connected party did not properly respond after a period of time, or established connection failed because connected host has failed to respond 10.200.7.182:5300

2023-06-04 19:38:19.828: Error Message: A connection attempt failed because the connected party did not properly respond after a period of time, or established connection failed because connected host has failed to respond 10.200.7.182:5300

2023-06-04 19:38:20.011: Error Message: A connection attempt failed because the connected party did not properly respond after a period of time, or established connection failed because connected host has failed to respond 10.200.7.182:5300

2023-06-04 19:38:20.116: Error Message: A connection attempt failed because the connected party did not properly respond after a period of time, or established connection failed because connected host has failed to respond 10.200.7.182:5300

2023-06-04 19:38:20.116: Read data from HostIP [10.200.7.182:5300] by the command [04 03 20 01 00 02 9E 5E].
2023-06-04 19:38:20.179: Error Message: A connection attempt failed because the connected party did not properly respond after a period of time, or established connection failed because connected host has failed to respond 10.200.7.182:5300

2023-06-04 19:38:20.219: Read data from HostIP [10.200.7.182:5300] by the command [04 03 20 01 00 02 9E 5E].
2023-06-04 19:38:20.280: Read data from HostIP [10.200.7.182:5300] by the command [04 03 20 01 00 02 9E 5E].
2023-06-04 19:38:24.277: Error Message: A connection attempt failed because the connected party did not properly respond after a period of time, or established connection failed because connected host has failed to respond 10.200.7.182:5300

2023-06-04 19:38:24.428: Error Message: A connection attempt failed because the connected party did not properly respond after a period of time, or established connection failed because connected host has failed to respond 10.200.7.182:5300

2023-06-04 19:38:24.529: Read data from HostIP [10.200.7.182:5300] by the command [02 03 20 01 00 02 9E 38].
2023-06-04 19:38:25.643: Error Message: A connection attempt failed because the connected party did not properly respond after a period of time, or established connection failed because connected host has failed to respond 10.200.7.182:5300

2023-06-04 19:38:25.784: Error Message: A connection attempt failed because the connected party did not properly respond after a period of time, or established connection failed because connected host has failed to respond 10.200.7.182:5300

2023-06-04 19:38:25.886: Read data from HostIP [10.200.7.182:5300] by the command [03 03 20 01 00 02 9F E9].
2023-06-04 19:38:26.183: Read data from HostIP [10.200.7.182:5300] by the command [01 03 20 01 00 02 9E 0B].
2023-06-04 19:38:35.720: Error Message: A connection attempt failed because the connected party did not properly respond after a period of time, or established connection failed because connected host has failed to respond 10.200.7.182:5300

2023-06-04 19:38:35.956: Error Message: A connection attempt failed because the connected party did not properly respond after a period of time, or established connection failed because connected host has failed to respond 10.200.7.182:5300

2023-06-04 19:38:36.042: Error Message: A connection attempt failed because the connected party did not properly respond after a period of time, or established connection failed because connected host has failed to respond 10.200.7.182:5300

2023-06-04 19:38:36.159: Read data from HostIP [10.200.7.182:5300] by the command [03 03 20 01 00 02 9F E9].
2023-06-04 19:38:36.200: Read data from HostIP [10.200.7.182:5300] by the command [01 03 20 01 00 02 9E 0B].
2023-06-04 19:38:36.223: Error Message: A connection attempt failed because the connected party did not properly respond after a period of time, or established connection failed because connected host has failed to respond 10.200.7.182:5300

2023-06-04 19:38:36.325: Read data from HostIP [10.200.7.182:5300] by the command [02 03 20 01 00 02 9E 38].
2023-06-04 19:38:37.325: Error Message: A connection attempt failed because the connected party did not properly respond after a period of time, or established connection failed because connected host has failed to respond 10.200.7.182:5300

2023-06-04 19:38:37.525: Error Message: A connection attempt failed because the connected party did not properly respond after a period of time, or established connection failed because connected host has failed to respond 10.200.7.182:5300

2023-06-04 19:38:37.626: Read data from HostIP [10.200.7.182:5300] by the command [04 03 20 01 00 02 9E 5E].
2023-06-04 19:38:40.403: Error Message: A connection attempt failed because the connected party did not properly respond after a period of time, or established connection failed because connected host has failed to respond 10.200.7.182:5300

2023-06-04 19:38:40.593: Error Message: A connection attempt failed because the connected party did not properly respond after a period of time, or established connection failed because connected host has failed to respond 10.200.7.182:5300

2023-06-04 19:38:40.695: Read data from HostIP [10.200.7.182:5300] by the command [06 03 20 01 00 02 9F BC].
2023-06-04 19:38:41.252: Error Message: A connection attempt failed because the connected party did not properly respond after a period of time, or established connection failed because connected host has failed to respond 10.200.7.182:5300

2023-06-04 19:38:41.548: Error Message: A connection attempt failed because the connected party did not properly respond after a period of time, or established connection failed because connected host has failed to respond 10.200.7.182:5300

2023-06-04 19:38:41.623: Error Message: A connection attempt failed because the connected party did not properly respond after a period of time, or established connection failed because connected host has failed to respond 10.200.7.182:5300

2023-06-04 19:38:41.864: Error Message: A connection attempt failed because the connected party did not properly respond after a period of time, or established connection failed because connected host has failed to respond 10.200.7.182:5300

2023-06-04 19:38:41.978: Error Message: A connection attempt failed because the connected party did not properly respond after a period of time, or established connection failed because connected host has failed to respond 10.200.7.182:5300

2023-06-04 19:38:41.978: Read data from HostIP [10.200.7.182:5300] by the command [05 03 20 01 00 02 9F 8F].
2023-06-04 19:38:42.022: Error Message: A connection attempt failed because the connected party did not properly respond after a period of time, or established connection failed because connected host has failed to respond 10.200.7.182:5300

2023-06-04 19:38:42.080: Read data from HostIP [10.200.7.182:5300] by the command [05 03 20 01 00 02 9F 8F].
2023-06-04 19:38:42.123: Read data from HostIP [10.200.7.182:5300] by the command [05 03 20 01 00 02 9F 8F].
2023-06-04 19:38:45.665: Error Message: A connection attempt failed because the connected party did not properly respond after a period of time, or established connection failed because connected host has failed to respond 10.200.7.182:5300

2023-06-04 19:38:45.846: Error Message: A connection attempt failed because the connected party did not properly respond after a period of time, or established connection failed because connected host has failed to respond 10.200.7.182:5300

2023-06-04 19:38:45.948: Read data from HostIP [10.200.7.182:5300] by the command [03 03 20 01 00 02 9F E9].
2023-06-04 19:38:47.019: Error Message: A connection attempt failed because the connected party did not properly respond after a period of time, or established connection failed because connected host has failed to respond 10.200.7.182:5300

2023-06-04 19:38:47.212: Error Message: A connection attempt failed because the connected party did not properly respond after a period of time, or established connection failed because connected host has failed to respond 10.200.7.182:5300

2023-06-04 19:38:47.318: Read data from HostIP [10.200.7.182:5300] by the command [04 03 20 01 00 02 9E 5E].
2023-06-04 19:38:47.341: Error Message: A connection attempt failed because the connected party did not properly respond after a period of time, or established connection failed because connected host has failed to respond 10.200.7.182:5300

2023-06-04 19:38:47.527: Error Message: A connection attempt failed because the connected party did not properly respond after a period of time, or established connection failed because connected host has failed to respond 10.200.7.182:5300

2023-06-04 19:38:47.629: Read data from HostIP [10.200.7.182:5300] by the command [02 03 20 01 00 02 9E 38].
2023-06-04 19:38:47.705: Read data from HostIP [10.200.7.182:5300] by the command [01 03 20 01 00 02 9E 0B].
2023-06-04 19:38:57.306: Error Message: A connection attempt failed because the connected party did not properly respond after a period of time, or established connection failed because connected host has failed to respond 10.200.7.182:5300

2023-06-04 19:38:57.574: Error Message: A connection attempt failed because the connected party did not properly respond after a period of time, or established connection failed because connected host has failed to respond 10.200.7.182:5300

2023-06-04 19:38:57.664: Error Message: A connection attempt failed because the connected party did not properly respond after a period of time, or established connection failed because connected host has failed to respond 10.200.7.182:5300

2023-06-04 19:38:57.982: Error Message: A connection attempt failed because the connected party did not properly respond after a period of time, or established connection failed because connected host has failed to respond 10.200.7.182:5300

2023-06-04 19:38:58.006: Error Message: A connection attempt failed because the connected party did not properly respond after a period of time, or established connection failed because connected host has failed to respond 10.200.7.182:5300

2023-06-04 19:38:58.102: Read data from HostIP [10.200.7.182:5300] by the command [04 03 20 01 00 02 9E 5E].
2023-06-04 19:38:58.127: Error Message: A connection attempt failed because the connected party did not properly respond after a period of time, or established connection failed because connected host has failed to respond 10.200.7.182:5300

