2023-06-04 14:00:08.568: Read data from HostIP [10.200.7.182:5300] by the command [01 03 20 01 00 02 9E 0B].
2023-06-04 14:00:08.745: Received Data [0x010304040A0000DB01] from Server [10.200.7.182:5300] by the command [0303200100029FE9]
2023-06-04 14:00:08.746: Received Data [0x010304040A0000DB01] from Server [10.200.7.182:5300] by the command [0103200100029E0B]
2023-06-04 14:00:08.846: Read data from HostIP [10.200.7.182:5300] by the command [04 03 20 01 00 02 9E 5E].
2023-06-04 14:00:08.848: Read data from HostIP [10.200.7.182:5300] by the command [02 03 20 01 00 02 9E 38].
2023-06-04 14:00:09.034: Received Data [0x048E802010D00800B9C1] from Server [10.200.7.182:5300] by the command [0403200100029E5E]
2023-06-04 14:00:09.055: Received Data [0x048E802010D00800B9C1] from Server [10.200.7.182:5300] by the command [0203200100029E38]
2023-06-04 14:00:09.157: Read data from HostIP [10.200.7.182:5300] by the command [03 03 20 01 00 02 9F E9].
2023-06-04 14:00:09.157: Read data from HostIP [10.200.7.182:5300] by the command [05 03 20 01 00 02 9F 8F].
2023-06-04 14:00:09.811: Received Data [0x] from Server [10.200.7.182:5300] by the command [0303200100029FE9]
2023-06-04 14:00:09.833: Received Data [0x050304040B0000CF01] from Server [10.200.7.182:5300] by the command [0503200100029F8F]
2023-06-04 14:00:09.913: Read data from HostIP [10.200.7.182:5300] by the command [04 03 20 01 00 02 9E 5E].
2023-06-04 14:00:09.934: Read data from HostIP [10.200.7.182:5300] by the command [06 03 20 01 00 02 9F BC].
2023-06-04 14:00:10.084: Received Data [0x040304040A00008E01] from Server [10.200.7.182:5300] by the command [0403200100029E5E]
2023-06-04 14:00:10.185: Read data from HostIP [10.200.7.182:5300] by the command [05 03 20 01 00 02 9F 8F].
2023-06-04 14:00:10.360: Received Data [0x050304040B0000CF01] from Server [10.200.7.182:5300] by the command [0503200100029F8F]
2023-06-04 14:00:10.462: Read data from HostIP [10.200.7.182:5300] by the command [06 03 20 01 00 02 9F BC].
2023-06-04 14:00:10.670: Received Data [0x060304040B0000FC01] from Server [10.200.7.182:5300] by the command [0603200100029FBC]
2023-06-04 14:00:10.771: ParallelExecution time for ParallelExecutionforElectricityMeter: 2204
2023-06-04 14:00:11.103: Received Data [0x060304040B0000FC01] from Server [10.200.7.182:5300] by the command [0603200100029FBC]
2023-06-04 14:00:11.205: ParallelExecution time for ParallelExecutionforElectricityMeter: 12657
2023-06-04 14:00:18.567: Read data from HostIP [10.200.7.182:5300] by the command [01 03 20 01 00 02 9E 0B].
2023-06-04 14:00:28.569: Read data from HostIP [10.200.7.182:5300] by the command [01 03 20 01 00 02 9E 0B].
2023-06-04 14:00:28.740: Received Data [0x010304040B00008AC1] from Server [10.200.7.182:5300] by the command [0103200100029E0B]
2023-06-04 14:00:28.742: Received Data [0x010304040B00008AC1] from Server [10.200.7.182:5300] by the command [0103200100029E0B]
2023-06-04 14:00:28.841: Read data from HostIP [10.200.7.182:5300] by the command [02 03 20 01 00 02 9E 38].
2023-06-04 14:00:28.843: Read data from HostIP [10.200.7.182:5300] by the command [02 03 20 01 00 02 9E 38].
2023-06-04 14:00:29.021: Received Data [0x04B9C1] from Server [10.200.7.182:5300] by the command [0203200100029E38]
2023-06-04 14:00:29.021: Received Data [0x04B9C1] from Server [10.200.7.182:5300] by the command [0203200100029E38]
2023-06-04 14:00:29.125: Read data from HostIP [10.200.7.182:5300] by the command [03 03 20 01 00 02 9F E9].
2023-06-04 14:00:29.125: Read data from HostIP [10.200.7.182:5300] by the command [03 03 20 01 00 02 9F E9].
2023-06-04 14:00:29.302: Received Data [0x04F0C0] from Server [10.200.7.182:5300] by the command [0303200100029FE9]
2023-06-04 14:00:29.302: Received Data [0x04F0C0] from Server [10.200.7.182:5300] by the command [0303200100029FE9]
2023-06-04 14:00:29.403: Read data from HostIP [10.200.7.182:5300] by the command [04 03 20 01 00 02 9E 5E].
2023-06-04 14:00:29.403: Read data from HostIP [10.200.7.182:5300] by the command [04 03 20 01 00 02 9E 5E].
2023-06-04 14:00:30.053: Received Data [0x] from Server [10.200.7.182:5300] by the command [0403200100029E5E]
2023-06-04 14:00:30.078: Received Data [0x040304040A00008E01] from Server [10.200.7.182:5300] by the command [0403200100029E5E]
2023-06-04 14:00:30.155: Read data from HostIP [10.200.7.182:5300] by the command [05 03 20 01 00 02 9F 8F].
2023-06-04 14:00:30.180: Read data from HostIP [10.200.7.182:5300] by the command [05 03 20 01 00 02 9F 8F].
2023-06-04 14:00:30.333: Received Data [0x050304040B0000CF01] from Server [10.200.7.182:5300] by the command [0503200100029F8F]
2023-06-04 14:00:30.434: Read data from HostIP [10.200.7.182:5300] by the command [06 03 20 01 00 02 9F BC].
2023-06-04 14:00:31.356: Received Data [0x050304040A00009EC1] from Server [10.200.7.182:5300] by the command [0603200100029FBC]
2023-06-04 14:00:31.358: Received Data [0x050304040A00009EC1] from Server [10.200.7.182:5300] by the command [0503200100029F8F]
2023-06-04 14:00:31.457: ParallelExecution time for ParallelExecutionforElectricityMeter: 12889
2023-06-04 14:00:31.460: Read data from HostIP [10.200.7.182:5300] by the command [06 03 20 01 00 02 9F BC].
2023-06-04 14:00:38.581: Read data from HostIP [10.200.7.182:5300] by the command [01 03 20 01 00 02 9E 0B].
2023-06-04 14:00:38.758: Received Data [0x010304040A0000DB01] from Server [10.200.7.182:5300] by the command [0603200100029FBC]
2023-06-04 14:00:38.760: Received Data [0x010304040A0000DB01] from Server [10.200.7.182:5300] by the command [0103200100029E0B]
2023-06-04 14:00:38.860: ParallelExecution time for ParallelExecutionforElectricityMeter: 10291
2023-06-04 14:00:38.861: Read data from HostIP [10.200.7.182:5300] by the command [02 03 20 01 00 02 9E 38].
2023-06-04 14:00:39.039: Received Data [0x020304040A0000E801] from Server [10.200.7.182:5300] by the command [0203200100029E38]
2023-06-04 14:00:39.140: Read data from HostIP [10.200.7.182:5300] by the command [03 03 20 01 00 02 9F E9].
2023-06-04 14:00:39.317: Received Data [0x030304040A0000F8C1] from Server [10.200.7.182:5300] by the command [0303200100029FE9]
2023-06-04 14:00:39.419: Read data from HostIP [10.200.7.182:5300] by the command [04 03 20 01 00 02 9E 5E].
2023-06-04 14:00:39.593: Received Data [0x040304040A00008E01] from Server [10.200.7.182:5300] by the command [0403200100029E5E]
2023-06-04 14:00:39.695: Read data from HostIP [10.200.7.182:5300] by the command [05 03 20 01 00 02 9F 8F].
2023-06-04 14:00:39.968: Received Data [0x050304040B0000CF01] from Server [10.200.7.182:5300] by the command [0503200100029F8F]
2023-06-04 14:00:40.069: Read data from HostIP [10.200.7.182:5300] by the command [06 03 20 01 00 02 9F BC].
2023-06-04 14:00:40.245: Received Data [0x060304040B0000FC01] from Server [10.200.7.182:5300] by the command [0603200100029FBC]
2023-06-04 14:00:40.346: ParallelExecution time for ParallelExecutionforElectricityMeter: 1764
2023-06-04 14:00:48.583: Read data from HostIP [10.200.7.182:5300] by the command [01 03 20 01 00 02 9E 0B].
2023-06-04 14:00:58.584: Read data from HostIP [10.200.7.182:5300] by the command [01 03 20 01 00 02 9E 0B].
2023-06-04 14:01:08.594: Read data from HostIP [10.200.7.182:5300] by the command [01 03 20 01 00 02 9E 0B].
2023-06-04 14:01:18.609: Read data from HostIP [10.200.7.182:5300] by the command [01 03 20 01 00 02 9E 0B].
2023-06-04 14:01:18.934: Received Data [0x010304040A0000DB01] from Server [10.200.7.182:5300] by the command [0103200100029E0B]
2023-06-04 14:01:18.934: Received Data [0x010304040A0000DB01] from Server [10.200.7.182:5300] by the command [0103200100029E0B]
2023-06-04 14:01:18.935: Received Data [0x010304040A0000DB01] from Server [10.200.7.182:5300] by the command [0103200100029E0B]
2023-06-04 14:01:18.936: Error Message: Unable to read data from the transport connection: A connection attempt failed because the connected party did not properly respond after a period of time, or established connection failed because connected host has failed to respond.

Inner Exception:A connection attempt failed because the connected party did not properly respond after a period of time, or established connection failed because connected host has failed to respond
2023-06-04 14:01:19.045: Read data from HostIP [10.200.7.182:5300] by the command [02 03 20 01 00 02 9E 38].
2023-06-04 14:01:19.046: Read data from HostIP [10.200.7.182:5300] by the command [02 03 20 01 00 02 9E 38].
2023-06-04 14:01:19.046: Read data from HostIP [10.200.7.182:5300] by the command [02 03 20 01 00 02 9E 38].
2023-06-04 14:01:19.046: Error Message: Unable to read data from the transport connection: A connection attempt failed because the connected party did not properly respond after a period of time, or established connection failed because connected host has failed to respond.

Inner Exception:A connection attempt failed because the connected party did not properly respond after a period of time, or established connection failed because connected host has failed to respond
2023-06-04 14:01:19.286: Received Data [0x00B9C1] from Server [10.200.7.182:5300] by the command [0203200100029E38]
2023-06-04 14:01:19.319: Received Data [0x00B9C1] from Server [10.200.7.182:5300] by the command [0203200100029E38]
2023-06-04 14:01:19.353: Error Message: Unable to read data from the transport connection: A connection attempt failed because the connected party did not properly respond after a period of time, or established connection failed because connected host has failed to respond.

Inner Exception:A connection attempt failed because the connected party did not properly respond after a period of time, or established connection failed because connected host has failed to respond
2023-06-04 14:01:19.419: Read data from HostIP [10.200.7.182:5300] by the command [03 03 20 01 00 02 9F E9].
2023-06-04 14:01:19.419: Read data from HostIP [10.200.7.182:5300] by the command [03 03 20 01 00 02 9F E9].
2023-06-04 14:01:19.454: Read data from HostIP [10.200.7.182:5300] by the command [02 03 20 01 00 02 9E 38].
2023-06-04 14:01:19.598: Received Data [0x042F0E] from Server [10.200.7.182:5300] by the command [0303200100029FE9]
2023-06-04 14:01:19.598: Received Data [0x042F0E] from Server [10.200.7.182:5300] by the command [0303200100029FE9]
2023-06-04 14:01:19.699: Read data from HostIP [10.200.7.182:5300] by the command [04 03 20 01 00 02 9E 5E].
2023-06-04 14:01:19.699: Read data from HostIP [10.200.7.182:5300] by the command [04 03 20 01 00 02 9E 5E].
2023-06-04 14:01:20.353: Received Data [0x] from Server [10.200.7.182:5300] by the command [0403200100029E5E]
2023-06-04 14:01:20.454: Read data from HostIP [10.200.7.182:5300] by the command [05 03 20 01 00 02 9F 8F].
2023-06-04 14:01:20.455: Received Data [0x020304040A0000E801] from Server [10.200.7.182:5300] by the command [0203200100029E38]
2023-06-04 14:01:20.455: Received Data [0x020304040A0000E801] from Server [10.200.7.182:5300] by the command [0403200100029E5E]
2023-06-04 14:01:20.557: Read data from HostIP [10.200.7.182:5300] by the command [03 03 20 01 00 02 9F E9].
2023-06-04 14:01:20.557: Read data from HostIP [10.200.7.182:5300] by the command [05 03 20 01 00 02 9F 8F].
2023-06-04 14:01:20.728: Received Data [0x050304040A00009EC1] from Server [10.200.7.182:5300] by the command [0503200100029F8F]
2023-06-04 14:01:20.729: Received Data [0x050304040A00009EC1] from Server [10.200.7.182:5300] by the command [0203200100029E38]
2023-06-04 14:01:20.830: Read data from HostIP [10.200.7.182:5300] by the command [06 03 20 01 00 02 9F BC].
2023-06-04 14:01:20.831: Read data from HostIP [10.200.7.182:5300] by the command [03 03 20 01 00 02 9F E9].
2023-06-04 14:01:21.634: Received Data [0x050304040A00009EC1] from Server [10.200.7.182:5300] by the command [0603200100029FBC]
2023-06-04 14:01:21.635: Received Data [0x050304040A00009EC1] from Server [10.200.7.182:5300] by the command [0503200100029F8F]
2023-06-04 14:01:21.735: ParallelExecution time for ParallelExecutionforElectricityMeter: 23150
2023-06-04 14:01:21.736: Read data from HostIP [10.200.7.182:5300] by the command [06 03 20 01 00 02 9F BC].
2023-06-04 14:01:21.740: Received Data [0x030304040A0000F8C1] from Server [10.200.7.182:5300] by the command [0303200100029FE9]
2023-06-04 14:01:21.841: Read data from HostIP [10.200.7.182:5300] by the command [04 03 20 01 00 02 9E 5E].
2023-06-04 14:01:22.005: Received Data [0x030304040A0000F8C1] from Server [10.200.7.182:5300] by the command [0603200100029FBC]
2023-06-04 14:01:22.007: Received Data [0x030304040A0000F8C1] from Server [10.200.7.182:5300] by the command [0303200100029FE9]
2023-06-04 14:01:22.008: Received Data [0x030304040A0000F8C1] from Server [10.200.7.182:5300] by the command [0403200100029E5E]
2023-06-04 14:01:22.106: ParallelExecution time for ParallelExecutionforElectricityMeter: 3497
2023-06-04 14:01:22.108: Read data from HostIP [10.200.7.182:5300] by the command [04 03 20 01 00 02 9E 5E].
2023-06-04 14:01:22.110: Read data from HostIP [10.200.7.182:5300] by the command [05 03 20 01 00 02 9F 8F].
2023-06-04 14:01:22.286: Received Data [0x040304040A00008E01] from Server [10.200.7.182:5300] by the command [0403200100029E5E]
2023-06-04 14:01:22.287: Received Data [0x040304040A00008E01] from Server [10.200.7.182:5300] by the command [0503200100029F8F]
2023-06-04 14:01:22.387: Read data from HostIP [10.200.7.182:5300] by the command [05 03 20 01 00 02 9F 8F].
2023-06-04 14:01:22.388: Read data from HostIP [10.200.7.182:5300] by the command [06 03 20 01 00 02 9F BC].
2023-06-04 14:01:22.565: Received Data [0x050304040A00009EC1] from Server [10.200.7.182:5300] by the command [0603200100029FBC]
2023-06-04 14:01:22.566: Received Data [0x050304040A00009EC1] from Server [10.200.7.182:5300] by the command [0503200100029F8F]
2023-06-04 14:01:22.666: ParallelExecution time for ParallelExecutionforElectricityMeter: 14071
2023-06-04 14:01:22.668: Read data from HostIP [10.200.7.182:5300] by the command [06 03 20 01 00 02 9F BC].
2023-06-04 14:01:28.609: Read data from HostIP [10.200.7.182:5300] by the command [01 03 20 01 00 02 9E 0B].
2023-06-04 14:01:28.819: Received Data [0x010304040B00008AC1] from Server [10.200.7.182:5300] by the command [0603200100029FBC]
2023-06-04 14:01:28.819: Received Data [0x010304040B00008AC1] from Server [10.200.7.182:5300] by the command [0103200100029E0B]
2023-06-04 14:01:28.920: ParallelExecution time for ParallelExecutionforElectricityMeter: 40336
2023-06-04 14:01:28.920: Read data from HostIP [10.200.7.182:5300] by the command [02 03 20 01 00 02 9E 38].
2023-06-04 14:01:29.094: Received Data [0x020304040B0000B9C1] from Server [10.200.7.182:5300] by the command [0203200100029E38]
2023-06-04 14:01:29.196: Read data from HostIP [10.200.7.182:5300] by the command [03 03 20 01 00 02 9F E9].
2023-06-04 14:01:29.366: Received Data [0x030304040A0000F8C1] from Server [10.200.7.182:5300] by the command [0303200100029FE9]
2023-06-04 14:01:29.467: Read data from HostIP [10.200.7.182:5300] by the command [04 03 20 01 00 02 9E 5E].
2023-06-04 14:01:29.644: Received Data [0x040304040B0000DFC1] from Server [10.200.7.182:5300] by the command [0403200100029E5E]
2023-06-04 14:01:29.746: Read data from HostIP [10.200.7.182:5300] by the command [05 03 20 01 00 02 9F 8F].
2023-06-04 14:01:29.925: Received Data [0x050304040B0000CF01] from Server [10.200.7.182:5300] by the command [0503200100029F8F]
2023-06-04 14:01:30.027: Read data from HostIP [10.200.7.182:5300] by the command [06 03 20 01 00 02 9F BC].
2023-06-04 14:01:30.205: Received Data [0x060304040B0000FC01] from Server [10.200.7.182:5300] by the command [0603200100029FBC]
2023-06-04 14:01:30.306: ParallelExecution time for ParallelExecutionforElectricityMeter: 1696
2023-06-04 14:01:38.622: Read data from HostIP [10.200.7.182:5300] by the command [01 03 20 01 00 02 9E 0B].
2023-06-04 14:01:38.845: Received Data [0x010304040B00008AC1] from Server [10.200.7.182:5300] by the command [0103200100029E0B]
2023-06-04 14:01:38.947: Read data from HostIP [10.200.7.182:5300] by the command [02 03 20 01 00 02 9E 38].
2023-06-04 14:01:39.121: Received Data [0x020304040B0000B9C1] from Server [10.200.7.182:5300] by the command [0203200100029E38]
2023-06-04 14:01:39.223: Read data from HostIP [10.200.7.182:5300] by the command [03 03 20 01 00 02 9F E9].
2023-06-04 14:01:39.395: Received Data [0x030304040A0000F8C1] from Server [10.200.7.182:5300] by the command [0303200100029FE9]
2023-06-04 14:01:39.497: Read data from HostIP [10.200.7.182:5300] by the command [04 03 20 01 00 02 9E 5E].
2023-06-04 14:01:39.678: Received Data [0x040304040B0000DFC1] from Server [10.200.7.182:5300] by the command [0403200100029E5E]
2023-06-04 14:01:39.778: Read data from HostIP [10.200.7.182:5300] by the command [05 03 20 01 00 02 9F 8F].
2023-06-04 14:01:39.955: Received Data [0x050304040B0000CF01] from Server [10.200.7.182:5300] by the command [0503200100029F8F]
2023-06-04 14:01:40.056: Read data from HostIP [10.200.7.182:5300] by the command [06 03 20 01 00 02 9F BC].
2023-06-04 14:01:40.232: Received Data [0x060304040B0000FC01] from Server [10.200.7.182:5300] by the command [0603200100029FBC]
2023-06-04 14:01:40.333: ParallelExecution time for ParallelExecutionforElectricityMeter: 1711
2023-06-04 14:01:48.624: Read data from HostIP [10.200.7.182:5300] by the command [01 03 20 01 00 02 9E 0B].
2023-06-04 14:01:48.910: Received Data [0x010304040B00008AC1] from Server [10.200.7.182:5300] by the command [0103200100029E0B]
2023-06-04 14:01:49.012: Read data from HostIP [10.200.7.182:5300] by the command [02 03 20 01 00 02 9E 38].
2023-06-04 14:01:49.189: Received Data [0x020304040B0000B9C1] from Server [10.200.7.182:5300] by the command [0203200100029E38]
2023-06-04 14:01:49.290: Read data from HostIP [10.200.7.182:5300] by the command [03 03 20 01 00 02 9F E9].
2023-06-04 14:01:49.471: Received Data [0x030304040A0000F8C1] from Server [10.200.7.182:5300] by the command [0303200100029FE9]
2023-06-04 14:01:49.575: Read data from HostIP [10.200.7.182:5300] by the command [04 03 20 01 00 02 9E 5E].
2023-06-04 14:01:58.624: Read data from HostIP [10.200.7.182:5300] by the command [01 03 20 01 00 02 9E 0B].
2023-06-04 14:01:58.799: Received Data [0x010304040A0000DB01] from Server [10.200.7.182:5300] by the command [0403200100029E5E]
2023-06-04 14:01:58.803: Received Data [0x010304040A0000DB01] from Server [10.200.7.182:5300] by the command [0103200100029E0B]
2023-06-04 14:01:58.900: Read data from HostIP [10.200.7.182:5300] by the command [05 03 20 01 00 02 9F 8F].
2023-06-04 14:01:58.905: Read data from HostIP [10.200.7.182:5300] by the command [02 03 20 01 00 02 9E 38].
2023-06-04 14:01:59.077: Received Data [0x050304040B0000CF01] from Server [10.200.7.182:5300] by the command [0503200100029F8F]
2023-06-04 14:01:59.078: Received Data [0x050304040B0000CF01] from Server [10.200.7.182:5300] by the command [0203200100029E38]
2023-06-04 14:01:59.178: Read data from HostIP [10.200.7.182:5300] by the command [06 03 20 01 00 02 9F BC].
2023-06-04 14:01:59.179: Read data from HostIP [10.200.7.182:5300] by the command [03 03 20 01 00 02 9F E9].
2023-06-04 14:01:59.828: Received Data [0x] from Server [10.200.7.182:5300] by the command [0603200100029FBC]
2023-06-04 14:01:59.851: Received Data [0x030304040A0000F8C1] from Server [10.200.7.182:5300] by the command [0303200100029FE9]
2023-06-04 14:01:59.929: ParallelExecution time for ParallelExecutionforElectricityMeter: 11305
2023-06-04 14:01:59.953: Read data from HostIP [10.200.7.182:5300] by the command [04 03 20 01 00 02 9E 5E].
2023-06-04 14:02:00.153: Received Data [0x040304040A00008E01] from Server [10.200.7.182:5300] by the command [0403200100029E5E]
2023-06-04 14:02:00.254: Read data from HostIP [10.200.7.182:5300] by the command [05 03 20 01 00 02 9F 8F].
2023-06-04 14:02:00.431: Received Data [0x050304040B0000CF01] from Server [10.200.7.182:5300] by the command [0503200100029F8F]
2023-06-04 14:02:00.532: Read data from HostIP [10.200.7.182:5300] by the command [06 03 20 01 00 02 9F BC].
2023-06-04 14:02:08.628: Read data from HostIP [10.200.7.182:5300] by the command [01 03 20 01 00 02 9E 0B].
2023-06-04 14:02:08.800: Received Data [0x010304040A0000DB01] from Server [10.200.7.182:5300] by the command [0103200100029E0B]
2023-06-04 14:02:08.801: Received Data [0x010304040A0000DB01] from Server [10.200.7.182:5300] by the command [0603200100029FBC]
2023-06-04 14:02:08.901: Read data from HostIP [10.200.7.182:5300] by the command [02 03 20 01 00 02 9E 38].
2023-06-04 14:02:08.902: ParallelExecution time for ParallelExecutionforElectricityMeter: 10278
2023-06-04 14:02:09.086: Received Data [0x020304040B0000B9C1] from Server [10.200.7.182:5300] by the command [0203200100029E38]
2023-06-04 14:02:09.186: Read data from HostIP [10.200.7.182:5300] by the command [03 03 20 01 00 02 9F E9].
2023-06-04 14:02:09.356: Received Data [0x030304040A0000F8C1] from Server [10.200.7.182:5300] by the command [0303200100029FE9]
2023-06-04 14:02:09.458: Read data from HostIP [10.200.7.182:5300] by the command [04 03 20 01 00 02 9E 5E].
2023-06-04 14:02:09.630: Received Data [0x040304040B0000DFC1] from Server [10.200.7.182:5300] by the command [0403200100029E5E]
2023-06-04 14:02:09.732: Read data from HostIP [10.200.7.182:5300] by the command [05 03 20 01 00 02 9F 8F].
2023-06-04 14:02:09.909: Received Data [0x050304040B0000CF01] from Server [10.200.7.182:5300] by the command [0503200100029F8F]
2023-06-04 14:02:10.010: Read data from HostIP [10.200.7.182:5300] by the command [06 03 20 01 00 02 9F BC].
2023-06-04 14:02:18.628: Read data from HostIP [10.200.7.182:5300] by the command [01 03 20 01 00 02 9E 0B].
2023-06-04 14:02:18.800: Received Data [0x010304040B00008AC1] from Server [10.200.7.182:5300] by the command [0603200100029FBC]
2023-06-04 14:02:18.804: Received Data [0x010304040B00008AC1] from Server [10.200.7.182:5300] by the command [0103200100029E0B]
2023-06-04 14:02:18.901: ParallelExecution time for ParallelExecutionforElectricityMeter: 10273
2023-06-04 14:02:18.905: Read data from HostIP [10.200.7.182:5300] by the command [02 03 20 01 00 02 9E 38].
2023-06-04 14:02:19.081: Received Data [0x020304040B0000B9C1] from Server [10.200.7.182:5300] by the command [0203200100029E38]
2023-06-04 14:02:19.183: Read data from HostIP [10.200.7.182:5300] by the command [03 03 20 01 00 02 9F E9].
2023-06-04 14:02:19.359: Received Data [0x030304040A0000F8C1] from Server [10.200.7.182:5300] by the command [0303200100029FE9]
2023-06-04 14:02:19.460: Read data from HostIP [10.200.7.182:5300] by the command [04 03 20 01 00 02 9E 5E].
2023-06-04 14:02:19.637: Received Data [0x040304040B0000DFC1] from Server [10.200.7.182:5300] by the command [0403200100029E5E]
2023-06-04 14:02:19.739: Read data from HostIP [10.200.7.182:5300] by the command [05 03 20 01 00 02 9F 8F].
2023-06-04 14:02:19.911: Received Data [0x050304040B0000CF01] from Server [10.200.7.182:5300] by the command [0503200100029F8F]
2023-06-04 14:02:20.012: Read data from HostIP [10.200.7.182:5300] by the command [06 03 20 01 00 02 9F BC].
2023-06-04 14:02:20.283: Received Data [0x060304040B0000FC01] from Server [10.200.7.182:5300] by the command [0603200100029FBC]
2023-06-04 14:02:20.384: ParallelExecution time for ParallelExecutionforElectricityMeter: 1756
2023-06-04 14:02:28.630: Read data from HostIP [10.200.7.182:5300] by the command [01 03 20 01 00 02 9E 0B].
2023-06-04 14:02:28.807: Received Data [0x010304040B00008AC1] from Server [10.200.7.182:5300] by the command [0103200100029E0B]
2023-06-04 14:02:28.908: Read data from HostIP [10.200.7.182:5300] by the command [02 03 20 01 00 02 9E 38].
2023-06-04 14:02:29.086: Received Data [0x020304040B0000B9C1] from Server [10.200.7.182:5300] by the command [0203200100029E38]
2023-06-04 14:02:29.188: Read data from HostIP [10.200.7.182:5300] by the command [03 03 20 01 00 02 9F E9].
2023-06-04 14:02:29.363: Received Data [0x030304040A0000F8C1] from Server [10.200.7.182:5300] by the command [0303200100029FE9]
2023-06-04 14:02:29.465: Read data from HostIP [10.200.7.182:5300] by the command [04 03 20 01 00 02 9E 5E].
2023-06-04 14:02:29.634: Received Data [0x040304040B0000DFC1] from Server [10.200.7.182:5300] by the command [0403200100029E5E]
2023-06-04 14:02:29.737: Read data from HostIP [10.200.7.182:5300] by the command [05 03 20 01 00 02 9F 8F].
2023-06-04 14:02:29.916: Received Data [0x050304040B0000CF01] from Server [10.200.7.182:5300] by the command [0503200100029F8F]
2023-06-04 14:02:30.017: Read data from HostIP [10.200.7.182:5300] by the command [06 03 20 01 00 02 9F BC].
2023-06-04 14:02:30.328: Received Data [0x060304040B0000FC01] from Server [10.200.7.182:5300] by the command [0603200100029FBC]
2023-06-04 14:02:30.429: ParallelExecution time for ParallelExecutionforElectricityMeter: 1798
2023-06-04 14:02:38.639: Read data from HostIP [10.200.7.182:5300] by the command [01 03 20 01 00 02 9E 0B].
2023-06-04 14:02:38.817: Received Data [0x010304040A0000DB01] from Server [10.200.7.182:5300] by the command [0103200100029E0B]
2023-06-04 14:02:38.919: Read data from HostIP [10.200.7.182:5300] by the command [02 03 20 01 00 02 9E 38].
2023-06-04 14:02:39.109: Received Data [0x020304040A0000E801] from Server [10.200.7.182:5300] by the command [0203200100029E38]
2023-06-04 14:02:39.211: Read data from HostIP [10.200.7.182:5300] by the command [03 03 20 01 00 02 9F E9].
2023-06-04 14:02:39.387: Received Data [0x030304040A0000F8C1] from Server [10.200.7.182:5300] by the command [0303200100029FE9]
2023-06-04 14:02:39.488: Read data from HostIP [10.200.7.182:5300] by the command [04 03 20 01 00 02 9E 5E].
2023-06-04 14:02:39.665: Received Data [0x040304040A00008E01] from Server [10.200.7.182:5300] by the command [0403200100029E5E]
2023-06-04 14:02:39.766: Read data from HostIP [10.200.7.182:5300] by the command [05 03 20 01 00 02 9F 8F].
2023-06-04 14:02:39.944: Received Data [0x050304040A00009EC1] from Server [10.200.7.182:5300] by the command [0503200100029F8F]
2023-06-04 14:02:40.046: Read data from HostIP [10.200.7.182:5300] by the command [06 03 20 01 00 02 9F BC].
2023-06-04 14:02:40.223: Received Data [0x060304040A0000ADC1] from Server [10.200.7.182:5300] by the command [0603200100029FBC]
2023-06-04 14:02:40.324: ParallelExecution time for ParallelExecutionforElectricityMeter: 1684
2023-06-04 14:02:48.642: Read data from HostIP [10.200.7.182:5300] by the command [01 03 20 01 00 02 9E 0B].
2023-06-04 14:02:48.825: Received Data [0x010304040B00008AC1] from Server [10.200.7.182:5300] by the command [0103200100029E0B]
2023-06-04 14:02:48.928: Read data from HostIP [10.200.7.182:5300] by the command [02 03 20 01 00 02 9E 38].
2023-06-04 14:02:58.645: Read data from HostIP [10.200.7.182:5300] by the command [01 03 20 01 00 02 9E 0B].
2023-06-04 14:02:58.823: Received Data [0x010304040B00008AC1] from Server [10.200.7.182:5300] by the command [0203200100029E38]
2023-06-04 14:02:58.826: Received Data [0x010304040B00008AC1] from Server [10.200.7.182:5300] by the command [0103200100029E0B]
2023-06-04 14:02:58.924: Read data from HostIP [10.200.7.182:5300] by the command [03 03 20 01 00 02 9F E9].
2023-06-04 14:02:58.928: Read data from HostIP [10.200.7.182:5300] by the command [02 03 20 01 00 02 9E 38].
2023-06-04 14:02:59.100: Received Data [0x0400C0] from Server [10.200.7.182:5300] by the command [0303200100029FE9]
2023-06-04 14:02:59.101: Received Data [0x0400C0] from Server [10.200.7.182:5300] by the command [0203200100029E38]
2023-06-04 14:02:59.202: Read data from HostIP [10.200.7.182:5300] by the command [04 03 20 01 00 02 9E 5E].
2023-06-04 14:02:59.203: Read data from HostIP [10.200.7.182:5300] by the command [03 03 20 01 00 02 9F E9].
2023-06-04 14:02:59.385: Received Data [0x030304040A0000F8C1] from Server [10.200.7.182:5300] by the command [0303200100029FE9]
2023-06-04 14:02:59.385: Received Data [0x030304040A0000F8C1] from Server [10.200.7.182:5300] by the command [0403200100029E5E]
2023-06-04 14:02:59.486: Read data from HostIP [10.200.7.182:5300] by the command [04 03 20 01 00 02 9E 5E].
2023-06-04 14:02:59.487: Read data from HostIP [10.200.7.182:5300] by the command [05 03 20 01 00 02 9F 8F].
2023-06-04 14:02:59.671: Received Data [0x005F412010D00800CF01] from Server [10.200.7.182:5300] by the command [0403200100029E5E]
2023-06-04 14:02:59.672: Received Data [0x005F412010D00800CF01] from Server [10.200.7.182:5300] by the command [0503200100029F8F]
2023-06-04 14:02:59.773: Read data from HostIP [10.200.7.182:5300] by the command [05 03 20 01 00 02 9F 8F].
2023-06-04 14:02:59.775: Read data from HostIP [10.200.7.182:5300] by the command [06 03 20 01 00 02 9F BC].
2023-06-04 14:02:59.957: Received Data [0x02CF000304040B0000FC01] from Server [10.200.7.182:5300] by the command [0503200100029F8F]
2023-06-04 14:02:59.958: Received Data [0x02CF000304040B0000FC01] from Server [10.200.7.182:5300] by the command [0603200100029FBC]
2023-06-04 14:03:00.058: Read data from HostIP [10.200.7.182:5300] by the command [06 03 20 01 00 02 9F BC].
2023-06-04 14:03:00.059: ParallelExecution time for ParallelExecutionforElectricityMeter: 11417
2023-06-04 14:03:08.659: Read data from HostIP [10.200.7.182:5300] by the command [01 03 20 01 00 02 9E 0B].
2023-06-04 14:03:08.836: Received Data [0x010304040A0000DB01] from Server [10.200.7.182:5300] by the command [0603200100029FBC]
2023-06-04 14:03:08.838: Received Data [0x010304040A0000DB01] from Server [10.200.7.182:5300] by the command [0103200100029E0B]
2023-06-04 14:03:08.937: ParallelExecution time for ParallelExecutionforElectricityMeter: 10292
2023-06-04 14:03:08.939: Read data from HostIP [10.200.7.182:5300] by the command [02 03 20 01 00 02 9E 38].
2023-06-04 14:03:09.245: Received Data [0x020304040A0000E801] from Server [10.200.7.182:5300] by the command [0203200100029E38]
2023-06-04 14:03:09.346: Read data from HostIP [10.200.7.182:5300] by the command [03 03 20 01 00 02 9F E9].
2023-06-04 14:03:09.522: Received Data [0x030304040A0000F8C1] from Server [10.200.7.182:5300] by the command [0303200100029FE9]
2023-06-04 14:03:09.623: Read data from HostIP [10.200.7.182:5300] by the command [04 03 20 01 00 02 9E 5E].
2023-06-04 14:03:09.802: Received Data [0x040304040A00008E01] from Server [10.200.7.182:5300] by the command [0403200100029E5E]
2023-06-04 14:03:09.903: Read data from HostIP [10.200.7.182:5300] by the command [05 03 20 01 00 02 9F 8F].
2023-06-04 14:03:10.081: Received Data [0x050304040B0000CF01] from Server [10.200.7.182:5300] by the command [0503200100029F8F]
2023-06-04 14:03:10.182: Read data from HostIP [10.200.7.182:5300] by the command [06 03 20 01 00 02 9F BC].
2023-06-04 14:03:10.359: Received Data [0x060304040B0000FC01] from Server [10.200.7.182:5300] by the command [0603200100029FBC]
2023-06-04 14:03:10.461: ParallelExecution time for ParallelExecutionforElectricityMeter: 1802
2023-06-04 14:03:18.659: Read data from HostIP [10.200.7.182:5300] by the command [01 03 20 01 00 02 9E 0B].
2023-06-04 14:03:18.835: Received Data [0x010304040A0000DB01] from Server [10.200.7.182:5300] by the command [0103200100029E0B]
2023-06-04 14:03:18.936: Read data from HostIP [10.200.7.182:5300] by the command [02 03 20 01 00 02 9E 38].
2023-06-04 14:03:19.113: Received Data [0x020304040A0000E801] from Server [10.200.7.182:5300] by the command [0203200100029E38]
2023-06-04 14:03:19.214: Read data from HostIP [10.200.7.182:5300] by the command [03 03 20 01 00 02 9F E9].
2023-06-04 14:03:19.473: Received Data [0x030304040A0000F8C1] from Server [10.200.7.182:5300] by the command [0303200100029FE9]
2023-06-04 14:03:19.574: Read data from HostIP [10.200.7.182:5300] by the command [04 03 20 01 00 02 9E 5E].
2023-06-04 14:03:19.751: Received Data [0x040304040A00008E01] from Server [10.200.7.182:5300] by the command [0403200100029E5E]
2023-06-04 14:03:19.852: Read data from HostIP [10.200.7.182:5300] by the command [05 03 20 01 00 02 9F 8F].
2023-06-04 14:03:20.031: Received Data [0x050304040A00009EC1] from Server [10.200.7.182:5300] by the command [0503200100029F8F]
2023-06-04 14:03:20.132: Read data from HostIP [10.200.7.182:5300] by the command [06 03 20 01 00 02 9F BC].
2023-06-04 14:03:20.302: Received Data [0x060304040A0000ADC1] from Server [10.200.7.182:5300] by the command [0603200100029FBC]
2023-06-04 14:03:20.403: ParallelExecution time for ParallelExecutionforElectricityMeter: 1743
2023-06-04 14:03:28.661: Read data from HostIP [10.200.7.182:5300] by the command [01 03 20 01 00 02 9E 0B].
2023-06-04 14:03:28.837: Received Data [0x010304040B00008AC1] from Server [10.200.7.182:5300] by the command [0103200100029E0B]
2023-06-04 14:03:28.938: Read data from HostIP [10.200.7.182:5300] by the command [02 03 20 01 00 02 9E 38].
2023-06-04 14:03:29.113: Received Data [0x020304040B0000B9C1] from Server [10.200.7.182:5300] by the command [0203200100029E38]
2023-06-04 14:03:29.214: Read data from HostIP [10.200.7.182:5300] by the command [03 03 20 01 00 02 9F E9].
2023-06-04 14:03:38.675: Read data from HostIP [10.200.7.182:5300] by the command [01 03 20 01 00 02 9E 0B].
2023-06-04 14:03:38.853: Received Data [0x010304040B00008AC1] from Server [10.200.7.182:5300] by the command [0303200100029FE9]
2023-06-04 14:03:38.857: Received Data [0x010304040B00008AC1] from Server [10.200.7.182:5300] by the command [0103200100029E0B]
2023-06-04 14:03:38.954: Read data from HostIP [10.200.7.182:5300] by the command [04 03 20 01 00 02 9E 5E].
2023-06-04 14:03:38.958: Read data from HostIP [10.200.7.182:5300] by the command [02 03 20 01 00 02 9E 38].
2023-06-04 14:03:39.143: Received Data [0x028E000304040B0000B9C1] from Server [10.200.7.182:5300] by the command [0403200100029E5E]
2023-06-04 14:03:39.143: Received Data [0x028E000304040B0000B9C1] from Server [10.200.7.182:5300] by the command [0203200100029E38]
2023-06-04 14:03:39.244: Read data from HostIP [10.200.7.182:5300] by the command [03 03 20 01 00 02 9F E9].
2023-06-04 14:03:39.244: Read data from HostIP [10.200.7.182:5300] by the command [05 03 20 01 00 02 9F 8F].
2023-06-04 14:03:39.419: Received Data [0x01CF01] from Server [10.200.7.182:5300] by the command [0503200100029F8F]
2023-06-04 14:03:39.419: Received Data [0x01CF01] from Server [10.200.7.182:5300] by the command [0303200100029FE9]
2023-06-04 14:03:39.520: Read data from HostIP [10.200.7.182:5300] by the command [04 03 20 01 00 02 9E 5E].
2023-06-04 14:03:39.520: Read data from HostIP [10.200.7.182:5300] by the command [06 03 20 01 00 02 9F BC].
2023-06-04 14:03:39.698: Received Data [0x060304040B0000FC01] from Server [10.200.7.182:5300] by the command [0403200100029E5E]
2023-06-04 14:03:39.702: Received Data [0x060304040B0000FC01] from Server [10.200.7.182:5300] by the command [0603200100029FBC]
2023-06-04 14:03:39.799: Read data from HostIP [10.200.7.182:5300] by the command [05 03 20 01 00 02 9F 8F].
2023-06-04 14:03:39.803: ParallelExecution time for ParallelExecutionforElectricityMeter: 11142
2023-06-04 14:03:48.673: Read data from HostIP [10.200.7.182:5300] by the command [01 03 20 01 00 02 9E 0B].
2023-06-04 14:03:48.852: Received Data [0x010304040B00008AC1] from Server [10.200.7.182:5300] by the command [0503200100029F8F]
2023-06-04 14:03:48.853: Received Data [0x010304040B00008AC1] from Server [10.200.7.182:5300] by the command [0103200100029E0B]
2023-06-04 14:03:48.953: Read data from HostIP [10.200.7.182:5300] by the command [06 03 20 01 00 02 9F BC].
2023-06-04 14:03:48.954: Read data from HostIP [10.200.7.182:5300] by the command [02 03 20 01 00 02 9E 38].
2023-06-04 14:03:49.140: Received Data [0x02B9000304040B0000FC01] from Server [10.200.7.182:5300] by the command [0203200100029E38]
2023-06-04 14:03:49.141: Received Data [0x02B9000304040B0000FC01] from Server [10.200.7.182:5300] by the command [0603200100029FBC]
2023-06-04 14:03:49.241: Read data from HostIP [10.200.7.182:5300] by the command [03 03 20 01 00 02 9F E9].
2023-06-04 14:03:49.242: ParallelExecution time for ParallelExecutionforElectricityMeter: 10568
2023-06-04 14:03:49.411: Received Data [0x030304040A0000F8C1] from Server [10.200.7.182:5300] by the command [0303200100029FE9]
2023-06-04 14:03:49.512: Read data from HostIP [10.200.7.182:5300] by the command [04 03 20 01 00 02 9E 5E].
2023-06-04 14:03:49.682: Received Data [0x040304040B0000DFC1] from Server [10.200.7.182:5300] by the command [0403200100029E5E]
2023-06-04 14:03:49.784: Read data from HostIP [10.200.7.182:5300] by the command [05 03 20 01 00 02 9F 8F].
2023-06-04 14:03:49.957: Received Data [0x050304040B0000CF01] from Server [10.200.7.182:5300] by the command [0503200100029F8F]
2023-06-04 14:03:50.058: Read data from HostIP [10.200.7.182:5300] by the command [06 03 20 01 00 02 9F BC].
2023-06-04 14:03:50.234: Received Data [0x060304040B0000FC01] from Server [10.200.7.182:5300] by the command [0603200100029FBC]
2023-06-04 14:03:50.335: ParallelExecution time for ParallelExecutionforElectricityMeter: 1661
2023-06-04 14:03:58.675: Read data from HostIP [10.200.7.182:5300] by the command [01 03 20 01 00 02 9E 0B].
2023-06-04 14:03:58.853: Received Data [0x010304040B00008AC1] from Server [10.200.7.182:5300] by the command [0103200100029E0B]
2023-06-04 14:03:58.954: Read data from HostIP [10.200.7.182:5300] by the command [02 03 20 01 00 02 9E 38].
2023-06-04 14:03:59.131: Received Data [0x020304040B0000B9C1] from Server [10.200.7.182:5300] by the command [0203200100029E38]
2023-06-04 14:03:59.234: Read data from HostIP [10.200.7.182:5300] by the command [03 03 20 01 00 02 9F E9].
2023-06-04 14:03:59.412: Received Data [0x030304040A0000F8C1] from Server [10.200.7.182:5300] by the command [0303200100029FE9]
2023-06-04 14:03:59.514: Read data from HostIP [10.200.7.182:5300] by the command [04 03 20 01 00 02 9E 5E].
2023-06-04 14:04:08.677: Read data from HostIP [10.200.7.182:5300] by the command [01 03 20 01 00 02 9E 0B].
2023-06-04 14:04:08.855: Received Data [0x010304040B00008AC1] from Server [10.200.7.182:5300] by the command [0403200100029E5E]
2023-06-04 14:04:08.856: Received Data [0x010304040B00008AC1] from Server [10.200.7.182:5300] by the command [0103200100029E0B]
2023-06-04 14:04:08.956: Read data from HostIP [10.200.7.182:5300] by the command [05 03 20 01 00 02 9F 8F].
2023-06-04 14:04:08.957: Read data from HostIP [10.200.7.182:5300] by the command [02 03 20 01 00 02 9E 38].
2023-06-04 14:04:09.605: Received Data [0x] from Server [10.200.7.182:5300] by the command [0503200100029F8F]
2023-06-04 14:04:09.634: Received Data [0x020304040B0000B9C1] from Server [10.200.7.182:5300] by the command [0203200100029E38]
2023-06-04 14:04:09.707: Read data from HostIP [10.200.7.182:5300] by the command [06 03 20 01 00 02 9F BC].
2023-06-04 14:04:09.737: Read data from HostIP [10.200.7.182:5300] by the command [03 03 20 01 00 02 9F E9].
2023-06-04 14:04:10.910: Received Data [0x030304040B0000A901] from Server [10.200.7.182:5300] by the command [0603200100029FBC]
2023-06-04 14:04:10.911: Received Data [0x030304040B0000A901] from Server [10.200.7.182:5300] by the command [0303200100029FE9]
2023-06-04 14:04:11.012: ParallelExecution time for ParallelExecutionforElectricityMeter: 12336
2023-06-04 14:04:11.013: Read data from HostIP [10.200.7.182:5300] by the command [04 03 20 01 00 02 9E 5E].
2023-06-04 14:04:11.194: Received Data [0x040304040B0000DFC1] from Server [10.200.7.182:5300] by the command [0403200100029E5E]
2023-06-04 14:04:11.297: Read data from HostIP [10.200.7.182:5300] by the command [05 03 20 01 00 02 9F 8F].
2023-06-04 14:04:11.475: Received Data [0x050304040B0000CF01] from Server [10.200.7.182:5300] by the command [0503200100029F8F]
2023-06-04 14:04:11.577: Read data from HostIP [10.200.7.182:5300] by the command [06 03 20 01 00 02 9F BC].
2023-06-04 14:04:11.811: Received Data [0x060304040B0000FC01] from Server [10.200.7.182:5300] by the command [0603200100029FBC]
2023-06-04 14:04:11.912: ParallelExecution time for ParallelExecutionforElectricityMeter: 3234
2023-06-04 14:04:18.679: Read data from HostIP [10.200.7.182:5300] by the command [01 03 20 01 00 02 9E 0B].
2023-06-04 14:04:18.849: Received Data [0x010304040B00008AC1] from Server [10.200.7.182:5300] by the command [0103200100029E0B]
2023-06-04 14:04:18.950: Read data from HostIP [10.200.7.182:5300] by the command [02 03 20 01 00 02 9E 38].
2023-06-04 14:04:19.120: Received Data [0x020304040B0000B9C1] from Server [10.200.7.182:5300] by the command [0203200100029E38]
2023-06-04 14:04:19.221: Read data from HostIP [10.200.7.182:5300] by the command [03 03 20 01 00 02 9F E9].
2023-06-04 14:04:19.397: Received Data [0x030304040A0000F8C1] from Server [10.200.7.182:5300] by the command [0303200100029FE9]
2023-06-04 14:04:19.499: Read data from HostIP [10.200.7.182:5300] by the command [04 03 20 01 00 02 9E 5E].
2023-06-04 14:04:19.812: Received Data [0x040304040A00008E01] from Server [10.200.7.182:5300] by the command [0403200100029E5E]
2023-06-04 14:04:19.913: Read data from HostIP [10.200.7.182:5300] by the command [05 03 20 01 00 02 9F 8F].
2023-06-04 14:04:20.087: Received Data [0x050304040B0000CF01] from Server [10.200.7.182:5300] by the command [0503200100029F8F]
2023-06-04 14:04:20.189: Read data from HostIP [10.200.7.182:5300] by the command [06 03 20 01 00 02 9F BC].
2023-06-04 14:04:20.367: Received Data [0x060304040B0000FC01] from Server [10.200.7.182:5300] by the command [0603200100029FBC]
2023-06-04 14:04:20.469: ParallelExecution time for ParallelExecutionforElectricityMeter: 1788
2023-06-04 14:04:28.680: Read data from HostIP [10.200.7.182:5300] by the command [01 03 20 01 00 02 9E 0B].
2023-06-04 14:04:28.858: Received Data [0x010304040A0000DB01] from Server [10.200.7.182:5300] by the command [0103200100029E0B]
2023-06-04 14:04:28.960: Read data from HostIP [10.200.7.182:5300] by the command [02 03 20 01 00 02 9E 38].
2023-06-04 14:04:29.138: Received Data [0x020304040B0000B9C1] from Server [10.200.7.182:5300] by the command [0203200100029E38]
2023-06-04 14:04:29.240: Read data from HostIP [10.200.7.182:5300] by the command [03 03 20 01 00 02 9F E9].
2023-06-04 14:04:29.427: Received Data [0x030304040A0000F8C1] from Server [10.200.7.182:5300] by the command [0303200100029FE9]
2023-06-04 14:04:29.528: Read data from HostIP [10.200.7.182:5300] by the command [04 03 20 01 00 02 9E 5E].
2023-06-04 14:04:29.699: Received Data [0x040304040A00008E01] from Server [10.200.7.182:5300] by the command [0403200100029E5E]
2023-06-04 14:04:29.802: Read data from HostIP [10.200.7.182:5300] by the command [05 03 20 01 00 02 9F 8F].
2023-06-04 14:04:30.052: Received Data [0x050304040B0000CF01] from Server [10.200.7.182:5300] by the command [0503200100029F8F]
2023-06-04 14:04:30.153: Read data from HostIP [10.200.7.182:5300] by the command [06 03 20 01 00 02 9F BC].
2023-06-04 14:04:30.329: Received Data [0x060304040B0000FC01] from Server [10.200.7.182:5300] by the command [0603200100029FBC]
2023-06-04 14:04:30.430: ParallelExecution time for ParallelExecutionforElectricityMeter: 1749
2023-06-04 14:04:38.690: Read data from HostIP [10.200.7.182:5300] by the command [01 03 20 01 00 02 9E 0B].
2023-06-04 14:04:38.869: Received Data [0x010304040B00008AC1] from Server [10.200.7.182:5300] by the command [0103200100029E0B]
2023-06-04 14:04:38.970: Read data from HostIP [10.200.7.182:5300] by the command [02 03 20 01 00 02 9E 38].
2023-06-04 14:04:39.147: Received Data [0x020304040B0000B9C1] from Server [10.200.7.182:5300] by the command [0203200100029E38]
2023-06-04 14:04:39.249: Read data from HostIP [10.200.7.182:5300] by the command [03 03 20 01 00 02 9F E9].
2023-06-04 14:04:39.427: Received Data [0x030304040B0000A901] from Server [10.200.7.182:5300] by the command [0303200100029FE9]
2023-06-04 14:04:39.529: Read data from HostIP [10.200.7.182:5300] by the command [04 03 20 01 00 02 9E 5E].
2023-06-04 14:04:39.700: Received Data [0x040304040B0000DFC1] from Server [10.200.7.182:5300] by the command [0403200100029E5E]
2023-06-04 14:04:39.801: Read data from HostIP [10.200.7.182:5300] by the command [05 03 20 01 00 02 9F 8F].
2023-06-04 14:04:40.107: Received Data [0x050304040B0000CF01] from Server [10.200.7.182:5300] by the command [0503200100029F8F]
2023-06-04 14:04:40.210: Read data from HostIP [10.200.7.182:5300] by the command [06 03 20 01 00 02 9F BC].
2023-06-04 14:04:40.389: Received Data [0x060304040B0000FC01] from Server [10.200.7.182:5300] by the command [0603200100029FBC]
2023-06-04 14:04:40.491: ParallelExecution time for ParallelExecutionforElectricityMeter: 1801
2023-06-04 14:04:48.691: Read data from HostIP [10.200.7.182:5300] by the command [01 03 20 01 00 02 9E 0B].
2023-06-04 14:04:58.692: Read data from HostIP [10.200.7.182:5300] by the command [01 03 20 01 00 02 9E 0B].
2023-06-04 14:04:58.865: Received Data [0x010304040A0000DB01] from Server [10.200.7.182:5300] by the command [0103200100029E0B]
2023-06-04 14:04:58.866: Received Data [0x010304040A0000DB01] from Server [10.200.7.182:5300] by the command [0103200100029E0B]
2023-06-04 14:04:58.968: Read data from HostIP [10.200.7.182:5300] by the command [02 03 20 01 00 02 9E 38].
2023-06-04 14:04:58.968: Read data from HostIP [10.200.7.182:5300] by the command [02 03 20 01 00 02 9E 38].
2023-06-04 14:04:59.148: Received Data [0x020304040A0000E801] from Server [10.200.7.182:5300] by the command [0203200100029E38]
2023-06-04 14:04:59.149: Received Data [0x020304040A0000E801] from Server [10.200.7.182:5300] by the command [0203200100029E38]
2023-06-04 14:04:59.249: Read data from HostIP [10.200.7.182:5300] by the command [03 03 20 01 00 02 9F E9].
2023-06-04 14:04:59.250: Read data from HostIP [10.200.7.182:5300] by the command [03 03 20 01 00 02 9F E9].
2023-06-04 14:04:59.428: Received Data [0x04C1C1] from Server [10.200.7.182:5300] by the command [0303200100029FE9]
2023-06-04 14:04:59.429: Received Data [0x04C1C1] from Server [10.200.7.182:5300] by the command [0303200100029FE9]
2023-06-04 14:04:59.530: Read data from HostIP [10.200.7.182:5300] by the command [04 03 20 01 00 02 9E 5E].
2023-06-04 14:04:59.531: Read data from HostIP [10.200.7.182:5300] by the command [04 03 20 01 00 02 9E 5E].
2023-06-04 14:05:00.181: Received Data [0x] from Server [10.200.7.182:5300] by the command [0403200100029E5E]
2023-06-04 14:05:00.207: Received Data [0x040304040A00008E01] from Server [10.200.7.182:5300] by the command [0403200100029E5E]
2023-06-04 14:05:00.282: Read data from HostIP [10.200.7.182:5300] by the command [05 03 20 01 00 02 9F 8F].
2023-06-04 14:05:00.309: Read data from HostIP [10.200.7.182:5300] by the command [05 03 20 01 00 02 9F 8F].
2023-06-04 14:05:00.453: Received Data [0x050304040A00009EC1] from Server [10.200.7.182:5300] by the command [0503200100029F8F]
2023-06-04 14:05:00.554: Read data from HostIP [10.200.7.182:5300] by the command [06 03 20 01 00 02 9F BC].
2023-06-04 14:05:00.731: Received Data [0x060304040A0000ADC1] from Server [10.200.7.182:5300] by the command [0603200100029FBC]
2023-06-04 14:05:00.833: ParallelExecution time for ParallelExecutionforElectricityMeter: 2139
2023-06-04 14:05:01.480: Received Data [0x050304040A00009EC1] from Server [10.200.7.182:5300] by the command [0503200100029F8F]
2023-06-04 14:05:01.582: Read data from HostIP [10.200.7.182:5300] by the command [06 03 20 01 00 02 9F BC].
2023-06-04 14:05:01.757: Received Data [0x060304040A0000ADC1] from Server [10.200.7.182:5300] by the command [0603200100029FBC]
2023-06-04 14:05:01.859: ParallelExecution time for ParallelExecutionforElectricityMeter: 13168
2023-06-04 14:05:08.695: Read data from HostIP [10.200.7.182:5300] by the command [01 03 20 01 00 02 9E 0B].
2023-06-04 14:05:08.869: Received Data [0x010304040B00008AC1] from Server [10.200.7.182:5300] by the command [0103200100029E0B]
2023-06-04 14:05:08.971: Read data from HostIP [10.200.7.182:5300] by the command [02 03 20 01 00 02 9E 38].
2023-06-04 14:05:18.695: Read data from HostIP [10.200.7.182:5300] by the command [01 03 20 01 00 02 9E 0B].
2023-06-04 14:05:18.902: Received Data [0x010304040B00008AC1] from Server [10.200.7.182:5300] by the command [0203200100029E38]
2023-06-04 14:05:18.903: Received Data [0x010304040B00008AC1] from Server [10.200.7.182:5300] by the command [0103200100029E0B]
2023-06-04 14:05:19.004: Read data from HostIP [10.200.7.182:5300] by the command [03 03 20 01 00 02 9F E9].
2023-06-04 14:05:19.004: Read data from HostIP [10.200.7.182:5300] by the command [02 03 20 01 00 02 9E 38].
2023-06-04 14:05:19.172: Received Data [0x0822] from Server [10.200.7.182:5300] by the command [0303200100029FE9]
2023-06-04 14:05:19.177: Received Data [0x0822] from Server [10.200.7.182:5300] by the command [0203200100029E38]
2023-06-04 14:05:19.274: Read data from HostIP [10.200.7.182:5300] by the command [04 03 20 01 00 02 9E 5E].
2023-06-04 14:05:19.279: Read data from HostIP [10.200.7.182:5300] by the command [03 03 20 01 00 02 9F E9].
2023-06-04 14:05:19.451: Received Data [0x030304040A0000F8C1] from Server [10.200.7.182:5300] by the command [0303200100029FE9]
2023-06-04 14:05:19.453: Received Data [0x030304040A0000F8C1] from Server [10.200.7.182:5300] by the command [0403200100029E5E]
2023-06-04 14:05:19.553: Read data from HostIP [10.200.7.182:5300] by the command [04 03 20 01 00 02 9E 5E].
2023-06-04 14:05:19.555: Read data from HostIP [10.200.7.182:5300] by the command [05 03 20 01 00 02 9F 8F].
2023-06-04 14:05:20.207: Received Data [0x] from Server [10.200.7.182:5300] by the command [0403200100029E5E]
2023-06-04 14:05:20.290: Received Data [0x050304040B0000CF01] from Server [10.200.7.182:5300] by the command [0503200100029F8F]
2023-06-04 14:05:20.309: Read data from HostIP [10.200.7.182:5300] by the command [05 03 20 01 00 02 9F 8F].
2023-06-04 14:05:20.392: Read data from HostIP [10.200.7.182:5300] by the command [06 03 20 01 00 02 9F BC].
2023-06-04 14:05:20.484: Received Data [0x050304040B0000CF01] from Server [10.200.7.182:5300] by the command [0503200100029F8F]
2023-06-04 14:05:20.569: Received Data [0x060304040B0000FC01] from Server [10.200.7.182:5300] by the command [0603200100029FBC]
2023-06-04 14:05:20.585: Read data from HostIP [10.200.7.182:5300] by the command [06 03 20 01 00 02 9F BC].
2023-06-04 14:05:20.671: ParallelExecution time for ParallelExecutionforElectricityMeter: 11975
2023-06-04 14:05:20.767: Received Data [0x060304040B0000FC01] from Server [10.200.7.182:5300] by the command [0603200100029FBC]
2023-06-04 14:05:20.869: ParallelExecution time for ParallelExecutionforElectricityMeter: 2173
2023-06-04 14:05:28.696: Read data from HostIP [10.200.7.182:5300] by the command [01 03 20 01 00 02 9E 0B].
2023-06-04 14:05:28.949: Received Data [0x010304040B00008AC1] from Server [10.200.7.182:5300] by the command [0103200100029E0B]
2023-06-04 14:05:29.051: Read data from HostIP [10.200.7.182:5300] by the command [02 03 20 01 00 02 9E 38].
2023-06-04 14:05:29.225: Received Data [0x020304040B0000B9C1] from Server [10.200.7.182:5300] by the command [0203200100029E38]
2023-06-04 14:05:29.326: Read data from HostIP [10.200.7.182:5300] by the command [03 03 20 01 00 02 9F E9].
2023-06-04 14:05:29.502: Received Data [0x030304040A0000F8C1] from Server [10.200.7.182:5300] by the command [0303200100029FE9]
2023-06-04 14:05:29.604: Read data from HostIP [10.200.7.182:5300] by the command [04 03 20 01 00 02 9E 5E].
2023-06-04 14:05:38.707: Read data from HostIP [10.200.7.182:5300] by the command [01 03 20 01 00 02 9E 0B].
2023-06-04 14:05:39.003: Received Data [0x010304040B00008AC1] from Server [10.200.7.182:5300] by the command [0103200100029E0B]
2023-06-04 14:05:39.005: Received Data [0x010304040B00008AC1] from Server [10.200.7.182:5300] by the command [0403200100029E5E]
2023-06-04 14:05:39.105: Read data from HostIP [10.200.7.182:5300] by the command [02 03 20 01 00 02 9E 38].
2023-06-04 14:05:39.108: Read data from HostIP [10.200.7.182:5300] by the command [05 03 20 01 00 02 9F 8F].
2023-06-04 14:05:39.276: Received Data [0x00B9C1] from Server [10.200.7.182:5300] by the command [0203200100029E38]
2023-06-04 14:05:39.280: Received Data [0x00B9C1] from Server [10.200.7.182:5300] by the command [0503200100029F8F]
2023-06-04 14:05:39.379: Read data from HostIP [10.200.7.182:5300] by the command [03 03 20 01 00 02 9F E9].
2023-06-04 14:05:39.382: Read data from HostIP [10.200.7.182:5300] by the command [06 03 20 01 00 02 9F BC].
2023-06-04 14:05:39.552: Received Data [0x030304040B0000A901] from Server [10.200.7.182:5300] by the command [0303200100029FE9]
2023-06-04 14:05:39.556: Received Data [0x030304040B0000A901] from Server [10.200.7.182:5300] by the command [0603200100029FBC]
2023-06-04 14:05:39.653: Read data from HostIP [10.200.7.182:5300] by the command [04 03 20 01 00 02 9E 5E].
2023-06-04 14:05:39.657: ParallelExecution time for ParallelExecutionforElectricityMeter: 10960
2023-06-04 14:05:48.707: Read data from HostIP [10.200.7.182:5300] by the command [01 03 20 01 00 02 9E 0B].
2023-06-04 14:05:48.884: Received Data [0x010304040B00008AC1] from Server [10.200.7.182:5300] by the command [0403200100029E5E]
2023-06-04 14:05:48.885: Received Data [0x010304040B00008AC1] from Server [10.200.7.182:5300] by the command [0103200100029E0B]
2023-06-04 14:05:48.985: Read data from HostIP [10.200.7.182:5300] by the command [05 03 20 01 00 02 9F 8F].
2023-06-04 14:05:48.986: Read data from HostIP [10.200.7.182:5300] by the command [02 03 20 01 00 02 9E 38].
2023-06-04 14:05:49.171: Received Data [0x00B9000304040B0000CF01] from Server [10.200.7.182:5300] by the command [0203200100029E38]
2023-06-04 14:05:49.172: Received Data [0x00B9000304040B0000CF01] from Server [10.200.7.182:5300] by the command [0503200100029F8F]
2023-06-04 14:05:49.273: Read data from HostIP [10.200.7.182:5300] by the command [03 03 20 01 00 02 9F E9].
2023-06-04 14:05:49.273: Read data from HostIP [10.200.7.182:5300] by the command [06 03 20 01 00 02 9F BC].
2023-06-04 14:05:49.924: Received Data [0x] from Server [10.200.7.182:5300] by the command [0603200100029FBC]
2023-06-04 14:05:49.947: Received Data [0x030304040A0000F8C1] from Server [10.200.7.182:5300] by the command [0303200100029FE9]
2023-06-04 14:05:50.026: ParallelExecution time for ParallelExecutionforElectricityMeter: 11319
2023-06-04 14:05:50.048: Read data from HostIP [10.200.7.182:5300] by the command [04 03 20 01 00 02 9E 5E].
2023-06-04 14:05:50.239: Received Data [0x040304040B0000DFC1] from Server [10.200.7.182:5300] by the command [0403200100029E5E]
2023-06-04 14:05:50.339: Read data from HostIP [10.200.7.182:5300] by the command [05 03 20 01 00 02 9F 8F].
2023-06-04 14:05:58.709: Read data from HostIP [10.200.7.182:5300] by the command [01 03 20 01 00 02 9E 0B].
2023-06-04 14:05:58.883: Received Data [0x010304040B00008AC1] from Server [10.200.7.182:5300] by the command [0503200100029F8F]
2023-06-04 14:05:58.884: Received Data [0x010304040B00008AC1] from Server [10.200.7.182:5300] by the command [0103200100029E0B]
2023-06-04 14:05:58.984: Read data from HostIP [10.200.7.182:5300] by the command [06 03 20 01 00 02 9F BC].
2023-06-04 14:05:58.985: Read data from HostIP [10.200.7.182:5300] by the command [02 03 20 01 00 02 9E 38].
2023-06-04 14:05:59.172: Received Data [0x01FC01A02010D00800B9C1] from Server [10.200.7.182:5300] by the command [0603200100029FBC]
2023-06-04 14:05:59.172: Received Data [0x01FC01A02010D00800B9C1] from Server [10.200.7.182:5300] by the command [0203200100029E38]
2023-06-04 14:05:59.273: ParallelExecution time for ParallelExecutionforElectricityMeter: 10565
2023-06-04 14:05:59.274: Read data from HostIP [10.200.7.182:5300] by the command [03 03 20 01 00 02 9F E9].
2023-06-04 14:05:59.443: Received Data [0x030304040B0000A901] from Server [10.200.7.182:5300] by the command [0303200100029FE9]
2023-06-04 14:05:59.544: Read data from HostIP [10.200.7.182:5300] by the command [04 03 20 01 00 02 9E 5E].
2023-06-04 14:05:59.721: Received Data [0x040304040B0000DFC1] from Server [10.200.7.182:5300] by the command [0403200100029E5E]
2023-06-04 14:05:59.823: Read data from HostIP [10.200.7.182:5300] by the command [05 03 20 01 00 02 9F 8F].
2023-06-04 14:05:59.997: Received Data [0x050304040B0000CF01] from Server [10.200.7.182:5300] by the command [0503200100029F8F]
2023-06-04 14:06:00.098: Read data from HostIP [10.200.7.182:5300] by the command [06 03 20 01 00 02 9F BC].
2023-06-04 14:06:08.720: Read data from HostIP [10.200.7.182:5300] by the command [01 03 20 01 00 02 9E 0B].
2023-06-04 14:06:08.897: Received Data [0x010304040B00008AC1] from Server [10.200.7.182:5300] by the command [0603200100029FBC]
2023-06-04 14:06:08.898: Received Data [0x010304040B00008AC1] from Server [10.200.7.182:5300] by the command [0103200100029E0B]
2023-06-04 14:06:08.999: ParallelExecution time for ParallelExecutionforElectricityMeter: 10290
2023-06-04 14:06:09.001: Read data from HostIP [10.200.7.182:5300] by the command [02 03 20 01 00 02 9E 38].
2023-06-04 14:06:09.172: Received Data [0x020304040B0000B9C1] from Server [10.200.7.182:5300] by the command [0203200100029E38]
2023-06-04 14:06:09.273: Read data from HostIP [10.200.7.182:5300] by the command [03 03 20 01 00 02 9F E9].
2023-06-04 14:06:09.443: Received Data [0x030304040A0000F8C1] from Server [10.200.7.182:5300] by the command [0303200100029FE9]
2023-06-04 14:06:09.546: Read data from HostIP [10.200.7.182:5300] by the command [04 03 20 01 00 02 9E 5E].
2023-06-04 14:06:09.725: Received Data [0x040304040B0000DFC1] from Server [10.200.7.182:5300] by the command [0403200100029E5E]
2023-06-04 14:06:09.826: Read data from HostIP [10.200.7.182:5300] by the command [05 03 20 01 00 02 9F 8F].
2023-06-04 14:06:09.997: Received Data [0x050304040B0000CF01] from Server [10.200.7.182:5300] by the command [0503200100029F8F]
2023-06-04 14:06:10.098: Read data from HostIP [10.200.7.182:5300] by the command [06 03 20 01 00 02 9F BC].
2023-06-04 14:06:10.369: Received Data [0x060304040B0000FC01] from Server [10.200.7.182:5300] by the command [0603200100029FBC]
2023-06-04 14:06:10.471: ParallelExecution time for ParallelExecutionforElectricityMeter: 1750
2023-06-04 14:06:18.721: Read data from HostIP [10.200.7.182:5300] by the command [01 03 20 01 00 02 9E 0B].
2023-06-04 14:06:18.898: Received Data [0x010304040A0000DB01] from Server [10.200.7.182:5300] by the command [0103200100029E0B]
2023-06-04 14:06:18.999: Read data from HostIP [10.200.7.182:5300] by the command [02 03 20 01 00 02 9E 38].
2023-06-04 14:06:28.723: Read data from HostIP [10.200.7.182:5300] by the command [01 03 20 01 00 02 9E 0B].
2023-06-04 14:06:28.897: Received Data [0x010304040A0000DB01] from Server [10.200.7.182:5300] by the command [0203200100029E38]
2023-06-04 14:06:28.901: Received Data [0x010304040A0000DB01] from Server [10.200.7.182:5300] by the command [0103200100029E0B]
2023-06-04 14:06:28.998: Read data from HostIP [10.200.7.182:5300] by the command [03 03 20 01 00 02 9F E9].
2023-06-04 14:06:29.003: Read data from HostIP [10.200.7.182:5300] by the command [02 03 20 01 00 02 9E 38].
2023-06-04 14:06:29.173: Received Data [0x030304040A0000F8C1] from Server [10.200.7.182:5300] by the command [0203200100029E38]
2023-06-04 14:06:29.173: Received Data [0x030304040A0000F8C1] from Server [10.200.7.182:5300] by the command [0303200100029FE9]
2023-06-04 14:06:29.274: Read data from HostIP [10.200.7.182:5300] by the command [03 03 20 01 00 02 9F E9].
2023-06-04 14:06:29.275: Read data from HostIP [10.200.7.182:5300] by the command [04 03 20 01 00 02 9E 5E].
2023-06-04 14:06:29.458: Received Data [0x048E012010900800F8C1] from Server [10.200.7.182:5300] by the command [0403200100029E5E]
2023-06-04 14:06:29.459: Received Data [0x048E012010900800F8C1] from Server [10.200.7.182:5300] by the command [0303200100029FE9]
2023-06-04 14:06:29.560: Read data from HostIP [10.200.7.182:5300] by the command [05 03 20 01 00 02 9F 8F].
2023-06-04 14:06:29.561: Read data from HostIP [10.200.7.182:5300] by the command [04 03 20 01 00 02 9E 5E].
2023-06-04 14:06:29.745: Received Data [0x048E000304040A00009EC1] from Server [10.200.7.182:5300] by the command [0403200100029E5E]
2023-06-04 14:06:29.747: Received Data [0x048E000304040A00009EC1] from Server [10.200.7.182:5300] by the command [0503200100029F8F]
2023-06-04 14:06:29.847: Read data from HostIP [10.200.7.182:5300] by the command [05 03 20 01 00 02 9F 8F].
2023-06-04 14:06:29.849: Read data from HostIP [10.200.7.182:5300] by the command [06 03 20 01 00 02 9F BC].
2023-06-04 14:06:30.027: Received Data [0x02AD000304040A00009EC1] from Server [10.200.7.182:5300] by the command [0603200100029FBC]
2023-06-04 14:06:30.031: Received Data [0x02AD000304040A00009EC1] from Server [10.200.7.182:5300] by the command [0503200100029F8F]
2023-06-04 14:06:30.128: ParallelExecution time for ParallelExecutionforElectricityMeter: 11407
2023-06-04 14:06:30.133: Read data from HostIP [10.200.7.182:5300] by the command [06 03 20 01 00 02 9F BC].
2023-06-04 14:06:30.310: Received Data [0x060304040A0000ADC1] from Server [10.200.7.182:5300] by the command [0603200100029FBC]
2023-06-04 14:06:30.411: ParallelExecution time for ParallelExecutionforElectricityMeter: 1688
2023-06-04 14:06:38.721: Read data from HostIP [10.200.7.182:5300] by the command [01 03 20 01 00 02 9E 0B].
2023-06-04 14:06:48.723: Read data from HostIP [10.200.7.182:5300] by the command [01 03 20 01 00 02 9E 0B].
2023-06-04 14:06:48.904: Received Data [0x010304040B00008AC1] from Server [10.200.7.182:5300] by the command [0103200100029E0B]
2023-06-04 14:06:48.905: Received Data [0x010304040B00008AC1] from Server [10.200.7.182:5300] by the command [0103200100029E0B]
2023-06-04 14:06:49.005: Read data from HostIP [10.200.7.182:5300] by the command [02 03 20 01 00 02 9E 38].
2023-06-04 14:06:49.006: Read data from HostIP [10.200.7.182:5300] by the command [02 03 20 01 00 02 9E 38].
2023-06-04 14:06:58.734: Read data from HostIP [10.200.7.182:5300] by the command [01 03 20 01 00 02 9E 0B].
2023-06-04 14:06:58.908: Received Data [0x010304040B00008AC1] from Server [10.200.7.182:5300] by the command [0203200100029E38]
2023-06-04 14:06:58.912: Received Data [0x010304040B00008AC1] from Server [10.200.7.182:5300] by the command [0203200100029E38]
2023-06-04 14:06:58.913: Received Data [0x010304040B00008AC1] from Server [10.200.7.182:5300] by the command [0103200100029E0B]
2023-06-04 14:06:59.009: Read data from HostIP [10.200.7.182:5300] by the command [03 03 20 01 00 02 9F E9].
2023-06-04 14:06:59.014: Read data from HostIP [10.200.7.182:5300] by the command [03 03 20 01 00 02 9F E9].
2023-06-04 14:06:59.014: Read data from HostIP [10.200.7.182:5300] by the command [02 03 20 01 00 02 9E 38].
2023-06-04 14:06:59.185: Received Data [0x030304040B0000A901] from Server [10.200.7.182:5300] by the command [0303200100029FE9]
2023-06-04 14:06:59.187: Received Data [0x030304040B0000A901] from Server [10.200.7.182:5300] by the command [0303200100029FE9]
2023-06-04 14:06:59.288: Read data from HostIP [10.200.7.182:5300] by the command [04 03 20 01 00 02 9E 5E].
2023-06-04 14:06:59.289: Read data from HostIP [10.200.7.182:5300] by the command [04 03 20 01 00 02 9E 5E].
2023-06-04 14:07:08.739: Read data from HostIP [10.200.7.182:5300] by the command [01 03 20 01 00 02 9E 0B].
2023-06-04 14:07:08.916: Received Data [0x010304040B00008AC1] from Server [10.200.7.182:5300] by the command [0403200100029E5E]
2023-06-04 14:07:08.919: Received Data [0x010304040B00008AC1] from Server [10.200.7.182:5300] by the command [0403200100029E5E]
2023-06-04 14:07:08.920: Received Data [0x010304040B00008AC1] from Server [10.200.7.182:5300] by the command [0203200100029E38]
2023-06-04 14:07:08.921: Received Data [0x010304040B00008AC1] from Server [10.200.7.182:5300] by the command [0103200100029E0B]
2023-06-04 14:07:09.017: Read data from HostIP [10.200.7.182:5300] by the command [05 03 20 01 00 02 9F 8F].
2023-06-04 14:07:09.020: Read data from HostIP [10.200.7.182:5300] by the command [05 03 20 01 00 02 9F 8F].
2023-06-04 14:07:09.021: Read data from HostIP [10.200.7.182:5300] by the command [03 03 20 01 00 02 9F E9].
2023-06-04 14:07:09.022: Read data from HostIP [10.200.7.182:5300] by the command [02 03 20 01 00 02 9E 38].
2023-06-04 14:07:09.200: Received Data [0x02CF000304040A0000F8C1] from Server [10.200.7.182:5300] by the command [0503200100029F8F]
2023-06-04 14:07:09.202: Received Data [0x02CF000304040A0000F8C1] from Server [10.200.7.182:5300] by the command [0303200100029FE9]
2023-06-04 14:07:09.302: Read data from HostIP [10.200.7.182:5300] by the command [06 03 20 01 00 02 9F BC].
2023-06-04 14:07:09.304: Read data from HostIP [10.200.7.182:5300] by the command [04 03 20 01 00 02 9E 5E].
2023-06-04 14:07:09.478: Received Data [0x00FC01] from Server [10.200.7.182:5300] by the command [0603200100029FBC]
2023-06-04 14:07:09.480: Received Data [0x00FC01] from Server [10.200.7.182:5300] by the command [0403200100029E5E]
2023-06-04 14:07:09.579: ParallelExecution time for ParallelExecutionforElectricityMeter: 30857
2023-06-04 14:07:09.581: Read data from HostIP [10.200.7.182:5300] by the command [05 03 20 01 00 02 9F 8F].
2023-06-04 14:07:09.806: Received Data [0x050304040A00009EC1] from Server [10.200.7.182:5300] by the command [0503200100029F8F]
2023-06-04 14:07:09.908: Read data from HostIP [10.200.7.182:5300] by the command [06 03 20 01 00 02 9F BC].
2023-06-04 14:07:10.085: Received Data [0x060304040A0000ADC1] from Server [10.200.7.182:5300] by the command [0603200100029FBC]
2023-06-04 14:07:10.186: ParallelExecution time for ParallelExecutionforElectricityMeter: 11452
2023-06-04 14:07:10.205: Received Data [0x02B9000304040A00009EC1] from Server [10.200.7.182:5300] by the command [0203200100029E38]
2023-06-04 14:07:10.206: Received Data [0x02B9000304040A00009EC1] from Server [10.200.7.182:5300] by the command [0503200100029F8F]
2023-06-04 14:07:10.306: Read data from HostIP [10.200.7.182:5300] by the command [03 03 20 01 00 02 9F E9].
2023-06-04 14:07:10.308: Read data from HostIP [10.200.7.182:5300] by the command [06 03 20 01 00 02 9F BC].
2023-06-04 14:07:10.486: Received Data [0x060304040A0000ADC1] from Server [10.200.7.182:5300] by the command [0303200100029FE9]
2023-06-04 14:07:10.486: Received Data [0x060304040A0000ADC1] from Server [10.200.7.182:5300] by the command [0603200100029FBC]
2023-06-04 14:07:10.587: Read data from HostIP [10.200.7.182:5300] by the command [04 03 20 01 00 02 9E 5E].
2023-06-04 14:07:10.587: ParallelExecution time for ParallelExecutionforElectricityMeter: 21864
2023-06-04 14:07:10.757: Received Data [0x040304040A00008E01] from Server [10.200.7.182:5300] by the command [0403200100029E5E]
2023-06-04 14:07:10.859: Read data from HostIP [10.200.7.182:5300] by the command [05 03 20 01 00 02 9F 8F].
2023-06-04 14:07:11.039: Received Data [0x050304040A00009EC1] from Server [10.200.7.182:5300] by the command [0503200100029F8F]
2023-06-04 14:07:11.140: Read data from HostIP [10.200.7.182:5300] by the command [06 03 20 01 00 02 9F BC].
2023-06-04 14:07:11.310: Received Data [0x060304040A0000ADC1] from Server [10.200.7.182:5300] by the command [0603200100029FBC]
2023-06-04 14:07:11.411: ParallelExecution time for ParallelExecutionforElectricityMeter: 2671
2023-06-04 14:07:18.740: Read data from HostIP [10.200.7.182:5300] by the command [01 03 20 01 00 02 9E 0B].
2023-06-04 14:07:18.915: Received Data [0x010304040B00008AC1] from Server [10.200.7.182:5300] by the command [0103200100029E0B]
2023-06-04 14:07:19.017: Read data from HostIP [10.200.7.182:5300] by the command [02 03 20 01 00 02 9E 38].
2023-06-04 14:07:19.195: Received Data [0x020304040B0000B9C1] from Server [10.200.7.182:5300] by the command [0203200100029E38]
2023-06-04 14:07:19.297: Read data from HostIP [10.200.7.182:5300] by the command [03 03 20 01 00 02 9F E9].
2023-06-04 14:07:19.606: Received Data [0x030304040A0000F8C1] from Server [10.200.7.182:5300] by the command [0303200100029FE9]
2023-06-04 14:07:19.707: Read data from HostIP [10.200.7.182:5300] by the command [04 03 20 01 00 02 9E 5E].
2023-06-04 14:07:19.878: Received Data [0x040304040A00008E01] from Server [10.200.7.182:5300] by the command [0403200100029E5E]
2023-06-04 14:07:19.980: Read data from HostIP [10.200.7.182:5300] by the command [05 03 20 01 00 02 9F 8F].
2023-06-04 14:07:20.158: Received Data [0x050304040A00009EC1] from Server [10.200.7.182:5300] by the command [0503200100029F8F]
2023-06-04 14:07:20.260: Read data from HostIP [10.200.7.182:5300] by the command [06 03 20 01 00 02 9F BC].
2023-06-04 14:07:28.740: Read data from HostIP [10.200.7.182:5300] by the command [01 03 20 01 00 02 9E 0B].
2023-06-04 14:07:28.913: Received Data [0x010304040B00008AC1] from Server [10.200.7.182:5300] by the command [0603200100029FBC]
2023-06-04 14:07:28.916: Received Data [0x010304040B00008AC1] from Server [10.200.7.182:5300] by the command [0103200100029E0B]
2023-06-04 14:07:29.014: ParallelExecution time for ParallelExecutionforElectricityMeter: 10273
2023-06-04 14:07:29.018: Read data from HostIP [10.200.7.182:5300] by the command [02 03 20 01 00 02 9E 38].
2023-06-04 14:07:29.195: Received Data [0x020304040B0000B9C1] from Server [10.200.7.182:5300] by the command [0203200100029E38]
2023-06-04 14:07:29.296: Read data from HostIP [10.200.7.182:5300] by the command [03 03 20 01 00 02 9F E9].
2023-06-04 14:07:29.473: Received Data [0x030304040A0000F8C1] from Server [10.200.7.182:5300] by the command [0303200100029FE9]
2023-06-04 14:07:29.575: Read data from HostIP [10.200.7.182:5300] by the command [04 03 20 01 00 02 9E 5E].
2023-06-04 14:07:29.751: Received Data [0x040304040A00008E01] from Server [10.200.7.182:5300] by the command [0403200100029E5E]
2023-06-04 14:07:29.854: Read data from HostIP [10.200.7.182:5300] by the command [05 03 20 01 00 02 9F 8F].
2023-06-04 14:07:30.026: Received Data [0x050304040B0000CF01] from Server [10.200.7.182:5300] by the command [0503200100029F8F]
2023-06-04 14:07:30.127: Read data from HostIP [10.200.7.182:5300] by the command [06 03 20 01 00 02 9F BC].
2023-06-04 14:07:30.304: Received Data [0x060304040B0000FC01] from Server [10.200.7.182:5300] by the command [0603200100029FBC]
2023-06-04 14:07:30.406: ParallelExecution time for ParallelExecutionforElectricityMeter: 1665
2023-06-04 14:07:38.754: Read data from HostIP [10.200.7.182:5300] by the command [01 03 20 01 00 02 9E 0B].
2023-06-04 14:07:38.938: Received Data [0x010304040A0000DB01] from Server [10.200.7.182:5300] by the command [0103200100029E0B]
2023-06-04 14:07:39.040: Read data from HostIP [10.200.7.182:5300] by the command [02 03 20 01 00 02 9E 38].
2023-06-04 14:07:39.216: Received Data [0x020304040B0000B9C1] from Server [10.200.7.182:5300] by the command [0203200100029E38]
2023-06-04 14:07:39.317: Read data from HostIP [10.200.7.182:5300] by the command [03 03 20 01 00 02 9F E9].
2023-06-04 14:07:39.491: Received Data [0x030304040A0000F8C1] from Server [10.200.7.182:5300] by the command [0303200100029FE9]
2023-06-04 14:07:39.592: Read data from HostIP [10.200.7.182:5300] by the command [04 03 20 01 00 02 9E 5E].
2023-06-04 14:07:39.777: Received Data [0x040304040A00008E01] from Server [10.200.7.182:5300] by the command [0403200100029E5E]
2023-06-04 14:07:39.880: Read data from HostIP [10.200.7.182:5300] by the command [05 03 20 01 00 02 9F 8F].
2023-06-04 14:07:40.058: Received Data [0x050304040B0000CF01] from Server [10.200.7.182:5300] by the command [0503200100029F8F]
2023-06-04 14:07:40.158: Read data from HostIP [10.200.7.182:5300] by the command [06 03 20 01 00 02 9F BC].
2023-06-04 14:07:40.334: Received Data [0x060304040A0000ADC1] from Server [10.200.7.182:5300] by the command [0603200100029FBC]
2023-06-04 14:07:40.436: ParallelExecution time for ParallelExecutionforElectricityMeter: 1681
2023-06-04 14:07:48.755: Read data from HostIP [10.200.7.182:5300] by the command [01 03 20 01 00 02 9E 0B].
2023-06-04 14:07:48.926: Received Data [0x010304040B00008AC1] from Server [10.200.7.182:5300] by the command [0103200100029E0B]
2023-06-04 14:07:49.028: Read data from HostIP [10.200.7.182:5300] by the command [02 03 20 01 00 02 9E 38].
2023-06-04 14:07:49.206: Received Data [0x020304040B0000B9C1] from Server [10.200.7.182:5300] by the command [0203200100029E38]
2023-06-04 14:07:49.307: Read data from HostIP [10.200.7.182:5300] by the command [03 03 20 01 00 02 9F E9].
2023-06-04 14:07:49.484: Received Data [0x030304040A0000F8C1] from Server [10.200.7.182:5300] by the command [0303200100029FE9]
2023-06-04 14:07:49.586: Read data from HostIP [10.200.7.182:5300] by the command [04 03 20 01 00 02 9E 5E].
2023-06-04 14:07:58.755: Read data from HostIP [10.200.7.182:5300] by the command [01 03 20 01 00 02 9E 0B].
2023-06-04 14:07:58.931: Received Data [0x010304040A0000DB01] from Server [10.200.7.182:5300] by the command [0403200100029E5E]
2023-06-04 14:07:58.932: Received Data [0x010304040A0000DB01] from Server [10.200.7.182:5300] by the command [0103200100029E0B]
2023-06-04 14:07:59.033: Read data from HostIP [10.200.7.182:5300] by the command [05 03 20 01 00 02 9F 8F].
2023-06-04 14:07:59.034: Read data from HostIP [10.200.7.182:5300] by the command [02 03 20 01 00 02 9E 38].
2023-06-04 14:07:59.218: Received Data [0x02E8000304040A00009EC1] from Server [10.200.7.182:5300] by the command [0203200100029E38]
2023-06-04 14:07:59.219: Received Data [0x02E8000304040A00009EC1] from Server [10.200.7.182:5300] by the command [0503200100029F8F]
2023-06-04 14:07:59.319: Read data from HostIP [10.200.7.182:5300] by the command [03 03 20 01 00 02 9F E9].
2023-06-04 14:07:59.320: Read data from HostIP [10.200.7.182:5300] by the command [06 03 20 01 00 02 9F BC].
2023-06-04 14:07:59.970: Received Data [0x] from Server [10.200.7.182:5300] by the command [0303200100029FE9]
2023-06-04 14:08:00.004: Received Data [0x060304040A0000ADC1] from Server [10.200.7.182:5300] by the command [0603200100029FBC]
2023-06-04 14:08:00.071: Read data from HostIP [10.200.7.182:5300] by the command [04 03 20 01 00 02 9E 5E].
2023-06-04 14:08:00.105: ParallelExecution time for ParallelExecutionforElectricityMeter: 11350
2023-06-04 14:08:00.241: Received Data [0x040304040A00008E01] from Server [10.200.7.182:5300] by the command [0403200100029E5E]
2023-06-04 14:08:00.343: Read data from HostIP [10.200.7.182:5300] by the command [05 03 20 01 00 02 9F 8F].
2023-06-04 14:08:00.514: Received Data [0x050304040A00009EC1] from Server [10.200.7.182:5300] by the command [0503200100029F8F]
2023-06-04 14:08:00.616: Read data from HostIP [10.200.7.182:5300] by the command [06 03 20 01 00 02 9F BC].
2023-06-04 14:08:08.769: Read data from HostIP [10.200.7.182:5300] by the command [01 03 20 01 00 02 9E 0B].
2023-06-04 14:08:18.770: Read data from HostIP [10.200.7.182:5300] by the command [01 03 20 01 00 02 9E 0B].
2023-06-04 14:08:18.942: Received Data [0x010304040A0000DB01] from Server [10.200.7.182:5300] by the command [0603200100029FBC]
2023-06-04 14:08:18.942: Received Data [0x010304040A0000DB01] from Server [10.200.7.182:5300] by the command [0103200100029E0B]
2023-06-04 14:08:18.945: Received Data [0x010304040A0000DB01] from Server [10.200.7.182:5300] by the command [0103200100029E0B]
2023-06-04 14:08:19.043: Read data from HostIP [10.200.7.182:5300] by the command [02 03 20 01 00 02 9E 38].
2023-06-04 14:08:19.044: ParallelExecution time for ParallelExecutionforElectricityMeter: 20288
2023-06-04 14:08:19.045: Read data from HostIP [10.200.7.182:5300] by the command [02 03 20 01 00 02 9E 38].
2023-06-04 14:08:19.215: Received Data [0x02E801] from Server [10.200.7.182:5300] by the command [0203200100029E38]
2023-06-04 14:08:19.216: Received Data [0x02E801] from Server [10.200.7.182:5300] by the command [0203200100029E38]
2023-06-04 14:08:19.316: Read data from HostIP [10.200.7.182:5300] by the command [03 03 20 01 00 02 9F E9].
2023-06-04 14:08:19.317: Read data from HostIP [10.200.7.182:5300] by the command [03 03 20 01 00 02 9F E9].
2023-06-04 14:08:19.494: Received Data [0x0303040409000008C1] from Server [10.200.7.182:5300] by the command [0303200100029FE9]
2023-06-04 14:08:19.496: Received Data [0x0303040409000008C1] from Server [10.200.7.182:5300] by the command [0303200100029FE9]
2023-06-04 14:08:19.595: Read data from HostIP [10.200.7.182:5300] by the command [04 03 20 01 00 02 9E 5E].
2023-06-04 14:08:19.597: Read data from HostIP [10.200.7.182:5300] by the command [04 03 20 01 00 02 9E 5E].
2023-06-04 14:08:19.767: Received Data [0x027E01] from Server [10.200.7.182:5300] by the command [0403200100029E5E]
2023-06-04 14:08:19.771: Received Data [0x027E01] from Server [10.200.7.182:5300] by the command [0403200100029E5E]
2023-06-04 14:08:19.868: Read data from HostIP [10.200.7.182:5300] by the command [05 03 20 01 00 02 9F 8F].
2023-06-04 14:08:19.872: Read data from HostIP [10.200.7.182:5300] by the command [05 03 20 01 00 02 9F 8F].
2023-06-04 14:08:28.771: Read data from HostIP [10.200.7.182:5300] by the command [01 03 20 01 00 02 9E 0B].
2023-06-04 14:08:28.949: Received Data [0x010304040A0000DB01] from Server [10.200.7.182:5300] by the command [0503200100029F8F]
2023-06-04 14:08:28.950: Received Data [0x010304040A0000DB01] from Server [10.200.7.182:5300] by the command [0503200100029F8F]
2023-06-04 14:08:28.952: Received Data [0x010304040A0000DB01] from Server [10.200.7.182:5300] by the command [0103200100029E0B]
2023-06-04 14:08:29.050: Read data from HostIP [10.200.7.182:5300] by the command [06 03 20 01 00 02 9F BC].
2023-06-04 14:08:29.052: Read data from HostIP [10.200.7.182:5300] by the command [06 03 20 01 00 02 9F BC].
2023-06-04 14:08:29.053: Read data from HostIP [10.200.7.182:5300] by the command [02 03 20 01 00 02 9E 38].
2023-06-04 14:08:29.220: Received Data [0x02ADC1] from Server [10.200.7.182:5300] by the command [0603200100029FBC]
2023-06-04 14:08:29.224: Received Data [0x02ADC1] from Server [10.200.7.182:5300] by the command [0603200100029FBC]
2023-06-04 14:08:29.323: ParallelExecution time for ParallelExecutionforElectricityMeter: 20552
2023-06-04 14:08:29.326: ParallelExecution time for ParallelExecutionforElectricityMeter: 10555
2023-06-04 14:08:30.229: Received Data [0x020304040A0000E801] from Server [10.200.7.182:5300] by the command [0203200100029E38]
2023-06-04 14:08:30.331: Read data from HostIP [10.200.7.182:5300] by the command [03 03 20 01 00 02 9F E9].
2023-06-04 14:08:30.506: Received Data [0x030304040A0000F8C1] from Server [10.200.7.182:5300] by the command [0303200100029FE9]
2023-06-04 14:08:30.608: Read data from HostIP [10.200.7.182:5300] by the command [04 03 20 01 00 02 9E 5E].
2023-06-04 14:08:30.785: Received Data [0x040304040A00008E01] from Server [10.200.7.182:5300] by the command [0403200100029E5E]
2023-06-04 14:08:30.886: Read data from HostIP [10.200.7.182:5300] by the command [05 03 20 01 00 02 9F 8F].
2023-06-04 14:08:31.178: Received Data [0x050304040A00009EC1] from Server [10.200.7.182:5300] by the command [0503200100029F8F]
2023-06-04 14:08:31.279: Read data from HostIP [10.200.7.182:5300] by the command [06 03 20 01 00 02 9F BC].
2023-06-04 14:08:31.459: Received Data [0x060304040A0000ADC1] from Server [10.200.7.182:5300] by the command [0603200100029FBC]
2023-06-04 14:08:31.562: ParallelExecution time for ParallelExecutionforElectricityMeter: 2790
2023-06-04 14:08:38.771: Read data from HostIP [10.200.7.182:5300] by the command [01 03 20 01 00 02 9E 0B].
2023-06-04 14:08:38.948: Received Data [0x010304040A0000DB01] from Server [10.200.7.182:5300] by the command [0103200100029E0B]
2023-06-04 14:08:39.049: Read data from HostIP [10.200.7.182:5300] by the command [02 03 20 01 00 02 9E 38].
2023-06-04 14:08:39.225: Received Data [0x020304040B0000B9C1] from Server [10.200.7.182:5300] by the command [0203200100029E38]
2023-06-04 14:08:39.327: Read data from HostIP [10.200.7.182:5300] by the command [03 03 20 01 00 02 9F E9].
2023-06-04 14:08:48.772: Read data from HostIP [10.200.7.182:5300] by the command [01 03 20 01 00 02 9E 0B].
2023-06-04 14:08:48.949: Received Data [0x010304040A0000DB01] from Server [10.200.7.182:5300] by the command [0303200100029FE9]
2023-06-04 14:08:48.950: Received Data [0x010304040A0000DB01] from Server [10.200.7.182:5300] by the command [0103200100029E0B]
2023-06-04 14:08:49.050: Read data from HostIP [10.200.7.182:5300] by the command [04 03 20 01 00 02 9E 5E].
2023-06-04 14:08:49.051: Read data from HostIP [10.200.7.182:5300] by the command [02 03 20 01 00 02 9E 38].
2023-06-04 14:08:49.231: Received Data [0x008E000304040A0000E801] from Server [10.200.7.182:5300] by the command [0403200100029E5E]
2023-06-04 14:08:49.235: Received Data [0x008E000304040A0000E801] from Server [10.200.7.182:5300] by the command [0203200100029E38]
2023-06-04 14:08:49.332: Read data from HostIP [10.200.7.182:5300] by the command [05 03 20 01 00 02 9F 8F].
2023-06-04 14:08:49.336: Read data from HostIP [10.200.7.182:5300] by the command [03 03 20 01 00 02 9F E9].
2023-06-04 14:08:49.504: Received Data [0x050304040A00009EC1] from Server [10.200.7.182:5300] by the command [0503200100029F8F]
2023-06-04 14:08:49.505: Received Data [0x050304040A00009EC1] from Server [10.200.7.182:5300] by the command [0303200100029FE9]
2023-06-04 14:08:49.606: Read data from HostIP [10.200.7.182:5300] by the command [06 03 20 01 00 02 9F BC].
2023-06-04 14:08:49.606: Read data from HostIP [10.200.7.182:5300] by the command [04 03 20 01 00 02 9E 5E].
2023-06-04 14:08:49.784: Received Data [0x060304040A0000ADC1] from Server [10.200.7.182:5300] by the command [0603200100029FBC]
2023-06-04 14:08:49.784: Received Data [0x060304040A0000ADC1] from Server [10.200.7.182:5300] by the command [0403200100029E5E]
2023-06-04 14:08:49.886: ParallelExecution time for ParallelExecutionforElectricityMeter: 11114
2023-06-04 14:08:49.886: Read data from HostIP [10.200.7.182:5300] by the command [05 03 20 01 00 02 9F 8F].
2023-06-04 14:08:58.773: Read data from HostIP [10.200.7.182:5300] by the command [01 03 20 01 00 02 9E 0B].
2023-06-04 14:08:58.957: Received Data [0x010304040A0000DB01] from Server [10.200.7.182:5300] by the command [0103200100029E0B]
2023-06-04 14:08:58.957: Received Data [0x010304040A0000DB01] from Server [10.200.7.182:5300] by the command [0503200100029F8F]
2023-06-04 14:08:59.060: Read data from HostIP [10.200.7.182:5300] by the command [02 03 20 01 00 02 9E 38].
2023-06-04 14:08:59.060: Read data from HostIP [10.200.7.182:5300] by the command [06 03 20 01 00 02 9F BC].
2023-06-04 14:08:59.245: Received Data [0x04E8402010900800ADC1] from Server [10.200.7.182:5300] by the command [0203200100029E38]
2023-06-04 14:08:59.246: Received Data [0x04E8402010900800ADC1] from Server [10.200.7.182:5300] by the command [0603200100029FBC]
2023-06-04 14:08:59.347: Read data from HostIP [10.200.7.182:5300] by the command [03 03 20 01 00 02 9F E9].
2023-06-04 14:08:59.347: ParallelExecution time for ParallelExecutionforElectricityMeter: 10574
2023-06-04 14:08:59.525: Received Data [0x0303040409000008C1] from Server [10.200.7.182:5300] by the command [0303200100029FE9]
2023-06-04 14:08:59.626: Read data from HostIP [10.200.7.182:5300] by the command [04 03 20 01 00 02 9E 5E].
2023-06-04 14:08:59.802: Received Data [0x040304040A00008E01] from Server [10.200.7.182:5300] by the command [0403200100029E5E]
2023-06-04 14:08:59.904: Read data from HostIP [10.200.7.182:5300] by the command [05 03 20 01 00 02 9F 8F].
2023-06-04 14:09:08.776: Read data from HostIP [10.200.7.182:5300] by the command [01 03 20 01 00 02 9E 0B].
2023-06-04 14:09:08.986: Received Data [0x010304040A0000DB01] from Server [10.200.7.182:5300] by the command [0503200100029F8F]
2023-06-04 14:09:08.988: Received Data [0x010304040A0000DB01] from Server [10.200.7.182:5300] by the command [0103200100029E0B]
2023-06-04 14:09:09.089: Read data from HostIP [10.200.7.182:5300] by the command [06 03 20 01 00 02 9F BC].
2023-06-04 14:09:09.089: Read data from HostIP [10.200.7.182:5300] by the command [02 03 20 01 00 02 9E 38].
2023-06-04 14:09:09.276: Received Data [0x00AD402010900800E801] from Server [10.200.7.182:5300] by the command [0603200100029FBC]
2023-06-04 14:09:09.276: Received Data [0x00AD402010900800E801] from Server [10.200.7.182:5300] by the command [0203200100029E38]
2023-06-04 14:09:09.376: ParallelExecution time for ParallelExecutionforElectricityMeter: 10602
2023-06-04 14:09:09.377: Read data from HostIP [10.200.7.182:5300] by the command [03 03 20 01 00 02 9F E9].
2023-06-04 14:09:09.552: Received Data [0x030304040A0000F8C1] from Server [10.200.7.182:5300] by the command [0303200100029FE9]
2023-06-04 14:09:09.654: Read data from HostIP [10.200.7.182:5300] by the command [04 03 20 01 00 02 9E 5E].
2023-06-04 14:09:09.832: Received Data [0x040304040A00008E01] from Server [10.200.7.182:5300] by the command [0403200100029E5E]
2023-06-04 14:09:09.935: Read data from HostIP [10.200.7.182:5300] by the command [05 03 20 01 00 02 9F 8F].
2023-06-04 14:09:10.106: Received Data [0x050304040A00009EC1] from Server [10.200.7.182:5300] by the command [0503200100029F8F]
2023-06-04 14:09:10.207: Read data from HostIP [10.200.7.182:5300] by the command [06 03 20 01 00 02 9F BC].
2023-06-04 14:09:10.384: Received Data [0x060304040A0000ADC1] from Server [10.200.7.182:5300] by the command [0603200100029FBC]
2023-06-04 14:09:10.485: ParallelExecution time for ParallelExecutionforElectricityMeter: 1709
2023-06-04 14:09:18.778: Read data from HostIP [10.200.7.182:5300] by the command [01 03 20 01 00 02 9E 0B].
2023-06-04 14:09:19.039: Received Data [0x010304040A0000DB01] from Server [10.200.7.182:5300] by the command [0103200100029E0B]
2023-06-04 14:09:19.141: Read data from HostIP [10.200.7.182:5300] by the command [02 03 20 01 00 02 9E 38].
2023-06-04 14:09:28.780: Read data from HostIP [10.200.7.182:5300] by the command [01 03 20 01 00 02 9E 0B].
2023-06-04 14:09:29.087: Received Data [0x010304040A0000DB01] from Server [10.200.7.182:5300] by the command [0203200100029E38]
2023-06-04 14:09:29.088: Received Data [0x010304040A0000DB01] from Server [10.200.7.182:5300] by the command [0103200100029E0B]
2023-06-04 14:09:29.189: Read data from HostIP [10.200.7.182:5300] by the command [03 03 20 01 00 02 9F E9].
2023-06-04 14:09:29.189: Read data from HostIP [10.200.7.182:5300] by the command [02 03 20 01 00 02 9E 38].
2023-06-04 14:09:29.368: Received Data [0x04B9812010900800F8C1] from Server [10.200.7.182:5300] by the command [0203200100029E38]
2023-06-04 14:09:29.373: Received Data [0x04B9812010900800F8C1] from Server [10.200.7.182:5300] by the command [0303200100029FE9]
2023-06-04 14:09:29.470: Read data from HostIP [10.200.7.182:5300] by the command [03 03 20 01 00 02 9F E9].
2023-06-04 14:09:29.474: Read data from HostIP [10.200.7.182:5300] by the command [04 03 20 01 00 02 9E 5E].
2023-06-04 14:09:29.658: Received Data [0x0420C004040A00008E01] from Server [10.200.7.182:5300] by the command [0303200100029FE9]
2023-06-04 14:09:29.658: Received Data [0x0420C004040A00008E01] from Server [10.200.7.182:5300] by the command [0403200100029E5E]
2023-06-04 14:09:29.760: Read data from HostIP [10.200.7.182:5300] by the command [05 03 20 01 00 02 9F 8F].
2023-06-04 14:09:29.760: Read data from HostIP [10.200.7.182:5300] by the command [04 03 20 01 00 02 9E 5E].
2023-06-04 14:09:29.946: Received Data [0x008E000304040B0000CF01] from Server [10.200.7.182:5300] by the command [0403200100029E5E]
2023-06-04 14:09:29.946: Received Data [0x008E000304040B0000CF01] from Server [10.200.7.182:5300] by the command [0503200100029F8F]
2023-06-04 14:09:30.046: Read data from HostIP [10.200.7.182:5300] by the command [05 03 20 01 00 02 9F 8F].
2023-06-04 14:09:30.047: Read data from HostIP [10.200.7.182:5300] by the command [06 03 20 01 00 02 9F BC].
2023-06-04 14:09:30.701: Received Data [0x] from Server [10.200.7.182:5300] by the command [0503200100029F8F]
2023-06-04 14:09:30.729: Received Data [0x060304040B0000FC01] from Server [10.200.7.182:5300] by the command [0603200100029FBC]
2023-06-04 14:09:30.802: Read data from HostIP [10.200.7.182:5300] by the command [06 03 20 01 00 02 9F BC].
2023-06-04 14:09:30.830: ParallelExecution time for ParallelExecutionforElectricityMeter: 12052
2023-06-04 14:09:30.980: Received Data [0x060304040B0000FC01] from Server [10.200.7.182:5300] by the command [0603200100029FBC]
2023-06-04 14:09:31.082: ParallelExecution time for ParallelExecutionforElectricityMeter: 2301
2023-06-04 14:09:38.785: Read data from HostIP [10.200.7.182:5300] by the command [01 03 20 01 00 02 9E 0B].
2023-06-04 14:09:38.956: Received Data [0x010304040B00008AC1] from Server [10.200.7.182:5300] by the command [0103200100029E0B]
2023-06-04 14:09:39.058: Read data from HostIP [10.200.7.182:5300] by the command [02 03 20 01 00 02 9E 38].
2023-06-04 14:09:39.228: Received Data [0x020304040B0000B9C1] from Server [10.200.7.182:5300] by the command [0203200100029E38]
2023-06-04 14:09:39.330: Read data from HostIP [10.200.7.182:5300] by the command [03 03 20 01 00 02 9F E9].
2023-06-04 14:09:39.508: Received Data [0x030304040A0000F8C1] from Server [10.200.7.182:5300] by the command [0303200100029FE9]
2023-06-04 14:09:39.609: Read data from HostIP [10.200.7.182:5300] by the command [04 03 20 01 00 02 9E 5E].
2023-06-04 14:09:48.786: Read data from HostIP [10.200.7.182:5300] by the command [01 03 20 01 00 02 9E 0B].
2023-06-04 14:09:58.789: Read data from HostIP [10.200.7.182:5300] by the command [01 03 20 01 00 02 9E 0B].
2023-06-04 14:09:58.963: Received Data [0x010304040B00008AC1] from Server [10.200.7.182:5300] by the command [0103200100029E0B]
2023-06-04 14:09:58.964: Received Data [0x010304040B00008AC1] from Server [10.200.7.182:5300] by the command [0403200100029E5E]
2023-06-04 14:09:58.965: Received Data [0x010304040B00008AC1] from Server [10.200.7.182:5300] by the command [0103200100029E0B]
2023-06-04 14:09:59.065: Read data from HostIP [10.200.7.182:5300] by the command [02 03 20 01 00 02 9E 38].
2023-06-04 14:09:59.065: Read data from HostIP [10.200.7.182:5300] by the command [05 03 20 01 00 02 9F 8F].
2023-06-04 14:09:59.065: Read data from HostIP [10.200.7.182:5300] by the command [02 03 20 01 00 02 9E 38].
2023-06-04 14:09:59.242: Received Data [0x050304040B0000CF01] from Server [10.200.7.182:5300] by the command [0203200100029E38]
2023-06-04 14:09:59.243: Received Data [0x050304040B0000CF01] from Server [10.200.7.182:5300] by the command [0503200100029F8F]
2023-06-04 14:09:59.343: Read data from HostIP [10.200.7.182:5300] by the command [03 03 20 01 00 02 9F E9].
2023-06-04 14:09:59.344: Read data from HostIP [10.200.7.182:5300] by the command [06 03 20 01 00 02 9F BC].
2023-06-04 14:09:59.528: Received Data [0x0028A004040B0000FC01] from Server [10.200.7.182:5300] by the command [0303200100029FE9]
2023-06-04 14:09:59.529: Received Data [0x0028A004040B0000FC01] from Server [10.200.7.182:5300] by the command [0603200100029FBC]
2023-06-04 14:09:59.630: Read data from HostIP [10.200.7.182:5300] by the command [04 03 20 01 00 02 9E 5E].
2023-06-04 14:09:59.631: ParallelExecution time for ParallelExecutionforElectricityMeter: 20845
2023-06-04 14:09:59.804: Received Data [0x040304040B0000DFC1] from Server [10.200.7.182:5300] by the command [0403200100029E5E]
2023-06-04 14:09:59.906: Read data from HostIP [10.200.7.182:5300] by the command [05 03 20 01 00 02 9F 8F].
2023-06-04 14:10:00.082: Received Data [0x050304040B0000CF01] from Server [10.200.7.182:5300] by the command [0503200100029F8F]
2023-06-04 14:10:00.185: Read data from HostIP [10.200.7.182:5300] by the command [06 03 20 01 00 02 9F BC].
2023-06-04 14:10:00.241: Received Data [0x020304040B0000B9C1] from Server [10.200.7.182:5300] by the command [0203200100029E38]
2023-06-04 14:10:00.343: Read data from HostIP [10.200.7.182:5300] by the command [03 03 20 01 00 02 9F E9].
2023-06-04 14:10:00.460: Received Data [0x060304040B0000FC01] from Server [10.200.7.182:5300] by the command [0603200100029FBC]
2023-06-04 14:10:00.521: Received Data [0x030304040B0000A901] from Server [10.200.7.182:5300] by the command [0303200100029FE9]
2023-06-04 14:10:00.561: ParallelExecution time for ParallelExecutionforElectricityMeter: 1771
2023-06-04 14:10:00.622: Read data from HostIP [10.200.7.182:5300] by the command [04 03 20 01 00 02 9E 5E].
2023-06-04 14:10:08.804: Read data from HostIP [10.200.7.182:5300] by the command [01 03 20 01 00 02 9E 0B].
2023-06-04 14:10:18.805: Read data from HostIP [10.200.7.182:5300] by the command [01 03 20 01 00 02 9E 0B].
2023-06-04 14:10:18.980: Received Data [0x010304040A0000DB01] from Server [10.200.7.182:5300] by the command [0103200100029E0B]
2023-06-04 14:10:18.981: Received Data [0x010304040A0000DB01] from Server [10.200.7.182:5300] by the command [0103200100029E0B]
2023-06-04 14:10:18.982: Received Data [0x010304040A0000DB01] from Server [10.200.7.182:5300] by the command [0403200100029E5E]
2023-06-04 14:10:19.082: Read data from HostIP [10.200.7.182:5300] by the command [02 03 20 01 00 02 9E 38].
2023-06-04 14:10:19.082: Read data from HostIP [10.200.7.182:5300] by the command [02 03 20 01 00 02 9E 38].
2023-06-04 14:10:19.083: Read data from HostIP [10.200.7.182:5300] by the command [05 03 20 01 00 02 9F 8F].
2023-06-04 14:10:20.259: Received Data [0x050304040B0000CF01] from Server [10.200.7.182:5300] by the command [0203200100029E38]
2023-06-04 14:10:20.260: Received Data [0x050304040B0000CF01] from Server [10.200.7.182:5300] by the command [0203200100029E38]
2023-06-04 14:10:20.262: Received Data [0x050304040B0000CF01] from Server [10.200.7.182:5300] by the command [0503200100029F8F]
2023-06-04 14:10:20.360: Read data from HostIP [10.200.7.182:5300] by the command [03 03 20 01 00 02 9F E9].
2023-06-04 14:10:20.361: Read data from HostIP [10.200.7.182:5300] by the command [03 03 20 01 00 02 9F E9].
2023-06-04 14:10:20.363: Read data from HostIP [10.200.7.182:5300] by the command [06 03 20 01 00 02 9F BC].
2023-06-04 14:10:20.537: Received Data [0x02F891] from Server [10.200.7.182:5300] by the command [0303200100029FE9]
2023-06-04 14:10:20.539: Received Data [0x02F891] from Server [10.200.7.182:5300] by the command [0303200100029FE9]
2023-06-04 14:10:20.638: Read data from HostIP [10.200.7.182:5300] by the command [04 03 20 01 00 02 9E 5E].
2023-06-04 14:10:20.640: Read data from HostIP [10.200.7.182:5300] by the command [04 03 20 01 00 02 9E 5E].
2023-06-04 14:10:20.815: Received Data [0x02DFC1] from Server [10.200.7.182:5300] by the command [0403200100029E5E]
2023-06-04 14:10:20.816: Received Data [0x02DFC1] from Server [10.200.7.182:5300] by the command [0403200100029E5E]
2023-06-04 14:10:20.916: Read data from HostIP [10.200.7.182:5300] by the command [05 03 20 01 00 02 9F 8F].
2023-06-04 14:10:20.917: Read data from HostIP [10.200.7.182:5300] by the command [05 03 20 01 00 02 9F 8F].
2023-06-04 14:10:21.086: Received Data [0x00CF01] from Server [10.200.7.182:5300] by the command [0503200100029F8F]
2023-06-04 14:10:21.087: Received Data [0x00CF01] from Server [10.200.7.182:5300] by the command [0503200100029F8F]
2023-06-04 14:10:21.189: Read data from HostIP [10.200.7.182:5300] by the command [06 03 20 01 00 02 9F BC].
2023-06-04 14:10:21.189: Read data from HostIP [10.200.7.182:5300] by the command [06 03 20 01 00 02 9F BC].
2023-06-04 14:10:21.359: Received Data [0x02FC01] from Server [10.200.7.182:5300] by the command [0603200100029FBC]
2023-06-04 14:10:21.363: Received Data [0x02FC01] from Server [10.200.7.182:5300] by the command [0603200100029FBC]
2023-06-04 14:10:21.462: ParallelExecution time for ParallelExecutionforElectricityMeter: 2655
2023-06-04 14:10:21.466: ParallelExecution time for ParallelExecutionforElectricityMeter: 12660
2023-06-04 14:10:21.560: Received Data [0x060304040B0000FC01] from Server [10.200.7.182:5300] by the command [0603200100029FBC]
2023-06-04 14:10:21.661: ParallelExecution time for ParallelExecutionforElectricityMeter: 32873
2023-06-04 14:10:28.807: Read data from HostIP [10.200.7.182:5300] by the command [01 03 20 01 00 02 9E 0B].
2023-06-04 14:10:38.819: Read data from HostIP [10.200.7.182:5300] by the command [01 03 20 01 00 02 9E 0B].
2023-06-04 14:10:48.821: Read data from HostIP [10.200.7.182:5300] by the command [01 03 20 01 00 02 9E 0B].
2023-06-04 14:10:48.998: Received Data [0x010304040B00008AC1] from Server [10.200.7.182:5300] by the command [0103200100029E0B]
2023-06-04 14:10:48.999: Received Data [0x010304040B00008AC1] from Server [10.200.7.182:5300] by the command [0103200100029E0B]
2023-06-04 14:10:49.000: Received Data [0x010304040B00008AC1] from Server [10.200.7.182:5300] by the command [0103200100029E0B]
2023-06-04 14:10:49.099: Read data from HostIP [10.200.7.182:5300] by the command [02 03 20 01 00 02 9E 38].
2023-06-04 14:10:49.101: Read data from HostIP [10.200.7.182:5300] by the command [02 03 20 01 00 02 9E 38].
2023-06-04 14:10:49.101: Read data from HostIP [10.200.7.182:5300] by the command [02 03 20 01 00 02 9E 38].
2023-06-04 14:10:49.269: Received Data [0x02B9C1] from Server [10.200.7.182:5300] by the command [0203200100029E38]
2023-06-04 14:10:49.274: Received Data [0x02B9C1] from Server [10.200.7.182:5300] by the command [0203200100029E38]
2023-06-04 14:10:49.371: Read data from HostIP [10.200.7.182:5300] by the command [03 03 20 01 00 02 9F E9].
2023-06-04 14:10:49.375: Read data from HostIP [10.200.7.182:5300] by the command [03 03 20 01 00 02 9F E9].
2023-06-04 14:10:50.281: Received Data [0x020304040B0000B9C1] from Server [10.200.7.182:5300] by the command [0303200100029FE9]
2023-06-04 14:10:50.282: Received Data [0x020304040B0000B9C1] from Server [10.200.7.182:5300] by the command [0303200100029FE9]
2023-06-04 14:10:50.282: Received Data [0x020304040B0000B9C1] from Server [10.200.7.182:5300] by the command [0203200100029E38]
2023-06-04 14:10:50.383: Read data from HostIP [10.200.7.182:5300] by the command [04 03 20 01 00 02 9E 5E].
2023-06-04 14:10:50.383: Read data from HostIP [10.200.7.182:5300] by the command [04 03 20 01 00 02 9E 5E].
2023-06-04 14:10:50.384: Read data from HostIP [10.200.7.182:5300] by the command [03 03 20 01 00 02 9F E9].
2023-06-04 14:10:50.601: Received Data [0x030304040A0000F8C1] from Server [10.200.7.182:5300] by the command [0403200100029E5E]
2023-06-04 14:10:50.602: Received Data [0x030304040A0000F8C1] from Server [10.200.7.182:5300] by the command [0303200100029FE9]
2023-06-04 14:10:50.703: Read data from HostIP [10.200.7.182:5300] by the command [05 03 20 01 00 02 9F 8F].
2023-06-04 14:10:50.704: Read data from HostIP [10.200.7.182:5300] by the command [04 03 20 01 00 02 9E 5E].
2023-06-04 14:10:50.888: Received Data [0x00CF2010D00800DFC1] from Server [10.200.7.182:5300] by the command [0503200100029F8F]
2023-06-04 14:10:50.889: Received Data [0x00CF2010D00800DFC1] from Server [10.200.7.182:5300] by the command [0403200100029E5E]
2023-06-04 14:10:50.989: Read data from HostIP [10.200.7.182:5300] by the command [06 03 20 01 00 02 9F BC].
2023-06-04 14:10:50.990: Read data from HostIP [10.200.7.182:5300] by the command [05 03 20 01 00 02 9F 8F].
2023-06-04 14:10:51.174: Received Data [0x044FC004040B0000FC01] from Server [10.200.7.182:5300] by the command [0503200100029F8F]
2023-06-04 14:10:51.176: Received Data [0x044FC004040B0000FC01] from Server [10.200.7.182:5300] by the command [0603200100029FBC]
2023-06-04 14:10:51.276: Read data from HostIP [10.200.7.182:5300] by the command [06 03 20 01 00 02 9F BC].
2023-06-04 14:10:51.277: ParallelExecution time for ParallelExecutionforElectricityMeter: 12457
2023-06-04 14:10:51.451: Received Data [0x060304040B0000FC01] from Server [10.200.7.182:5300] by the command [0603200100029FBC]
2023-06-04 14:10:51.553: ParallelExecution time for ParallelExecutionforElectricityMeter: 2732
2023-06-04 14:10:51.662: Received Data [0x040304040A00008E01] from Server [10.200.7.182:5300] by the command [0403200100029E5E]
2023-06-04 14:10:51.763: Read data from HostIP [10.200.7.182:5300] by the command [05 03 20 01 00 02 9F 8F].
