2023-06-18 13:36:23.790: ExecutionforChilledWaterFlowMeter started
2023-06-18 13:36:23.808: Try to read data from host [10.200.2.88:5300] by the command [5B 03 00 01 00 24 18 EB].
2023-06-18 13:36:24.171: Arrived data length:[77], Data(Hex):[5B 03 48 41 00 60 42 3D F7 66 2D 3D 28 8E 19 44 B8 D3 E8 00 0A CE 27 3F 6E C8 8B FF FF 2E 29 BF 3D 00 E8 00 00 67 0F 3D D1 F2 A1 FF FF 2E DD BD 4C 9C 73 00 0A 95 A5 3E 46 0E 47 00 00 5C 63 3E 1B 62 60 41 9F 9C 56 41 82 E4 00 BB 9D] from host [10.200.2.88:5300] by command [5B 03 00 01 00 24 18 EB]
2023-06-18 13:36:26.481: Try to read data from host [10.200.2.88:5300] by the command [5A 03 00 01 00 24 19 3A].
2023-06-18 13:36:26.842: Arrived data length:[77], Data(Hex):[5A 03 48 00 00 00 00 00 00 00 00 00 00 22 5E 44 B8 8C 53 00 44 8F 82 3F 1F 41 33 FF FF 38 20 BE DA 00 8A 00 00 84 E0 3F 54 5F CE FF FF 14 38 BF 4A CD 87 00 43 9C CB BF 4D A0 BD 00 00 92 B8 3F 1E B0 AA 41 85 FF B6 41 86 39 00 55 34] from host [10.200.2.88:5300] by command [5A 03 00 01 00 24 19 3A]
2023-06-18 13:36:29.472: Try to read data from host [10.200.2.88:5300] by the command [5D 03 00 01 00 24 18 8D].
2023-06-18 13:36:30.584: SocketException: [TimedOut:A connection attempt failed because the connected party did not properly respond after a period of time, or established connection failed because connected host has failed to respond] 
2023-06-18 13:36:31.186: Read empty data from remote host [10.200.2.88:5300] by the command [5D 03 00 01 00 24 18 8D]
2023-06-18 13:36:33.189: Try to read data from host [10.200.2.88:5300] by the command [5E 03 00 01 00 24 18 BE].
2023-06-18 13:36:33.555: Arrived data length:[77], Data(Hex):[5E 03 48 00 00 00 00 00 00 00 00 00 00 C4 89 44 B8 28 E5 00 4F E6 11 3F 52 FF F7 FF FF A0 97 BF 72 01 79 00 00 D5 14 3F 37 26 76 FF FF 21 38 BF 30 28 DB 00 4F 3D 87 3F 60 DB 04 00 00 01 B4 3E D0 49 B8 41 86 C6 A2 41 85 39 00 B0 E6] from host [10.200.2.88:5300] by command [5E 03 00 01 00 24 18 BE]
2023-06-18 13:36:35.840: Try to read data from host [10.200.2.88:5300] by the command [5C 03 00 01 00 24 19 5C].
2023-06-18 13:36:36.209: Arrived data length:[77], Data(Hex):[5C 03 48 00 00 00 00 00 00 00 00 00 00 3B BF 44 B8 3A DD 00 14 D0 61 3F 02 B8 EA FF FF 4C D7 BE 05 00 BF 00 00 99 B2 3E E7 DD D7 FF FF 81 F9 BE BA F3 C7 00 13 ED 75 3E C2 22 E8 00 00 12 00 3F 51 AB B2 41 99 4A 7E 41 87 56 00 89 85] from host [10.200.2.88:5300] by command [5C 03 00 01 00 24 19 5C]
2023-06-18 13:36:38.481: Try to read data from host [10.200.2.88:5300] by the command [5F 03 00 01 00 24 19 6F].
2023-06-18 13:36:38.856: Arrived data length:[77], Data(Hex):[5F 03 48 BF AB 6C 14 BD 21 C4 40 BC BA 02 A7 44 AB 09 0E 00 02 35 81 3D A0 00 00 00 00 A7 24 BA B5 00 6B 00 00 FF 7E 3F 51 FB 9A FF FF 7F 07 BF 63 09 0E 00 02 4D E8 3D 98 04 D2 00 00 63 F0 3F 34 0D 64 41 C3 80 EA 41 8A E4 00 A1 C1] from host [10.200.2.88:5300] by command [5F 03 00 01 00 24 19 6F]
2023-06-18 13:36:40.865: ExecutionforChilledWaterFlowMeter time : 17074

2023-06-18 13:40:54.597: ExecutionforChilledWaterFlowMeter started
2023-06-18 13:40:54.602: Try to read data from host [10.200.2.88:5300] by the command [5B 03 00 01 00 24 18 EB].
2023-06-18 13:40:54.959: Arrived data length:[77], Data(Hex):[5B 03 48 41 00 0F 58 3D F6 71 A3 3D 28 91 C5 44 B8 D3 E9 00 0A FF EA 3F 08 C8 8B FF FF 2E 29 BF 3D 00 E8 00 00 E9 98 3D E3 F2 A1 FF FF 2E DD BD 4C 9C 73 00 0A D7 24 3F 4B 0E 47 00 00 9D A1 3E 24 71 75 41 9F D4 82 41 82 E4 00 40 FB] from host [10.200.2.88:5300] by command [5B 03 00 01 00 24 18 EB]
2023-06-18 13:40:57.043: Try to read data from host [10.200.2.88:5300] by the command [5A 03 00 01 00 24 19 3A].
2023-06-18 13:40:57.404: Arrived data length:[77], Data(Hex):[5A 03 48 00 00 00 00 00 00 00 00 00 00 22 C7 44 B8 8C 53 00 44 8F 82 3F 1F 41 33 FF FF 38 20 BE DA 00 8A 00 00 84 E0 3F 54 5F CE FF FF 14 38 BF 4A CD 87 00 43 9C CB BF 4D A0 BD 00 00 92 B8 3F 1E E8 CA 41 85 17 24 41 87 1D 00 47 DE] from host [10.200.2.88:5300] by command [5A 03 00 01 00 24 19 3A]
2023-06-18 13:40:59.669: Try to read data from host [10.200.2.88:5300] by the command [5D 03 00 01 00 24 18 8D].
2023-06-18 13:41:00.032: Arrived data length:[77], Data(Hex):[5D 03 48 C1 AC EA 3D 3D 05 68 A0 BD 12 A9 BF 44 B6 F6 CE 00 49 56 6C 3D F4 BB A0 FF FE A8 10 BF 20 00 79 00 00 2F 97 3E F2 56 B7 FF FF 0D D9 BF 42 B2 6E 00 48 17 03 BF 02 A9 C3 00 00 8C E6 3E 6C 3D A0 41 81 23 D4 41 84 00 00 42 F7] from host [10.200.2.88:5300] by command [5D 03 00 01 00 24 18 8D]
2023-06-18 13:41:02.068: Try to read data from host [10.200.2.88:5300] by the command [5E 03 00 01 00 24 18 BE].
2023-06-18 13:41:02.433: Arrived data length:[77], Data(Hex):[5E 03 48 00 00 00 00 00 00 00 00 00 00 C4 56 44 B8 28 E5 00 4F E6 11 3F 52 FF F7 FF FF A0 97 BF 72 01 79 00 00 D5 14 3F 37 26 76 FF FF 21 38 BF 30 28 DB 00 4F 3D 87 3F 60 DB 04 00 00 01 B4 3E D0 82 04 41 86 0D 4C 41 87 72 00 1E 2F] from host [10.200.2.88:5300] by command [5E 03 00 01 00 24 18 BE]
2023-06-18 13:41:04.697: Try to read data from host [10.200.2.88:5300] by the command [5C 03 00 01 00 24 19 5C].
2023-06-18 13:41:05.067: Arrived data length:[77], Data(Hex):[5C 03 48 00 00 00 00 00 00 00 00 00 00 3F 49 44 B8 3A DD 00 14 D0 61 3F 02 B8 EA FF FF 4C D7 BE 05 00 BF 00 00 99 B2 3E E7 DD D7 FF FF 81 F9 BE BA F3 C7 00 13 ED 75 3E C2 22 E8 00 00 12 00 3F 51 79 33 41 9D 49 DA 41 87 00 00 01 ED] from host [10.200.2.88:5300] by command [5C 03 00 01 00 24 19 5C]
2023-06-18 13:41:07.330: Try to read data from host [10.200.2.88:5300] by the command [5F 03 00 01 00 24 19 6F].
2023-06-18 13:41:07.703: Arrived data length:[77], Data(Hex):[5F 03 48 BF B1 98 B2 BD 25 FF D7 BC C1 06 76 44 AB 09 0E 00 02 35 81 3D A0 00 00 00 00 A7 24 BA B5 00 6B 00 00 FF 7E 3F 51 FB 9A FF FF 46 F1 BF 64 09 0E 00 02 4D E8 3D 98 04 D2 00 00 2B DA 3F 35 E3 1E 41 C2 09 FC 41 8B AC 00 DB 87] from host [10.200.2.88:5300] by command [5F 03 00 01 00 24 19 6F]
2023-06-18 13:41:09.711: ExecutionforChilledWaterFlowMeter time : 15113

2023-06-18 13:45:59.755: ExecutionforChilledWaterFlowMeter started
2023-06-18 13:45:59.760: Try to read data from host [10.200.2.88:5300] by the command [5B 03 00 01 00 24 18 EB].
2023-06-18 13:46:00.136: Arrived data length:[77], Data(Hex):[5B 03 48 41 00 52 5B 3D F6 E5 44 3D 27 93 DC 44 B8 D3 EA 00 0A 23 12 3E 58 C8 8B FF FF 2E 29 BF 3D 00 E8 00 00 A5 E9 3D F8 F2 A1 FF FF 2E DD BD 4C 9C 74 00 0A C0 07 3E F1 0E 47 00 00 FB B7 3E 2E 95 3F 41 9F D8 84 41 82 E4 00 47 17] from host [10.200.2.88:5300] by command [5B 03 00 01 00 24 18 EB]
2023-06-18 13:46:02.181: Try to read data from host [10.200.2.88:5300] by the command [5A 03 00 01 00 24 19 3A].
2023-06-18 13:46:02.561: Arrived data length:[77], Data(Hex):[5A 03 48 00 00 00 00 00 00 00 00 00 00 24 CE 44 B8 8C 53 00 44 8F 82 3F 1F 41 33 FF FF 38 20 BE DA 00 8A 00 00 84 E0 3F 54 5F CE FF FF 14 38 BF 4A CD 87 00 43 9C CB BF 4D A0 BD 00 00 92 B8 3F 1E B8 D0 41 85 38 F0 41 87 39 00 C4 B3] from host [10.200.2.88:5300] by command [5A 03 00 01 00 24 19 3A]
2023-06-18 13:46:04.830: Try to read data from host [10.200.2.88:5300] by the command [5D 03 00 01 00 24 18 8D].
2023-06-18 13:46:05.202: Arrived data length:[77], Data(Hex):[5D 03 48 C1 A8 63 6A 3D 11 35 7F BD 0F AA 6B 44 B6 F6 CE 00 49 56 6C 3D F4 BB 9E FF FE 31 6A BE E3 00 79 00 00 C0 3B 3E F3 56 B7 FF FF 0D D9 BF 42 B2 6C 00 48 0F 48 BE A6 A9 C3 00 00 AE 46 3E 6F E3 E2 41 80 1B AC 41 84 C8 00 9B 90] from host [10.200.2.88:5300] by command [5D 03 00 01 00 24 18 8D]
2023-06-18 13:46:07.211: Try to read data from host [10.200.2.88:5300] by the command [5E 03 00 01 00 24 18 BE].
2023-06-18 13:46:07.572: Arrived data length:[77], Data(Hex):[5E 03 48 00 00 00 00 00 00 00 00 00 00 C6 AD 44 B8 28 E5 00 4F E6 11 3F 52 FF F7 FF FF A0 97 BF 72 01 79 00 00 D5 14 3F 37 26 76 FF FF 21 38 BF 30 28 DB 00 4F 3D 87 3F 60 DB 04 00 00 01 B4 3E D0 7B F2 41 86 A4 F0 41 86 C7 00 2E 00] from host [10.200.2.88:5300] by command [5E 03 00 01 00 24 18 BE]
2023-06-18 13:46:09.846: Try to read data from host [10.200.2.88:5300] by the command [5C 03 00 01 00 24 19 5C].
2023-06-18 13:46:10.210: Arrived data length:[77], Data(Hex):[5C 03 48 00 00 00 00 00 00 00 00 00 00 42 5A 44 B8 3A DD 00 14 D0 61 3F 02 B8 EA FF FF 4C D7 BE 05 00 BF 00 00 99 B2 3E E7 DD D7 FF FF 81 F9 BE BA F3 C7 00 13 ED 75 3E C2 22 E8 00 00 12 00 3F 51 F2 C2 41 A3 31 24 41 87 AB 00 13 98] from host [10.200.2.88:5300] by command [5C 03 00 01 00 24 19 5C]
2023-06-18 13:46:12.487: Try to read data from host [10.200.2.88:5300] by the command [5F 03 00 01 00 24 19 6F].
2023-06-18 13:46:12.854: Arrived data length:[77], Data(Hex):[5F 03 48 BF AB 11 FC BD 22 FC 65 BC BA 09 BC 44 AB 09 0E 00 02 35 81 3D A0 00 00 00 00 A7 24 BA B5 00 6B 00 00 FF 7E 3F 51 FB 9A FF FF 2C A7 BF 65 09 0E 00 02 4D E8 3D 98 04 D2 00 00 11 90 3F 36 89 27 41 C3 D3 4A 41 8A E4 00 88 85] from host [10.200.2.88:5300] by command [5F 03 00 01 00 24 19 6F]
2023-06-18 13:46:15.021: ExecutionforChilledWaterFlowMeter time : 15265

