2023-06-18 08:46:42.363: ExecutionforElectricityMeter started
2023-06-18 08:46:42.379: Try to read data from host [10.200.2.83:5300] by the command [01 03 00 01 00 1F 55 C2].
2023-06-18 08:46:42.722: Arrived data length:[67], Data(Hex):[01 03 3E 00 00 00 00 00 00 00 00 00 00 00 00 00 00 00 00 00 00 00 00 00 00 00 00 28 F9 28 E6 28 EF 00 00 00 00 00 00 01 77 03 E8 01 B2 00 2F 13 86 00 0B 5C 67 00 00 00 01 00 06 35 61 00 00 00 10 06 93] from host [10.200.2.83:5300] by command [01 03 00 01 00 1F 55 C2]
2023-06-18 08:46:45.648: Try to read data from host [10.200.2.83:5300] by the command [02 03 00 01 00 1F 55 F1].
2023-06-18 08:46:46.016: Arrived data length:[67], Data(Hex):[02 03 3E 00 00 00 00 00 00 00 00 00 00 00 00 00 00 00 00 00 00 00 00 00 00 00 00 28 F8 28 F1 28 F4 00 00 00 00 00 00 01 77 03 E8 01 DE 00 2D 13 86 00 18 96 E9 00 00 00 0C 00 0D 4A 96 00 00 00 1D 3C 21] from host [10.200.2.83:5300] by command [02 03 00 01 00 1F 55 F1]
2023-06-18 08:46:48.053: Try to read data from host [10.200.2.83:5300] by the command [03 03 00 01 00 1F 54 20].
2023-06-18 08:46:48.396: Arrived data length:[67], Data(Hex):[03 03 3E 00 00 00 00 00 00 00 00 00 00 00 00 00 00 00 00 00 00 00 00 00 00 00 00 28 F1 28 E7 28 EC 00 00 00 00 00 00 01 87 03 E8 01 B2 00 00 13 86 00 22 69 5B 00 00 00 01 00 12 76 36 00 00 00 38 69 D6] from host [10.200.2.83:5300] by command [03 03 00 01 00 1F 54 20]
2023-06-18 08:46:50.406: Try to read data from host [10.200.2.83:5300] by the command [04 03 00 01 00 1F 55 97].
2023-06-18 08:46:50.752: Arrived data length:[67], Data(Hex):[04 03 3E 00 00 00 00 00 00 00 00 00 00 00 00 00 00 00 00 00 00 00 00 00 00 00 00 28 F6 28 EA 28 F0 00 00 00 00 00 00 01 A0 03 E8 01 B8 00 2D 13 86 00 13 81 20 00 00 00 02 00 09 D7 35 00 00 00 11 DA 0E] from host [10.200.2.83:5300] by command [04 03 00 01 00 1F 55 97]
2023-06-18 08:46:52.768: Try to read data from host [10.200.2.83:5300] by the command [05 03 00 01 00 1F 54 46].
2023-06-18 08:46:53.117: Arrived data length:[67], Data(Hex):[05 03 3E 00 00 00 00 00 00 00 00 00 00 00 00 00 00 00 00 00 00 00 00 00 00 00 00 28 F7 28 E9 28 F0 00 00 00 00 00 00 01 A7 03 E8 01 BC 00 29 13 85 00 16 96 D8 00 00 00 04 00 11 87 CE 00 00 00 15 B8 6F] from host [10.200.2.83:5300] by command [05 03 00 01 00 1F 54 46]
2023-06-18 08:46:55.171: Try to read data from host [10.200.2.83:5300] by the command [06 03 00 01 00 1F 54 75].
2023-06-18 08:46:55.537: Arrived data length:[67], Data(Hex):[06 03 3E 00 00 00 00 00 00 00 00 00 00 00 00 00 00 00 00 00 00 00 00 00 00 00 00 28 F7 28 E5 28 EE 00 00 00 00 00 00 01 80 03 E8 02 08 00 2B 13 85 00 18 56 81 00 00 00 10 00 12 49 DE 00 00 00 20 56 2B] from host [10.200.2.83:5300] by command [06 03 00 01 00 1F 54 75]
2023-06-18 08:46:57.582: Try to read data from host [10.200.2.83:5300] by the command [07 03 00 01 00 1F 55 A4].
2023-06-18 08:46:57.937: Arrived data length:[67], Data(Hex):[07 03 3E 00 00 00 00 00 00 00 00 00 00 00 00 00 00 00 00 00 00 00 00 00 00 00 00 28 ED 28 E7 28 EA 00 00 00 00 00 00 01 80 03 E8 01 E0 00 2B 13 84 00 0F F4 EE 00 00 00 09 00 0B F6 99 00 00 00 17 78 FC] from host [10.200.2.83:5300] by command [07 03 00 01 00 1F 55 A4]
2023-06-18 08:46:59.980: ExecutionforElectricityMeter time : 17616

2023-06-18 08:46:59.984: ExecutionforElectricityMeter started
2023-06-18 08:46:59.986: Try to read data from host [10.200.2.84:5300] by the command [08 03 00 01 00 1F 55 5B].
2023-06-18 08:47:00.381: Arrived data length:[67], Data(Hex):[08 03 3E 03 75 02 FE 03 26 09 9B 00 14 00 0E 00 48 00 6C 03 75 02 FE 03 2A 09 9D 09 18 09 19 09 19 0E F3 0C F0 0D B5 03 E7 03 E7 03 E4 03 E7 13 84 00 9B C9 DF 00 00 00 00 00 26 25 0E 00 00 DD 22 BC A7] from host [10.200.2.84:5300] by command [08 03 00 01 00 1F 55 5B]
2023-06-18 08:47:02.414: Try to read data from host [10.200.2.84:5300] by the command [13 03 00 01 00 1F 56 B0].
2023-06-18 08:47:02.809: Arrived data length:[67], Data(Hex):[13 03 3E 00 04 00 04 00 07 00 11 00 0A 00 0A 00 0C 00 20 00 0B 00 0B 00 0E 00 25 09 1A 09 17 09 17 00 30 00 31 00 3D 01 B6 01 76 02 17 01 C9 13 84 00 09 3B B3 00 00 00 00 00 07 56 92 00 00 00 22 02 67] from host [10.200.2.84:5300] by command [13 03 00 01 00 1F 56 B0]
2023-06-18 08:47:04.825: Try to read data from host [10.200.2.84:5300] by the command [14 03 00 01 00 1F 57 07].
2023-06-18 08:47:05.218: Arrived data length:[67], Data(Hex):[14 03 3E 00 A6 00 81 00 7E 01 A7 00 5C 00 75 00 53 01 26 00 BE 00 AF 00 97 02 03 09 19 09 18 09 18 03 38 02 F0 02 92 03 69 02 E5 03 41 03 34 13 84 00 0A F1 04 00 00 00 00 00 05 4E 07 00 00 02 97 94 52] from host [10.200.2.84:5300] by command [14 03 00 01 00 1F 57 07]
2023-06-18 08:47:07.229: Try to read data from host [10.200.2.84:5300] by the command [15 03 00 01 00 1F 56 D6].
2023-06-18 08:47:07.625: Arrived data length:[67], Data(Hex):[15 03 3E 00 4E 00 4F 00 4F 00 ED 00 2C 00 3C 00 3B 00 A4 00 5A 00 63 00 62 01 21 09 1B 09 18 09 18 01 8A 01 B5 01 AC 03 66 03 1A 03 1F 03 35 13 84 00 05 B9 76 00 00 00 01 00 02 88 79 00 00 00 01 16 5C] from host [10.200.2.84:5300] by command [15 03 00 01 00 1F 56 D6]
2023-06-18 08:47:09.637: Try to read data from host [10.200.2.84:5300] by the command [16 03 00 01 00 1F 56 E5].
2023-06-18 08:47:10.045: Arrived data length:[67], Data(Hex):[16 03 3E 00 0B 00 08 00 09 00 1C 00 01 00 03 00 04 00 09 00 0B 00 09 00 0A 00 1E 09 18 09 16 09 16 00 3E 00 27 00 2B 03 E4 03 8E 03 80 03 B6 13 84 00 04 2C 34 00 00 00 01 00 00 00 0C 00 00 D7 DB 92 13] from host [10.200.2.84:5300] by command [16 03 00 01 00 1F 56 E5]
2023-06-18 08:47:12.057: Try to read data from host [10.200.2.84:5300] by the command [17 03 00 01 00 1F 57 34].
2023-06-18 08:47:12.459: Arrived data length:[67], Data(Hex):[17 03 3E 00 06 00 12 00 05 00 1F 00 05 00 03 00 02 00 0B 00 08 00 12 00 06 00 21 09 17 09 18 09 15 00 24 00 60 00 23 03 05 03 D4 03 A3 03 A9 13 84 00 07 7B 86 00 00 00 00 00 00 00 0D 00 01 97 34 50 56] from host [10.200.2.84:5300] by command [17 03 00 01 00 1F 57 34]
2023-06-18 08:47:14.512: Try to read data from host [10.200.2.84:5300] by the command [18 03 00 01 00 1F 57 CB].
2023-06-18 08:47:14.868: Arrived data length:[67], Data(Hex):[18 03 3E 01 2D 01 18 01 1C 03 62 00 6E 00 56 00 5D 01 21 01 41 01 25 01 2B 03 91 09 15 09 16 09 14 05 57 04 E1 04 FC 03 AB 03 BB 03 B6 03 B4 13 84 00 0E 6D 16 00 00 00 00 00 04 32 6D 00 00 00 01 DB D6] from host [10.200.2.84:5300] by command [18 03 00 01 00 1F 57 CB]
2023-06-18 08:47:16.880: Try to read data from host [10.200.2.84:5300] by the command [0F 03 00 01 00 1F 54 EC].
2023-06-18 08:47:17.238: Arrived data length:[67], Data(Hex):[0F 03 3E 00 1E 00 12 00 22 00 53 00 26 00 1B 00 17 00 58 00 31 00 20 00 29 00 7A 09 1A 09 17 09 19 00 D3 00 8C 00 B1 02 72 02 31 03 3C 02 AE 13 84 00 2A E0 E2 00 00 00 00 00 1B 0B 5E 00 00 02 6D 7A 41] from host [10.200.2.84:5300] by command [0F 03 00 01 00 1F 54 EC]
2023-06-18 08:47:19.250: Try to read data from host [10.200.2.84:5300] by the command [10 03 00 01 00 1F 56 83].
2023-06-18 08:47:19.612: Arrived data length:[67], Data(Hex):[10 03 3E 00 49 00 4A 00 4A 00 DF 00 07 00 03 00 08 00 13 00 4A 00 4A 00 4B 00 E0 09 18 09 16 09 18 01 68 01 67 01 6D 03 E2 03 E7 03 E1 03 E4 13 84 00 29 5F 59 00 00 00 00 00 0E A2 54 00 00 00 0B D1 4F] from host [10.200.2.84:5300] by command [10 03 00 01 00 1F 56 83]
2023-06-18 08:47:21.624: Try to read data from host [10.200.2.84:5300] by the command [19 03 00 01 00 1F 56 1A].
2023-06-18 08:47:21.988: Arrived data length:[67], Data(Hex):[19 03 3E 00 D0 00 A1 00 B4 02 26 00 0E 00 2D 00 01 00 3A 00 D0 00 A8 00 B4 02 29 09 1C 09 19 09 1B 03 B0 02 CC 03 48 03 E5 03 C2 03 E7 03 E2 13 84 00 0F 0A 08 00 00 00 00 00 01 CC E7 00 00 02 73 83 EB] from host [10.200.2.84:5300] by command [19 03 00 01 00 1F 56 1A]
2023-06-18 08:47:23.999: Try to read data from host [10.200.2.84:5300] by the command [1A 03 00 01 00 1F 56 29].
2023-06-18 08:47:24.366: Arrived data length:[67], Data(Hex):[1A 03 3E 01 20 00 CD 00 CE 02 BC 00 77 00 7E 00 51 01 48 01 38 00 F1 00 DE 03 06 09 1D 09 1A 09 1B 05 4B 04 23 03 D7 03 9B 03 52 03 A1 03 89 13 84 00 17 6C 0B 00 00 00 00 00 07 0D 9E 00 00 04 83 51 1B] from host [10.200.2.84:5300] by command [1A 03 00 01 00 1F 56 29]
2023-06-18 08:47:26.377: Try to read data from host [10.200.2.84:5300] by the command [1B 03 00 01 00 1F 57 F8].
2023-06-18 08:47:26.746: Arrived data length:[67], Data(Hex):[1B 03 3E 00 02 00 01 00 00 00 04 00 00 00 00 00 00 00 01 00 02 00 01 00 00 00 04 09 1D 09 19 09 1A 00 0A 00 06 00 01 03 E1 03 2F 03 A8 03 B6 13 84 00 03 2C CA 00 00 00 01 00 00 00 0F 00 00 A2 37 40 6C] from host [10.200.2.84:5300] by command [1B 03 00 01 00 1F 57 F8]
2023-06-18 08:47:28.800: Try to read data from host [10.200.2.84:5300] by the command [1C 03 00 01 00 1F 56 4F].
2023-06-18 08:47:29.174: Arrived data length:[67], Data(Hex):[1C 03 3E 00 08 00 0A 00 03 00 17 00 00 00 02 00 00 00 02 00 08 00 0A 00 03 00 17 09 1B 09 18 09 19 00 27 00 30 00 17 03 E8 03 D3 03 D7 03 E1 13 84 00 04 8A 59 00 00 00 01 00 00 00 0D 00 00 CF 45 9E 75] from host [10.200.2.84:5300] by command [1C 03 00 01 00 1F 56 4F]
2023-06-18 08:47:31.186: Try to read data from host [10.200.2.84:5300] by the command [1D 03 00 01 00 1F 57 9E].
2023-06-18 08:47:31.562: Arrived data length:[67], Data(Hex):[1D 03 3E 00 67 00 5F 00 6D 01 34 00 88 00 87 00 88 01 99 00 AB 00 A5 00 AE 02 00 09 1A 09 17 09 1A 02 D9 02 C2 02 EA 02 5B 02 3E 02 70 02 59 13 84 00 0E D7 D3 00 00 00 00 00 15 25 61 00 00 00 14 E4 B1] from host [10.200.2.84:5300] by command [1D 03 00 01 00 1F 57 9E]
2023-06-18 08:47:33.577: Try to read data from host [10.200.2.84:5300] by the command [1E 03 00 01 00 1F 57 AD].
2023-06-18 08:47:33.955: Arrived data length:[67], Data(Hex):[1E 03 3E 00 0F 00 12 00 0E 00 30 00 10 00 15 00 0F 00 35 00 16 00 1C 00 14 00 48 09 1A 09 1A 09 18 00 62 00 78 00 59 02 AA 02 81 02 AA 02 9A 13 85 00 08 ED C8 00 00 00 01 00 0A BB 0B 00 00 00 29 56 F3] from host [10.200.2.84:5300] by command [1E 03 00 01 00 1F 57 AD]
2023-06-18 08:47:36.112: Try to read data from host [10.200.2.84:5300] by the command [1F 03 00 01 00 1F 56 7C].
2023-06-18 08:47:36.493: Arrived data length:[67], Data(Hex):[1F 03 3E 00 09 00 14 00 14 00 32 00 04 00 00 00 00 00 05 00 0A 00 14 00 14 00 33 09 1B 09 18 09 1A 00 30 00 5F 00 63 03 8F 03 E7 03 E8 03 E2 13 86 00 01 8D 91 00 00 00 00 00 00 00 59 00 00 4A E7 7D 80] from host [10.200.2.84:5300] by command [1F 03 00 01 00 1F 56 7C]
2023-06-18 08:47:38.657: ExecutionforElectricityMeter time : 38672

2023-06-18 08:47:38.773: ExecutionforElectricityMeter started
2023-06-18 08:47:38.780: Try to read data from host [10.200.2.85:5300] by the command [09 03 00 01 00 1F 54 8A].
2023-06-18 08:47:39.132: Arrived data length:[67], Data(Hex):[09 03 3E 03 69 03 0F 02 F5 09 6F 00 71 00 5B 00 8E 01 5D 03 71 03 14 03 03 09 89 09 1B 09 1B 09 1A 0E D8 0D 5B 0D 0C 03 DF 03 E1 03 D6 03 DD 13 86 00 98 D5 42 00 00 00 00 00 1F F5 75 00 01 43 3E 07 4C] from host [10.200.2.85:5300] by command [09 03 00 01 00 1F 54 8A]
2023-06-18 08:47:41.413: Try to read data from host [10.200.2.85:5300] by the command [21 03 00 01 00 1F 52 A2].
2023-06-18 08:47:41.768: Arrived data length:[67], Data(Hex):[21 03 3E 00 08 00 0A 00 09 00 1C 00 06 00 06 00 05 00 13 00 0A 00 0C 00 0A 00 22 09 19 09 19 09 19 00 2D 00 34 00 30 03 05 03 58 03 4E 03 3C 13 87 00 02 9B 96 00 00 00 00 00 00 A5 48 00 00 00 0C 39 B2] from host [10.200.2.85:5300] by command [21 03 00 01 00 1F 52 A2]
2023-06-18 08:47:43.790: Try to read data from host [10.200.2.85:5300] by the command [22 03 00 01 00 1F 52 91].
2023-06-18 08:47:44.150: Arrived data length:[67], Data(Hex):[22 03 3E 00 07 00 0A 00 07 00 1A 00 05 00 07 00 05 00 13 00 0A 00 0C 00 09 00 20 09 1B 09 1B 09 1B 00 2B 00 35 00 28 03 11 03 36 03 04 03 1C 13 87 00 02 89 B0 00 00 00 00 00 01 DD 54 00 00 00 03 68 BE] from host [10.200.2.85:5300] by command [22 03 00 01 00 1F 52 91]
2023-06-18 08:47:46.161: Try to read data from host [10.200.2.85:5300] by the command [23 03 00 01 00 1F 53 40].
2023-06-18 08:47:46.523: Arrived data length:[67], Data(Hex):[23 03 3E 00 7B 00 71 00 59 01 45 00 23 00 1B 00 1F 00 5F 00 80 00 74 00 5E 01 54 09 1B 09 1C 09 1B 02 4B 02 0D 01 A2 03 C0 03 CA 03 AD 03 BF 13 87 00 07 73 66 00 00 00 00 00 01 48 A9 00 00 01 60 AE 1D] from host [10.200.2.85:5300] by command [23 03 00 01 00 1F 53 40]
2023-06-18 08:47:48.533: Try to read data from host [10.200.2.85:5300] by the command [24 03 00 01 00 1F 52 F7].
2023-06-18 08:47:48.888: Arrived data length:[67], Data(Hex):[24 03 3E 00 36 00 26 00 29 00 85 00 01 00 00 00 05 00 07 00 36 00 26 00 29 00 86 09 19 09 19 09 1B 00 F1 00 A9 00 C2 03 E5 03 E8 03 DD 03 E6 13 87 00 05 AF DE 00 00 00 00 00 00 2F 95 00 00 26 16 6C 2C] from host [10.200.2.85:5300] by command [24 03 00 01 00 1F 52 F7]
2023-06-18 08:47:50.940: Try to read data from host [10.200.2.85:5300] by the command [0D 03 00 01 00 1F 55 0E].
2023-06-18 08:47:51.298: Arrived data length:[67], Data(Hex):[0D 03 3E 00 16 00 14 00 18 00 43 00 04 00 02 00 02 00 0A 00 16 00 14 00 18 00 44 09 18 09 19 09 1A 00 72 00 6C 00 78 03 D3 03 DC 03 E1 03 DB 13 87 00 14 E2 4C 00 00 00 00 00 10 D7 3F 00 00 00 02 72 4D] from host [10.200.2.85:5300] by command [0D 03 00 01 00 1F 55 0E]
2023-06-18 08:47:53.352: Try to read data from host [10.200.2.85:5300] by the command [25 03 00 01 00 1F 53 26].
2023-06-18 08:47:53.713: Arrived data length:[67], Data(Hex):[25 03 3E 00 25 00 25 00 25 00 71 00 27 00 27 00 27 00 77 00 36 00 36 00 37 00 A4 09 1A 09 1A 09 19 01 04 01 01 01 04 02 B1 02 AB 02 AF 02 AE 13 86 00 01 E7 21 00 00 00 00 00 00 A3 D1 00 00 00 01 B4 84] from host [10.200.2.85:5300] by command [25 03 00 01 00 1F 53 26]
2023-06-18 08:47:55.728: Try to read data from host [10.200.2.85:5300] by the command [26 03 00 01 00 1F 53 15].
2023-06-18 08:47:56.097: Arrived data length:[67], Data(Hex):[26 03 3E 00 02 00 02 00 06 00 0B 00 03 00 01 00 00 00 04 00 04 00 02 00 06 00 0C 09 1B 09 19 09 19 00 14 00 0B 00 1F 02 9F 03 2A 03 E7 03 9E 13 86 00 00 AE 0E 00 00 00 00 00 00 10 B3 00 00 00 0D B2 5B] from host [10.200.2.85:5300] by command [26 03 00 01 00 1F 53 15]
2023-06-18 08:47:58.120: Try to read data from host [10.200.2.85:5300] by the command [63 03 00 01 00 1F 5D 80].
2023-06-18 08:47:58.534: Arrived data length:[67], Data(Hex):[63 03 3E 00 10 00 10 00 10 00 31 00 01 00 01 00 01 00 04 00 14 00 13 00 14 00 32 09 1E 09 1D 09 1D 00 57 00 54 00 57 03 31 03 30 03 3A 03 E4 13 85 00 00 B2 25 00 00 00 00 00 00 0A 7D 00 00 0A 7D 0C E2] from host [10.200.2.85:5300] by command [63 03 00 01 00 1F 5D 80]
2023-06-18 08:48:29.549: Exception Error Message:Exception has been thrown by the target of an invocation. for remote host [10.200.2.85:5300]
2023-06-18 08:48:29.567: 2023-06-18 08:48:29.551 >>> App Server: NSCM1654
Exception Source: System.Collections.Hashtable ProcessToParserReceivedData(Model.LNMeterCategory, System.Collections.Hashtable)
Message: Exception has been thrown by the target of an invocation.
Source: LNMeterDataServiceSimulator
StackTrace:    at ServiceMgr.LNSvrMgr.ProcessToParserReceivedData(LNMeterCategory lNMeterCategory, Hashtable orgReceivedDecData) in C:\00work\02sc-cfd-git\DMN-B17-FLEXPMxxxxx-LNMeterDataService\00DataService\SourceCode\LNMeterDataServiceSimulator\LNMeterDataServiceSimulator\ServiceMgr\LNSvrMgr.cs:line 65
   at ServiceMgr.LNSvrMgr.ToReadDatafromHostforElectricityMeter(LNMeterCategory lNMeterCategory, LNElectricityMeter lNElectricityMeter) in C:\00work\02sc-cfd-git\DMN-B17-FLEXPMxxxxx-LNMeterDataService\00DataService\SourceCode\LNMeterDataServiceSimulator\LNMeterDataServiceSimulator\ServiceMgr\LNSvrMgr.cs:line 418
Inner Exception:Object reference not set to an instance of an object.
2023-06-18 08:48:31.576: Try to read data from host [10.200.2.85:5300] by the command [27 03 00 01 00 1F 52 C4].
2023-06-18 08:48:31.935: Arrived data length:[67], Data(Hex):[27 03 3E 00 35 00 3A 00 2E 00 9E 00 15 00 0C 00 12 00 34 00 39 00 3B 00 31 00 A6 09 1B 09 18 09 1A 00 F9 01 3F 00 D9 03 9E 03 D0 03 A2 03 B4 13 84 00 02 5E F6 00 00 00 00 00 00 BD AD 00 00 0C 27 E2 78] from host [10.200.2.85:5300] by command [27 03 00 01 00 1F 52 C4]
2023-06-18 08:48:33.969: Try to read data from host [10.200.2.85:5300] by the command [28 03 00 01 00 1F 52 3B].
2023-06-18 08:48:34.332: Arrived data length:[67], Data(Hex):[28 03 3E 00 00 00 01 00 00 00 03 00 00 00 00 00 01 00 01 00 00 00 01 00 01 00 03 09 1D 09 1B 09 1B 00 04 00 09 00 09 03 E8 03 E0 01 F7 03 76 13 84 00 00 24 80 00 00 00 00 00 00 06 28 00 00 00 14 C7 2B] from host [10.200.2.85:5300] by command [28 03 00 01 00 1F 52 3B]
2023-06-18 08:48:36.361: Try to read data from host [10.200.2.85:5300] by the command [0E 03 00 01 00 1F 55 3D].
2023-06-18 08:48:36.939: Arrived data length:[67], Data(Hex):[0E 03 3E 00 00 00 00 00 00 00 00 00 00 00 00 00 00 00 00 00 00 00 00 00 00 00 00 09 1E 09 1B 09 1F 00 00 00 00 00 00 03 CA 02 09 03 E8 03 4E 13 85 00 05 3F 6C 00 00 00 00 00 03 6E FD 00 00 00 00 5E 19] from host [10.200.2.85:5300] by command [0E 03 00 01 00 1F 55 3D]
2023-06-18 08:48:38.949: Try to read data from host [10.200.2.85:5300] by the command [29 03 00 01 00 1F 53 EA].
2023-06-18 08:48:39.317: Arrived data length:[67], Data(Hex):[29 03 3E 00 00 00 00 00 00 00 00 00 00 00 00 00 00 00 00 00 00 00 00 00 00 00 00 09 1E 09 1D 09 21 00 04 00 01 00 06 03 E8 00 A6 03 CA 03 E8 13 85 00 07 5F C8 00 00 00 00 00 06 4C 1A 00 00 00 00 9D 97] from host [10.200.2.85:5300] by command [29 03 00 01 00 1F 53 EA]
2023-06-18 08:48:41.368: Try to read data from host [10.200.2.85:5300] by the command [2A 03 00 01 00 1F 53 D9].
2023-06-18 08:48:41.740: Arrived data length:[67], Data(Hex):[2A 03 3E 00 01 00 00 00 00 00 01 00 00 00 00 00 00 00 00 00 01 00 00 00 00 00 01 09 1C 09 1C 09 1E 00 09 00 01 00 04 02 F3 00 C8 03 11 03 7B 13 85 00 04 39 5F 00 00 00 00 00 01 2F 63 00 00 00 00 D9 F0] from host [10.200.2.85:5300] by command [2A 03 00 01 00 1F 53 D9]
2023-06-18 08:48:44.064: Try to read data from host [10.200.2.85:5300] by the command [20 03 00 01 00 1F 53 73].
2023-06-18 08:48:44.440: Arrived data length:[67], Data(Hex):[20 03 3E 00 1C 00 23 00 19 00 59 00 06 00 04 00 02 00 04 00 1D 00 24 00 19 00 59 09 19 09 18 09 1A 00 84 00 9B 00 6C 03 CD 03 DF 03 E2 03 E6 13 85 00 01 9E 53 00 00 00 00 00 00 2D 91 00 00 06 E9 F8 2D] from host [10.200.2.85:5300] by command [20 03 00 01 00 1F 53 73]
2023-06-18 08:48:46.533: ExecutionforElectricityMeter time : 67759

2023-06-18 08:48:46.654: ExecutionforElectricityMeter started
2023-06-18 08:48:46.661: Try to read data from host [10.200.2.89:5300] by the command [0A 03 00 01 00 1F 54 B9].
2023-06-18 08:48:47.000: Arrived data length:[67], Data(Hex):[0A 03 3E 01 6C 01 4D 01 79 04 36 00 01 00 0B 00 0E 00 00 01 6C 01 4D 01 7A 04 36 09 32 09 32 09 30 06 32 05 C8 06 6D 03 E7 03 E7 03 E7 03 E8 13 85 00 53 6D 1D 00 00 3E 43 00 0B B0 94 00 00 A3 57 61 EF] from host [10.200.2.89:5300] by command [0A 03 00 01 00 1F 54 B9]
2023-06-18 08:48:49.060: Try to read data from host [10.200.2.89:5300] by the command [3A 03 00 01 00 1F 51 49].
2023-06-18 08:48:49.402: Arrived data length:[67], Data(Hex):[3A 03 3E 00 26 00 0B 00 16 00 48 00 18 00 05 00 17 00 35 00 2D 00 0C 00 20 00 59 09 32 09 30 09 30 00 C4 00 3A 00 8A 03 49 03 7F 02 B2 03 21 13 85 00 02 87 87 00 00 00 00 00 01 6E 9A 00 00 00 17 2C 2F] from host [10.200.2.89:5300] by command [3A 03 00 01 00 1F 51 49]
2023-06-18 08:48:51.441: Try to read data from host [10.200.2.89:5300] by the command [3B 03 00 01 00 1F 50 98].
2023-06-18 08:48:51.784: Arrived data length:[67], Data(Hex):[3B 03 3E 00 1B 00 1E 00 13 00 4D 00 0E 00 10 00 10 00 30 00 1F 00 22 00 19 00 5B 09 34 09 33 09 31 00 93 00 91 00 6C 03 6F 03 6C 02 F9 03 51 13 85 00 07 A7 B9 00 00 00 02 00 00 21 DF 00 00 1D 08 D3 16] from host [10.200.2.89:5300] by command [3B 03 00 01 00 1F 50 98]
2023-06-18 08:48:53.798: Try to read data from host [10.200.2.89:5300] by the command [2C 03 00 01 00 1F 53 BF].
2023-06-18 08:48:54.143: Arrived data length:[67], Data(Hex):[2C 03 3E 00 01 00 0B 00 08 00 15 00 00 00 04 00 00 00 02 00 01 00 0C 00 08 00 15 09 30 09 2F 09 30 00 09 00 37 00 23 03 A2 03 A7 03 E2 03 DF 13 85 00 01 E9 00 00 00 00 00 00 01 8E 89 00 00 01 E3 03 A7] from host [10.200.2.89:5300] by command [2C 03 00 01 00 1F 53 BF]
2023-06-18 08:48:56.181: Try to read data from host [10.200.2.89:5300] by the command [2D 03 00 01 00 1F 52 6E].
2023-06-18 08:48:56.533: Arrived data length:[67], Data(Hex):[2D 03 3E 00 00 00 00 00 00 00 00 00 00 00 00 00 00 00 00 00 00 00 00 00 00 00 00 09 33 09 31 09 31 00 02 00 02 00 01 03 BA 02 38 03 E8 03 64 13 84 00 03 EC AC 00 00 00 00 00 01 5E 15 00 00 06 B5 CC FA] from host [10.200.2.89:5300] by command [2D 03 00 01 00 1F 52 6E]
2023-06-18 08:48:58.570: Try to read data from host [10.200.2.89:5300] by the command [3C 03 00 01 00 1F 51 2F].
2023-06-18 08:48:58.921: Arrived data length:[67], Data(Hex):[3C 03 3E 00 21 00 10 00 11 00 43 00 06 00 05 00 05 00 10 00 22 00 10 00 12 00 45 09 36 09 34 09 33 00 92 00 4A 00 4D 03 D7 03 B6 03 BB 03 CA 13 84 00 06 EC EB 00 00 00 00 00 00 00 11 00 01 33 8A AA 00] from host [10.200.2.89:5300] by command [3C 03 00 01 00 1F 51 2F]
2023-06-18 08:49:00.953: Try to read data from host [10.200.2.89:5300] by the command [3D 03 00 01 00 1F 50 FE].
2023-06-18 08:49:01.291: Arrived data length:[67], Data(Hex):[3D 03 3E 00 1C 00 05 00 18 00 3A 00 04 00 01 00 04 00 0A 00 1C 00 05 00 19 00 3B 09 33 09 33 09 31 00 7A 00 19 00 6C 03 DD 03 C9 03 D5 03 D8 13 84 00 06 02 DA 00 00 00 00 00 00 00 15 00 01 2B E0 CD 56] from host [10.200.2.89:5300] by command [3D 03 00 01 00 1F 50 FE]
2023-06-18 08:49:03.313: Try to read data from host [10.200.2.89:5300] by the command [3E 03 00 01 00 1F 50 CD].
2023-06-18 08:49:03.655: Arrived data length:[67], Data(Hex):[3E 03 3E 00 39 00 4E 00 47 00 D1 00 28 00 20 00 24 00 6D 00 46 00 55 00 50 00 EC 09 34 09 33 09 32 01 30 01 6D 01 5D 03 37 03 99 03 7E 03 76 13 84 00 03 BE 89 00 00 00 00 00 03 08 74 00 00 05 B9 65 62] from host [10.200.2.89:5300] by command [3E 03 00 01 00 1F 50 CD]
2023-06-18 08:49:05.689: Try to read data from host [10.200.2.89:5300] by the command [3F 03 00 01 00 1F 51 1C].
2023-06-18 08:49:06.032: Arrived data length:[67], Data(Hex):[3F 03 3E 00 0A 00 0C 00 21 00 39 00 07 00 02 00 05 00 10 00 0D 00 0C 00 22 00 3B 09 35 09 31 09 30 00 43 00 3C 00 93 03 26 03 D0 03 DA 03 C1 13 85 00 0A D9 A6 00 00 00 01 00 02 A5 BE 00 00 0B E8 CD 26] from host [10.200.2.89:5300] by command [3F 03 00 01 00 1F 51 1C]
2023-06-18 08:49:08.089: Try to read data from host [10.200.2.89:5300] by the command [40 03 00 01 00 1F 5A D3].
2023-06-18 08:49:08.521: Arrived data length:[67], Data(Hex):[40 03 3E 00 18 00 30 00 2D 00 78 00 13 00 0B 00 05 00 24 00 1F 00 32 00 2D 00 7D 09 38 09 33 09 33 00 87 00 E2 00 DA 03 1C 03 CD 03 E0 03 BC 13 86 00 01 CF FF 00 00 00 00 00 00 31 84 00 00 2F C6 94 0F] from host [10.200.2.89:5300] by command [40 03 00 01 00 1F 5A D3]
2023-06-18 08:49:10.576: Try to read data from host [10.200.2.89:5300] by the command [41 03 00 01 00 1F 5B 02].
2023-06-18 08:49:10.924: Arrived data length:[67], Data(Hex):[41 03 3E 00 35 00 03 00 2C 00 66 00 10 00 2F 00 36 00 0A 00 38 00 2F 00 46 00 67 09 38 09 32 09 33 00 F0 00 CD 01 35 03 BB 00 4C 02 81 03 E3 13 87 00 01 3A 52 00 00 14 1B 00 00 5D C0 00 00 04 ED 80 94] from host [10.200.2.89:5300] by command [41 03 00 01 00 1F 5B 02]
2023-06-18 08:49:12.935: Try to read data from host [10.200.2.89:5300] by the command [0C 03 00 01 00 1F 54 DF].
2023-06-18 08:49:13.287: Arrived data length:[67], Data(Hex):[0C 03 3E 00 04 00 00 00 00 00 02 00 03 00 05 00 00 00 09 00 05 00 05 00 00 00 0A 09 35 09 33 09 30 00 00 00 00 00 00 02 E9 00 E0 01 AC 01 3B 13 88 00 1D 53 73 00 00 00 00 00 03 0A 14 00 00 00 00 2E E5] from host [10.200.2.89:5300] by command [0C 03 00 01 00 1F 54 DF]
2023-06-18 08:49:15.309: Try to read data from host [10.200.2.89:5300] by the command [42 03 00 01 00 1F 5B 31].
2023-06-18 08:49:15.664: Arrived data length:[67], Data(Hex):[42 03 3E 00 04 00 00 00 00 00 07 00 01 00 01 00 00 00 04 00 04 00 02 00 01 00 08 09 35 09 33 09 31 00 22 00 09 00 08 03 BB 02 45 02 78 03 40 13 88 00 00 20 AC 00 00 00 00 00 00 05 41 00 00 09 78 56 F6] from host [10.200.2.89:5300] by command [42 03 00 01 00 1F 5B 31]
2023-06-18 08:49:17.675: Try to read data from host [10.200.2.89:5300] by the command [11 03 00 01 00 1F 57 52].
2023-06-18 08:49:18.033: Arrived data length:[67], Data(Hex):[11 03 3E 02 B2 02 B3 02 B0 08 17 00 43 00 43 00 42 00 C9 02 B6 02 B6 02 B4 08 21 09 34 09 31 09 31 0B 67 0B 67 0B 6A 03 E3 03 E3 03 E3 03 E3 13 87 00 07 A3 62 00 00 02 63 00 00 16 7A 00 01 4F 26 B0 7C] from host [10.200.2.89:5300] by command [11 03 00 01 00 1F 57 52]
2023-06-18 08:49:20.063: ExecutionforElectricityMeter time : 33407

2023-06-18 08:49:20.068: ExecutionforElectricityMeter started
2023-06-18 08:49:20.071: Try to read data from host [10.200.2.90:5300] by the command [0B 03 00 01 00 1F 55 68].
2023-06-18 08:49:20.532: Arrived data length:[67], Data(Hex):[0B 03 3E 01 C5 01 A5 01 E3 05 4F 00 0B 00 1E 00 27 00 52 01 C5 01 A6 01 E4 05 51 09 32 09 31 09 30 07 CC 07 49 08 35 03 E7 03 E5 03 E4 03 E6 13 88 00 51 2E 65 00 00 2E 6F 00 0C 6E A6 00 00 70 47 53 B3] from host [10.200.2.90:5300] by command [0B 03 00 01 00 1F 55 68]
2023-06-18 08:49:22.545: Try to read data from host [10.200.2.90:5300] by the command [2B 03 00 01 00 1F 52 08].
2023-06-18 08:49:22.922: Arrived data length:[67], Data(Hex):[2B 03 3E 04 16 03 B4 03 98 0B 63 02 F3 03 25 03 1C 09 36 05 0B 04 DC 04 C1 0E A7 09 30 09 2E 09 2C 15 41 14 7D 14 14 03 2A 02 FA 02 F3 03 09 13 87 00 1F 48 46 00 00 00 01 00 15 E0 F1 00 00 00 67 89 3B] from host [10.200.2.90:5300] by command [2B 03 00 01 00 1F 52 08]
2023-06-18 08:49:24.981: Try to read data from host [10.200.2.90:5300] by the command [2E 03 00 01 00 1F 52 5D].
2023-06-18 08:49:25.361: Arrived data length:[67], Data(Hex):[2E 03 3E 00 33 00 37 00 35 00 A0 00 24 00 2E 00 38 00 8B 00 3E 00 48 00 4D 00 D5 09 33 09 30 09 2E 01 15 01 3C 01 54 03 2B 02 FE 02 A9 02 EF 13 87 00 06 64 65 00 00 00 00 00 04 A9 25 00 00 00 2A 6C 55] from host [10.200.2.90:5300] by command [2E 03 00 01 00 1F 52 5D]
2023-06-18 08:49:27.405: Try to read data from host [10.200.2.90:5300] by the command [2F 03 00 01 00 1F 53 8C].
2023-06-18 08:49:27.788: Arrived data length:[67], Data(Hex):[2F 03 3E 00 00 00 00 00 00 00 01 00 00 00 00 00 00 00 00 00 00 00 00 00 00 00 01 09 34 09 33 09 33 00 04 00 01 00 01 03 7A 02 C6 03 30 03 60 13 87 00 03 52 B5 00 00 00 00 00 00 4D 9D 00 00 00 47 65 44] from host [10.200.2.90:5300] by command [2F 03 00 01 00 1F 53 8C]
2023-06-18 08:49:29.850: Try to read data from host [10.200.2.90:5300] by the command [30 03 00 01 00 1F 51 E3].
2023-06-18 08:49:30.237: Arrived data length:[67], Data(Hex):[30 03 3E 00 00 00 00 00 00 00 00 00 00 00 00 00 00 00 00 00 00 00 00 00 00 00 00 00 00 00 00 00 00 00 05 00 00 00 00 03 E8 03 E8 03 E8 03 E8 13 88 00 02 34 D3 00 00 00 00 00 02 3E 06 00 00 07 7C 8D 57] from host [10.200.2.90:5300] by command [30 03 00 01 00 1F 51 E3]
2023-06-18 08:49:32.265: Try to read data from host [10.200.2.90:5300] by the command [31 03 00 01 00 1F 50 32].
2023-06-18 08:49:32.653: Arrived data length:[67], Data(Hex):[31 03 3E 00 0D 00 09 00 05 00 1C 00 06 00 05 00 04 00 11 00 0F 00 0B 00 06 00 21 09 34 09 2E 09 30 00 45 00 35 00 21 03 7A 03 4A 03 12 03 56 13 87 00 02 97 ED 00 00 00 00 00 00 B7 C8 00 00 01 46 F4 B3] from host [10.200.2.90:5300] by command [31 03 00 01 00 1F 50 32]
2023-06-18 08:49:34.664: Try to read data from host [10.200.2.90:5300] by the command [32 03 00 01 00 1F 50 01].
2023-06-18 08:49:35.056: Arrived data length:[67], Data(Hex):[32 03 3E 00 25 00 35 00 32 00 8E 00 40 00 3D 00 3C 00 BA 00 4A 00 51 00 4E 00 EB 09 34 09 32 09 33 01 3B 01 59 01 4F 01 F7 02 90 02 85 02 5E 13 86 00 0D 2E 73 00 00 00 00 00 12 9B 39 00 00 00 09 92 BC] from host [10.200.2.90:5300] by command [32 03 00 01 00 1F 50 01]
2023-06-18 08:49:37.090: Try to read data from host [10.200.2.90:5300] by the command [33 03 00 01 00 1F 51 D0].
2023-06-18 08:49:37.486: Arrived data length:[67], Data(Hex):[33 03 3E 00 00 00 00 00 00 00 00 00 00 00 00 00 00 00 00 00 00 00 00 00 00 00 00 00 00 00 00 00 00 00 00 00 00 00 00 03 E8 03 E8 03 E8 03 E8 13 88 00 00 06 FB 00 00 00 00 00 00 00 19 00 00 00 3C 6D 62] from host [10.200.2.90:5300] by command [33 03 00 01 00 1F 51 D0]
2023-06-18 08:49:39.498: Try to read data from host [10.200.2.90:5300] by the command [34 03 00 01 00 1F 50 67].
2023-06-18 08:49:39.899: Arrived data length:[67], Data(Hex):[34 03 3E 00 33 00 35 00 41 00 AA 00 09 00 09 00 09 00 1C 00 34 00 36 00 41 00 AC 09 33 09 31 09 33 00 FA 01 02 01 41 03 D7 03 D7 03 DD 03 D9 13 85 00 03 28 68 00 00 00 00 00 00 00 0C 00 00 66 5A C8 C2] from host [10.200.2.90:5300] by command [34 03 00 01 00 1F 50 67]
2023-06-18 08:49:41.911: Try to read data from host [10.200.2.90:5300] by the command [35 03 00 01 00 1F 51 B6].
2023-06-18 08:49:42.388: Arrived data length:[67], Data(Hex):[35 03 3E 00 3A 00 37 00 39 00 AB 00 1B 00 1A 00 15 00 4B 00 40 00 3C 00 3C 00 BA 09 31 09 30 09 30 01 3A 01 1D 01 31 03 87 03 86 03 A7 03 92 13 85 00 03 BF D1 00 00 00 00 00 00 0B 21 00 00 D9 97 6E F3] from host [10.200.2.90:5300] by command [35 03 00 01 00 1F 51 B6]
2023-06-18 08:49:44.439: Try to read data from host [10.200.2.90:5300] by the command [36 03 00 01 00 1F 51 85].
2023-06-18 08:49:44.818: Arrived data length:[67], Data(Hex):[36 03 3E 01 6F 01 58 01 8A 04 53 00 E8 00 BF 00 CE 02 77 01 B3 01 8A 01 BD 04 FC 09 32 09 30 09 31 07 4A 06 AD 07 96 03 4C 03 68 03 75 03 63 13 85 00 0C 4F 25 00 00 00 01 00 05 CA 3B 00 00 00 09 E0 DB] from host [10.200.2.90:5300] by command [36 03 00 01 00 1F 51 85]
2023-06-18 08:49:46.843: Try to read data from host [10.200.2.90:5300] by the command [37 03 00 01 00 1F 50 54].
2023-06-18 08:49:47.222: Arrived data length:[67], Data(Hex):[37 03 3E 00 EC 00 C4 00 C2 02 74 00 9F 00 AF 00 A3 01 F3 01 1C 01 08 00 FD 03 22 09 31 09 2F 09 2E 04 A9 04 58 04 3C 03 3D 02 E8 02 FC 03 0E 13 85 00 0A 28 79 00 00 00 00 00 07 77 2B 00 00 00 00 BE 7B] from host [10.200.2.90:5300] by command [37 03 00 01 00 1F 50 54]
2023-06-18 08:49:49.408: Try to read data from host [10.200.2.90:5300] by the command [38 03 00 01 00 1F 50 AB].
2023-06-18 08:49:49.790: Arrived data length:[67], Data(Hex):[38 03 3E 00 00 00 00 00 00 00 00 00 00 00 00 00 00 00 00 00 00 00 00 00 00 00 00 09 33 09 31 09 30 00 00 00 00 00 00 03 E8 03 E8 03 E8 03 E8 13 84 00 00 7F CC 00 00 00 00 00 00 6F 80 00 00 00 10 D5 4D] from host [10.200.2.90:5300] by command [38 03 00 01 00 1F 50 AB]
2023-06-18 08:49:52.115: Try to read data from host [10.200.2.90:5300] by the command [39 03 00 01 00 1F 51 7A].
2023-06-18 08:49:52.572: Arrived data length:[67], Data(Hex):[39 03 3E 00 00 00 01 00 00 00 02 00 00 00 01 00 00 00 01 00 00 00 02 00 00 00 02 09 33 09 2E 09 31 00 02 00 0A 00 02 03 E8 03 14 03 A9 03 46 13 84 00 03 5B D9 00 00 00 00 00 02 5D 52 00 00 00 00 8D 97] from host [10.200.2.90:5300] by command [39 03 00 01 00 1F 51 7A]
2023-06-18 08:49:54.589: Try to read data from host [10.200.2.90:5300] by the command [12 03 00 01 00 1F 57 61].
2023-06-18 08:49:54.978: Arrived data length:[67], Data(Hex):[12 03 3E 01 63 01 63 01 5B 04 23 00 15 00 0C 00 10 00 32 01 64 01 64 01 5C 04 24 09 35 09 33 09 30 05 DB 05 DD 05 BE 03 E6 03 E7 03 E6 03 E6 13 84 00 03 CD 6A 00 00 01 50 00 00 16 A7 00 00 58 E6 66 A3] from host [10.200.2.90:5300] by command [12 03 00 01 00 1F 57 61]
2023-06-18 08:49:57.004: ExecutionforElectricityMeter time : 36935

2023-06-18 08:51:08.740: ExecutionforChilledWaterFlowMeter started
2023-06-18 08:51:08.755: Try to read data from host [10.200.2.88:5300] by the command [5B 03 00 01 00 24 18 EB].
2023-06-18 08:51:09.151: Arrived data length:[77], Data(Hex):[5B 03 48 40 D8 3F B1 BC BC 6B A1 3D 0D 26 4E 44 B8 D3 C5 00 0A 1D 05 3D 70 C8 8B FF FF 2E 29 BF 3D 00 E7 00 00 50 3A 3F 44 F2 A2 FF FF A0 23 BF 7F 9C 50 00 0A 26 EA BF 2E 0E 46 00 00 D8 D9 3F 43 98 78 41 67 9C 70 41 74 1D 00 23 03] from host [10.200.2.88:5300] by command [5B 03 00 01 00 24 18 EB]
2023-06-18 08:51:11.187: Try to read data from host [10.200.2.88:5300] by the command [5A 03 00 01 00 24 19 3A].
2023-06-18 08:51:11.587: Arrived data length:[77], Data(Hex):[5A 03 48 C1 92 CF 88 BD 04 E6 2F BC F8 A5 93 44 B7 8C 53 00 44 8F 82 3F 1F 41 38 FF FF 8B 29 BF 1A 00 8A 00 00 EA F7 3F 53 5F CE FF FF 47 9B BF 49 CD 8C 00 43 0B FB BF 7B A0 BD 00 00 2C 32 3F 1D AC 54 41 81 94 B8 41 7C 8F 00 BF B2] from host [10.200.2.88:5300] by command [5A 03 00 01 00 24 19 3A]
2023-06-18 08:51:13.613: Try to read data from host [10.200.2.88:5300] by the command [5D 03 00 01 00 24 18 8D].
2023-06-18 08:51:14.019: Arrived data length:[77], Data(Hex):[5D 03 48 C2 03 00 00 00 00 4C 25 BD 5E 67 16 44 B6 F6 CE 00 49 56 6C 3D F4 BC 0C FF FE 0F 90 BF 38 00 79 00 00 47 F2 3E 83 56 B7 FF FF 0D D9 BF 42 B2 DA 00 48 7E 73 BF 19 A9 C3 00 00 83 88 3C 6B 7E 28 41 7A 7E 28 41 7A 8F 00 93 E4] from host [10.200.2.88:5300] by command [5D 03 00 01 00 24 18 8D]
2023-06-18 08:51:16.393: Try to read data from host [10.200.2.88:5300] by the command [5E 03 00 01 00 24 18 BE].
2023-06-18 08:51:16.805: Arrived data length:[77], Data(Hex):[5E 03 48 00 00 00 00 00 00 00 00 00 00 9A A7 44 B8 28 E5 00 4F E6 11 3F 52 FF F7 FF FF A0 97 BF 72 01 79 00 00 D5 14 3F 37 26 76 FF FF 21 38 BF 30 28 DB 00 4F 3D 87 3F 60 DB 04 00 00 01 B4 3E D0 42 DA 41 80 69 2C 41 7E 8F 00 3D 74] from host [10.200.2.88:5300] by command [5E 03 00 01 00 24 18 BE]
2023-06-18 08:51:19.075: Try to read data from host [10.200.2.88:5300] by the command [5C 03 00 01 00 24 19 5C].
2023-06-18 08:51:19.494: Arrived data length:[77], Data(Hex):[5C 03 48 41 CF 3D EF 3C AB B6 47 3E 56 C0 1B 44 B7 3A D4 00 14 9D 67 3F 03 B8 EA FF FF 4C D7 BE 05 00 BF 00 00 68 29 3E E7 DD D7 FF FF 63 B4 BE AC F3 BE 00 13 87 7B 3E C4 22 E8 00 00 EA 33 3F 49 80 F4 41 7E 6A 54 41 7B AB 00 E1 88] from host [10.200.2.88:5300] by command [5C 03 00 01 00 24 19 5C]
2023-06-18 08:51:21.537: Try to read data from host [10.200.2.88:5300] by the command [5F 03 00 01 00 24 19 6F].
2023-06-18 08:51:21.961: Arrived data length:[77], Data(Hex):[5F 03 48 BF F6 56 B0 BD 27 64 1B BD 06 92 9B 44 AA 09 0E 00 02 35 81 3D A0 00 00 00 00 A7 24 BA B5 00 6B 00 00 FF 7E 3F 51 FB 9A FF FF DB 21 BF 41 09 0E 00 02 4D E8 3D 98 04 D2 00 00 C0 0A 3F 12 AC 17 41 A9 FC A0 41 80 74 00 FB A9] from host [10.200.2.88:5300] by command [5F 03 00 01 00 24 19 6F]
2023-06-18 08:51:23.968: ExecutionforChilledWaterFlowMeter time : 15227

