2023-06-18 09:03:36.689: ExecutionforChilledWaterFlowMeter started
2023-06-18 09:03:36.704: Try to read data from host [10.200.2.88:5300] by the command [5B 03 00 01 00 24 18 EB].
2023-06-18 09:03:37.117: Arrived data length:[77], Data(Hex):[5B 03 48 00 00 00 00 00 00 00 00 00 00 5D C8 44 B8 D3 C5 00 0A F1 16 3F 46 C8 8B FF FF 2E 29 BF 3D 00 E7 00 00 50 3A 3F 44 F2 A1 FF FF AE E7 BA A0 9C 50 00 0A 86 AB 3D 1C 0E 46 00 00 89 0A 3F 44 4F CC 41 68 02 40 41 7E AB 00 E2 3E] from host [10.200.2.88:5300] by command [5B 03 00 01 00 24 18 EB]
2023-06-18 09:03:39.573: Try to read data from host [10.200.2.88:5300] by the command [5A 03 00 01 00 24 19 3A].
2023-06-18 09:03:40.022: Arrived data length:[77], Data(Hex):[5A 03 48 C1 49 E2 35 3B B2 DE E2 BC AA DB 08 44 B7 8C 53 00 44 8F 82 3F 1F 41 35 FF FF 93 5C BE E2 00 8A 00 00 EB F5 3F 53 5F CE FF FF 14 38 BF 4A CD 89 00 43 CA 74 BF 51 A0 BD 00 00 F9 CD 3F 1D 99 EE 41 81 6E 4E 41 82 8F 00 A0 F7] from host [10.200.2.88:5300] by command [5A 03 00 01 00 24 19 3A]
2023-06-18 09:03:42.071: Try to read data from host [10.200.2.88:5300] by the command [5D 03 00 01 00 24 18 8D].
2023-06-18 09:03:42.491: Arrived data length:[77], Data(Hex):[5D 03 48 C2 06 00 AC 3D 87 9A 85 BD 63 97 46 44 B6 F6 CE 00 49 56 6C 3D F4 BC 05 FF FE 74 33 BF 20 00 79 00 00 1E D6 3E 85 56 B7 FF FF 0D D9 BF 42 B2 D3 00 48 E3 19 BF 01 A9 C3 00 00 31 88 3C 93 BB 08 41 7A 20 0E 41 81 55 00 BD 2D] from host [10.200.2.88:5300] by command [5D 03 00 01 00 24 18 8D]
2023-06-18 09:03:44.499: Try to read data from host [10.200.2.88:5300] by the command [5E 03 00 01 00 24 18 BE].
2023-06-18 09:03:44.922: Arrived data length:[77], Data(Hex):[5E 03 48 00 00 00 00 00 00 00 00 00 00 9B 6E 44 B8 28 E5 00 4F E6 11 3F 52 FF F7 FF FF A0 97 BF 72 01 79 00 00 D5 14 3F 37 26 76 FF FF 21 38 BF 30 28 DB 00 4F 3D 87 3F 60 DB 04 00 00 01 B4 3E D0 8E 9A 41 80 C3 B4 41 82 1D 00 40 F5] from host [10.200.2.88:5300] by command [5E 03 00 01 00 24 18 BE]
2023-06-18 09:03:47.196: Try to read data from host [10.200.2.88:5300] by the command [5C 03 00 01 00 24 19 5C].
2023-06-18 09:03:47.626: Arrived data length:[77], Data(Hex):[5C 03 48 41 CB 1E 60 BD BB 6F C6 3E 53 26 FE 44 B8 3A D9 00 14 75 16 3F 4F B8 EA FF FF 4C D7 BE 05 00 BF 00 00 99 B2 3E E7 DD D7 FF FF B9 D1 BE B2 F3 C3 00 13 1B 6C 3F 2E 22 E8 00 00 2E 05 3F 4D D2 68 41 7C 43 CE 41 85 1D 00 B7 68] from host [10.200.2.88:5300] by command [5C 03 00 01 00 24 19 5C]
2023-06-18 09:03:49.667: Try to read data from host [10.200.2.88:5300] by the command [5F 03 00 01 00 24 19 6F].
2023-06-18 09:03:50.104: Arrived data length:[77], Data(Hex):[5F 03 48 BF F7 0E 7B BD 1F 1F DF BD 07 B4 07 44 AA 09 0E 00 02 35 81 3D A0 00 00 00 00 A7 24 BA B5 00 6B 00 00 FF 7E 3F 51 FB 9A FF FF F6 CA BF 43 09 0E 00 02 4D E8 3D 98 04 D2 00 00 DB B3 3F 14 E1 4E 41 AA 6A 0C 41 84 AC 00 5F 70] from host [10.200.2.88:5300] by command [5F 03 00 01 00 24 19 6F]
2023-06-18 09:03:52.112: ExecutionforChilledWaterFlowMeter time : 15421

2023-06-18 09:04:29.371: ExecutionforChilledWaterFlowMeter started
2023-06-18 09:04:29.381: Try to read data from host [10.200.2.88:5300] by the command [5B 03 00 01 00 24 18 EB].
2023-06-18 09:04:29.779: Arrived data length:[77], Data(Hex):[5B 03 48 00 00 00 00 00 00 00 00 00 00 62 41 44 B8 D3 C5 00 0A F1 16 3F 46 C8 8B FF FF 2E 29 BF 3D 00 E7 00 00 50 3A 3F 44 F2 A1 FF FF AE E7 BA A0 9C 50 00 0A 86 AB 3D 1C 0E 46 00 00 89 0A 3F 44 1C F4 41 68 31 40 41 7E 00 00 51 04] from host [10.200.2.88:5300] by command [5B 03 00 01 00 24 18 EB]
2023-06-18 09:04:32.068: Try to read data from host [10.200.2.88:5300] by the command [5A 03 00 01 00 24 19 3A].
2023-06-18 09:04:32.474: Arrived data length:[77], Data(Hex):[5A 03 48 C1 46 DE 1B 3B BD 60 0A BC A8 E0 53 44 B7 8C 53 00 44 8F 82 3F 1F 41 35 FF FF FB CD BF 22 00 8A 00 00 F0 2D 3F 53 5F CE FF FF 14 38 BF 4A CD 88 00 43 25 19 BC 5F A0 BD 00 00 FE 05 3F 1D 9E 08 41 81 82 CA 41 82 AB 00 37 BA] from host [10.200.2.88:5300] by command [5A 03 00 01 00 24 19 3A]
2023-06-18 09:04:34.757: Try to read data from host [10.200.2.88:5300] by the command [5D 03 00 01 00 24 18 8D].
2023-06-18 09:04:35.159: Arrived data length:[77], Data(Hex):[5D 03 48 C2 03 D0 C9 3D 8D E7 1E BD 5F 9A E6 44 B6 F6 CE 00 49 56 6C 3D F4 BC 04 FF FE CA 8D BD EC 00 79 00 00 A8 09 3E 85 56 B7 FF FF 0D D9 BF 42 B2 D3 00 48 08 32 BF 7F A9 C3 00 00 C4 D8 3C 9B 3A 94 41 7A 21 1C 41 81 C8 00 19 B3] from host [10.200.2.88:5300] by command [5D 03 00 01 00 24 18 8D]
2023-06-18 09:04:37.459: Try to read data from host [10.200.2.88:5300] by the command [5E 03 00 01 00 24 18 BE].
2023-06-18 09:04:37.850: Arrived data length:[77], Data(Hex):[5C 03 48 00 00 00 00 00 00 00 00 00 00 9C 05 44 B8 28 E5 00 4F E6 11 3F 52 FF F7 FF FF A0 97 BF 72 01 79 00 00 D5 14 3F 37 26 76 FF FF 21 38 BF 30 28 DB 00 4F 3D 87 3F 60 DB 04 00 00 01 B4 3E D0 5F 7C 41 80 D6 24 41 82 8F 00 3F E4] from host [10.200.2.88:5300] by command [5E 03 00 01 00 24 18 BE]
2023-06-18 09:04:37.850: Try to re-read data from remote host [10.200.2.88:5300] by the command [5E 03 00 01 00 24 18 BE]
2023-06-18 09:04:38.245: Arrived data length:[77], Data(Hex):[5E 03 48 00 00 00 00 00 00 00 00 00 00 9C 05 44 B8 28 E5 00 4F E6 11 3F 52 FF F7 FF FF A0 97 BF 72 01 79 00 00 D5 14 3F 37 26 76 FF FF 21 38 BF 30 28 DB 00 4F 3D 87 3F 60 DB 04 00 00 01 B4 3E D0 5F 7C 41 80 D6 24 41 82 8F 00 3F E4] from host [10.200.2.88:5300] by command [5E 03 00 01 00 24 18 BE]
2023-06-18 09:04:40.527: Try to read data from host [10.200.2.88:5300] by the command [5C 03 00 01 00 24 19 5C].
2023-06-18 09:04:40.929: Arrived data length:[77], Data(Hex):[5C 03 48 41 CA 02 53 BD C3 8B AC 3E 51 2B DE 44 B8 3A DA 00 14 DF D2 3E 39 B8 EA FF FF 4C D7 BE 05 00 BF 00 00 99 B2 3E E7 DD D7 FF FF 6F 0A BE B3 F3 C4 00 13 E4 CB 3D 51 22 E8 00 00 88 9C 3F 4D EF 54 41 7C AC C2 41 85 72 00 2C B1] from host [10.200.2.88:5300] by command [5C 03 00 01 00 24 19 5C]
2023-06-18 09:04:43.238: Try to read data from host [10.200.2.88:5300] by the command [5F 03 00 01 00 24 19 6F].
2023-06-18 09:04:43.643: Arrived data length:[77], Data(Hex):[5F 03 48 BF EE EC 5A BD 1A 4B 75 BD 02 B7 CD 44 AA 09 0E 00 02 35 81 3D A0 00 00 00 00 A7 24 BA B5 00 6B 00 00 FF 7E 3F 51 FB 9A FF FF 1B BC BF 44 09 0E 00 02 4D E8 3D 98 04 D2 00 00 00 A5 3F 15 1B 98 41 AB 40 A2 41 84 C8 00 EA F7] from host [10.200.2.88:5300] by command [5F 03 00 01 00 24 19 6F]
2023-06-18 09:04:45.991: ExecutionforChilledWaterFlowMeter time : 16619

2023-06-18 09:05:49.655: ExecutionforChilledWaterFlowMeter started
2023-06-18 09:05:49.660: Try to read data from host [10.200.2.88:5300] by the command [5B 03 00 01 00 24 18 EB].
2023-06-18 09:05:50.055: Arrived data length:[77], Data(Hex):[5B 03 48 40 C2 B2 9A BD 13 53 39 3C FE 66 82 44 B8 D3 C5 00 0A 6A 58 3F 50 C8 8B FF FF 2E 29 BF 3D 00 E7 00 00 50 3A 3F 44 F2 A1 FF FF 5A 0B BA BD 9C 50 00 0A 0D 5E 3D 9A 0E 46 00 00 97 5F 3F 44 CB 14 41 68 82 44 41 7F 1D 00 8E 09] from host [10.200.2.88:5300] by command [5B 03 00 01 00 24 18 EB]
2023-06-18 09:05:52.331: Try to read data from host [10.200.2.88:5300] by the command [5A 03 00 01 00 24 19 3A].
2023-06-18 09:05:52.733: Arrived data length:[77], Data(Hex):[5A 03 48 C1 3E 33 E8 3C 2C 59 41 BC A1 E7 40 44 B7 8C 53 00 44 8F 82 3F 1F 41 35 FF FF FC AC BF 6D 00 8A 00 00 FA D8 3F 53 5F CE FF FF 14 38 BF 4A CD 88 00 43 FA EB BE 9C A0 BD 00 00 08 B0 3F 1E 9E 08 41 81 4F 0E 41 83 AC 00 3E B4] from host [10.200.2.88:5300] by command [5A 03 00 01 00 24 19 3A]
2023-06-18 09:05:54.752: Try to read data from host [10.200.2.88:5300] by the command [5D 03 00 01 00 24 18 8D].
2023-06-18 09:05:55.160: Arrived data length:[77], Data(Hex):[5D 03 48 C2 0C AE 67 3D 93 E6 EF BD 6E A3 44 44 B6 F6 CE 00 49 56 6C 3D F4 BC 04 FF FE AD A6 BF 5F 00 79 00 00 79 6B 3E 86 56 B7 FF FF 0D D9 BF 42 B2 D2 00 48 1C 87 BF 41 A9 C3 00 00 DB 62 3C A8 95 7C 41 7B B5 E4 41 81 55 00 25 8A] from host [10.200.2.88:5300] by command [5D 03 00 01 00 24 18 8D]
2023-06-18 09:05:57.169: Try to read data from host [10.200.2.88:5300] by the command [5E 03 00 01 00 24 18 BE].
2023-06-18 09:05:57.585: Arrived data length:[77], Data(Hex):[5E 03 48 00 00 00 00 00 00 00 00 00 00 9B 9F 44 B8 28 E5 00 4F E6 11 3F 52 FF F7 FF FF A0 97 BF 72 01 79 00 00 D5 14 3F 37 26 76 FF FF 21 38 BF 30 28 DB 00 4F 3D 87 3F 60 DB 04 00 00 01 B4 3E D0 55 4A 41 80 94 AE 41 81 AB 00 C7 A8] from host [10.200.2.88:5300] by command [5E 03 00 01 00 24 18 BE]
2023-06-18 09:05:59.875: Try to read data from host [10.200.2.88:5300] by the command [5C 03 00 01 00 24 19 5C].
2023-06-18 09:06:00.297: Arrived data length:[77], Data(Hex):[5C 03 48 41 C9 30 03 BD D2 10 CB 3E 51 32 00 44 B8 3A DA 00 14 B7 9E 3F 3D B8 EA FF FF 4C D7 BE 05 00 BF 00 00 99 B2 3E E7 DD D7 FF FF 8C 09 BE B4 F3 C4 00 13 5D FC 3F 1C 22 E8 00 00 17 14 3F 4E 88 6C 41 7C 0D 7A 41 86 8F 00 AB FE] from host [10.200.2.88:5300] by command [5C 03 00 01 00 24 19 5C]
2023-06-18 09:06:02.355: Try to read data from host [10.200.2.88:5300] by the command [5F 03 00 01 00 24 19 6F].
2023-06-18 09:06:02.781: Arrived data length:[77], Data(Hex):[5F 03 48 BF ED F4 E0 BD 18 9C 0E BD 01 BE AD 44 AA 09 0E 00 02 35 81 3D A0 00 00 00 00 A7 24 BA B5 00 6B 00 00 FF 7E 3F 51 FB 9A FF FF 51 A5 BF 44 09 0E 00 02 4D E8 3D 98 04 D2 00 00 36 8E 3F 15 E5 5D 41 AA 54 D6 41 84 90 00 97 A6] from host [10.200.2.88:5300] by command [5F 03 00 01 00 24 19 6F]
2023-06-18 09:06:04.823: ExecutionforChilledWaterFlowMeter time : 15167

2023-06-18 09:07:03.064: ExecutionforChilledWaterFlowMeter started
2023-06-18 09:07:03.070: Try to read data from host [10.200.2.88:5300] by the command [5B 03 00 01 00 24 18 EB].
2023-06-18 09:07:03.564: Arrived data length:[77], Data(Hex):[5B 03 48 00 00 00 00 00 00 00 00 00 00 6E 0F 44 B8 D3 C5 00 0A BA 26 3F 69 C8 8B FF FF 2E 29 BF 3D 00 E7 00 00 50 3A 3F 44 F2 A1 FF FF 4F 06 BB 05 9C 50 00 0A 45 F3 3E 32 0E 46 00 00 BD FA 3F 44 5E 20 41 69 43 DA 41 80 8F 00 6B A6] from host [10.200.2.88:5300] by command [5B 03 00 01 00 24 18 EB]
2023-06-18 09:07:05.847: Try to read data from host [10.200.2.88:5300] by the command [5A 03 00 01 00 24 19 3A].
2023-06-18 09:07:06.247: Arrived data length:[77], Data(Hex):[5A 03 48 C1 5F AD D5 3C 87 D1 E7 BC BD ED C3 44 B7 8C 53 00 44 8F 82 3F 1F 41 34 FF FF 71 19 BE 3D 00 8A 00 00 0A AF 3F 54 5F CE FF FF 14 38 BF 4A CD 88 00 43 DD 11 BF 0F A0 BD 00 00 18 87 3F 1E 61 C6 41 81 A5 C8 41 83 39 00 12 BB] from host [10.200.2.88:5300] by command [5A 03 00 01 00 24 19 3A]
2023-06-18 09:07:08.260: Try to read data from host [10.200.2.88:5300] by the command [5D 03 00 01 00 24 18 8D].
2023-06-18 09:07:08.684: Arrived data length:[77], Data(Hex):[5D 03 48 C2 05 99 B2 3D 95 37 46 BD 63 A7 5F 44 B6 F6 CE 00 49 56 6C 3D F4 BC 03 FF FE 7F 7B BF 11 00 79 00 00 54 1B 3E 87 56 B7 FF FF 0D D9 BF 42 B2 D1 00 48 DC B3 BE E5 A9 C3 00 00 86 B6 3C B6 E9 0C 41 7B 20 FA 41 82 AB 00 D2 0C] from host [10.200.2.88:5300] by command [5D 03 00 01 00 24 18 8D]
2023-06-18 09:07:10.731: Try to read data from host [10.200.2.88:5300] by the command [5E 03 00 01 00 24 18 BE].
2023-06-18 09:07:11.141: Arrived data length:[77], Data(Hex):[5E 03 48 00 00 00 00 00 00 00 00 00 00 9C 5C 44 B8 28 E5 00 4F E6 11 3F 52 FF F7 FF FF A0 97 BF 72 01 79 00 00 D5 14 3F 37 26 76 FF FF 21 38 BF 30 28 DB 00 4F 3D 87 3F 60 DB 04 00 00 01 B4 3E D0 22 10 41 80 77 E8 41 82 56 00 DF F1] from host [10.200.2.88:5300] by command [5E 03 00 01 00 24 18 BE]
2023-06-18 09:07:13.412: Try to read data from host [10.200.2.88:5300] by the command [5C 03 00 01 00 24 19 5C].
2023-06-18 09:07:13.778: Arrived data length:[77], Data(Hex):[5C 03 48 41 CD 3A B9 BD E9 6E 7D 3E 55 32 66 44 B8 3A DB 00 14 4F EB 3E 81 B8 EA FF FF 4C D7 BE 05 00 BF 00 00 99 B2 3E E7 DD D7 FF FF 9E AE BE B5 F3 C5 00 13 72 B4 3D FA 22 E8 00 00 A0 63 3F 4E D9 48 41 7B 63 28 41 86 55 00 76 2D] from host [10.200.2.88:5300] by command [5C 03 00 01 00 24 19 5C]
2023-06-18 09:07:15.828: Try to read data from host [10.200.2.88:5300] by the command [5F 03 00 01 00 24 19 6F].
2023-06-18 09:07:16.201: Arrived data length:[77], Data(Hex):[5F 03 48 BF E6 BA 89 BD 10 21 08 BC FC C0 E1 44 AA 09 0E 00 02 35 81 3D A0 00 00 00 00 A7 24 BA B5 00 6B 00 00 FF 7E 3F 51 FB 9A FF FF 82 DD BF 44 09 0E 00 02 4D E8 3D 98 04 D2 00 00 67 C6 3F 15 2E 97 41 AB AA 1A 41 85 E4 00 47 5A] from host [10.200.2.88:5300] by command [5F 03 00 01 00 24 19 6F]
2023-06-18 09:07:18.257: ExecutionforChilledWaterFlowMeter time : 15192

2023-06-18 09:09:00.279: ExecutionforChilledWaterFlowMeter started
2023-06-18 09:09:00.284: Try to read data from host [10.200.2.88:5300] by the command [5B 03 00 01 00 24 18 EB].
2023-06-18 09:09:00.669: Arrived data length:[77], Data(Hex):[5B 03 48 40 C0 AE 6C BD 1D B5 A8 3C FB 72 82 44 B8 D3 C6 00 0A D6 3B 3C 0A C8 8B FF FF 2E 29 BF 3D 00 E7 00 00 50 3A 3F 44 F2 A1 FF FF 01 96 BB 2D 9C 50 00 0A 05 67 3E 8A 0E 46 00 00 E5 A4 3F 44 AC 50 41 68 96 8E 41 80 C7 00 AE 67] from host [10.200.2.88:5300] by command [5B 03 00 01 00 24 18 EB]
2023-06-18 09:09:02.954: Try to read data from host [10.200.2.88:5300] by the command [5A 03 00 01 00 24 19 3A].
2023-06-18 09:09:03.344: Arrived data length:[77], Data(Hex):[5A 03 48 C1 5E 03 65 3C 94 79 6A BC BC F6 A9 44 B7 8C 53 00 44 8F 82 3F 1F 41 34 FF FF 8F 20 BF 20 00 8A 00 00 2D 67 3F 54 5F CE FF FF 14 38 BF 4A CD 87 00 43 F3 60 BB 87 A0 BD 00 00 3B 3F 3F 1E E6 88 41 81 63 CA 41 84 8F 00 5A CF] from host [10.200.2.88:5300] by command [5A 03 00 01 00 24 19 3A]
2023-06-18 09:09:05.623: Try to read data from host [10.200.2.88:5300] by the command [5D 03 00 01 00 24 18 8D].
2023-06-18 09:09:06.034: Arrived data length:[77], Data(Hex):[5D 03 48 C2 02 C5 2B 3D BD BF 9A BD 5C AE 9B 44 B6 F6 CE 00 49 56 6C 3D F4 BC 02 FF FE BC 9B BF 20 00 79 00 00 B4 3F 3E 88 56 B7 FF FF 0D D9 BF 42 B2 D0 00 48 2B 78 BF 02 A9 C3 00 00 89 04 3C CC 44 DC 41 7A AD B2 41 82 8F 00 25 44] from host [10.200.2.88:5300] by command [5D 03 00 01 00 24 18 8D]
2023-06-18 09:09:08.300: Try to read data from host [10.200.2.88:5300] by the command [5E 03 00 01 00 24 18 BE].
2023-06-18 09:09:08.699: Arrived data length:[77], Data(Hex):[5E 03 48 00 00 00 00 00 00 00 00 00 00 9C 52 44 B8 28 E5 00 4F E6 11 3F 52 FF F7 FF FF A0 97 BF 72 01 79 00 00 D5 14 3F 37 26 76 FF FF 21 38 BF 30 28 DB 00 4F 3D 87 3F 60 DB 04 00 00 01 B4 3E D0 5B 64 41 80 E2 5C 41 82 72 00 05 2D] from host [10.200.2.88:5300] by command [5E 03 00 01 00 24 18 BE]
2023-06-18 09:09:10.980: Try to read data from host [10.200.2.88:5300] by the command [5C 03 00 01 00 24 19 5C].
2023-06-18 09:09:11.386: Arrived data length:[77], Data(Hex):[5C 03 48 41 C7 00 24 BD D4 9E 14 3E 4E 32 A1 44 B8 3A DC 00 14 9C 78 3D A1 B8 EA FF FF 4C D7 BE 05 00 BF 00 00 99 B2 3E E7 DD D7 FF FF 71 B3 BE B7 F3 C5 00 13 D9 E9 3F 72 22 E8 00 00 89 E8 3F 4F 25 00 41 7D 84 CA 41 86 39 00 14 06] from host [10.200.2.88:5300] by command [5C 03 00 01 00 24 19 5C]
2023-06-18 09:09:13.661: Try to read data from host [10.200.2.88:5300] by the command [5F 03 00 01 00 24 19 6F].
2023-06-18 09:09:14.074: Arrived data length:[77], Data(Hex):[5F 03 48 BF E8 C3 38 BD 15 90 D2 BC FD BF E7 44 AA 09 0E 00 02 35 81 3D A0 00 00 00 00 A7 24 BA B5 00 6B 00 00 FF 7E 3F 51 FB 9A FF FF CE F6 BF 44 09 0E 00 02 4D E8 3D 98 04 D2 00 00 B3 DF 3F 15 41 F7 41 AC A7 4A 41 85 E4 00 E1 7C] from host [10.200.2.88:5300] by command [5F 03 00 01 00 24 19 6F]
2023-06-18 09:09:16.348: ExecutionforChilledWaterFlowMeter time : 16069

2023-06-18 09:09:42.730: ExecutionforChilledWaterFlowMeter started
2023-06-18 09:09:42.735: Try to read data from host [10.200.2.88:5300] by the command [5B 03 00 01 00 24 18 EB].
2023-06-18 09:09:43.184: Arrived data length:[77], Data(Hex):[5B 03 48 00 00 00 00 00 00 00 00 00 00 7A 1F 44 B8 D3 C6 00 0A 72 7E 3D 63 C8 8B FF FF 2E 29 BF 3D 00 E7 00 00 50 3A 3F 44 F2 A1 FF FF F6 5E BB 40 9C 50 00 0A 1D 04 3E A2 0E 46 00 00 F9 9A 3F 44 E8 64 41 68 EE 68 41 80 39 00 E9 E5] from host [10.200.2.88:5300] by command [5B 03 00 01 00 24 18 EB]
2023-06-18 09:09:45.463: Try to read data from host [10.200.2.88:5300] by the command [5A 03 00 01 00 24 19 3A].
2023-06-18 09:09:46.418: Arrived data length:[77], Data(Hex):[5A 03 48 C1 61 D9 4A 3C BC 62 AE BC BF FA 93 44 B7 8C 53 00 44 8F 82 3F 1F 41 34 FF FF 80 DB BF 4C 00 8A 00 00 3D DE 3F 54 5F CE FF FF 14 38 BF 4A CD 87 00 43 06 9A BE 34 A0 BD 00 00 4B B6 3F 1E 8E BA 41 81 AF 6C 41 84 39 00 7D 06] from host [10.200.2.88:5300] by command [5A 03 00 01 00 24 19 3A]
2023-06-18 09:09:48.444: Try to read data from host [10.200.2.88:5300] by the command [5D 03 00 01 00 24 18 8D].
2023-06-18 09:09:48.903: Arrived data length:[77], Data(Hex):[5D 03 48 C2 03 E6 76 3D CE 7F 71 BD 5E B3 99 44 B6 F6 CE 00 49 56 6C 3D F4 BC 01 FF FE 7F 66 BC DA 00 79 00 00 46 D2 3E 89 56 B7 FF FF 0D D9 BF 42 B2 D0 00 48 42 D7 BF 68 A9 C3 00 00 B1 F3 3C D5 44 DC 41 7A 07 6E 41 83 1D 00 54 51] from host [10.200.2.88:5300] by command [5D 03 00 01 00 24 18 8D]
2023-06-18 09:09:50.943: Try to read data from host [10.200.2.88:5300] by the command [5E 03 00 01 00 24 18 BE].
2023-06-18 09:09:51.411: Arrived data length:[77], Data(Hex):[5E 03 48 00 00 00 00 00 00 00 00 00 00 9C 98 44 B8 28 E5 00 4F E6 11 3F 52 FF F7 FF FF A0 97 BF 72 01 79 00 00 D5 14 3F 37 26 76 FF FF 21 38 BF 30 28 DB 00 4F 3D 87 3F 60 DB 04 00 00 01 B4 3E D0 33 80 41 80 66 6E 41 83 8F 00 52 EA] from host [10.200.2.88:5300] by command [5E 03 00 01 00 24 18 BE]
2023-06-18 09:09:53.690: Try to read data from host [10.200.2.88:5300] by the command [5C 03 00 01 00 24 19 5C].
2023-06-18 09:09:54.164: Arrived data length:[77], Data(Hex):[5C 03 48 41 CC B1 0D BD D7 EE B4 3E 53 33 FA 44 B8 3A DC 00 14 70 B0 3E C2 B8 EA FF FF 4C D7 BE 05 00 BF 00 00 99 B2 3E E7 DD D7 FF FF 14 52 BE B8 F3 C6 00 13 7A C4 3E 7F 22 E8 00 00 DB 38 3F 4F F5 B0 41 7C 5C A4 41 86 00 00 20 48] from host [10.200.2.88:5300] by command [5C 03 00 01 00 24 19 5C]
2023-06-18 09:09:56.177: Try to read data from host [10.200.2.88:5300] by the command [5F 03 00 01 00 24 19 6F].
2023-06-18 09:09:56.645: Arrived data length:[77], Data(Hex):[5F 03 48 BF E6 90 D3 BD 12 4E 2F BC FB C5 C2 44 AA 09 0E 00 02 35 81 3D A0 00 00 00 00 A7 24 BA B5 00 6B 00 00 FF 7E 3F 51 FB 9A FF FF EA 73 BF 44 09 0E 00 02 4D E8 3D 98 04 D2 00 00 CF 5C 3F 15 AE 14 41 AB 8F 9E 41 85 AC 00 CB 52] from host [10.200.2.88:5300] by command [5F 03 00 01 00 24 19 6F]
2023-06-18 09:09:58.676: ExecutionforChilledWaterFlowMeter time : 15945

2023-06-18 09:10:59.043: ExecutionforChilledWaterFlowMeter started
2023-06-18 09:10:59.048: Try to read data from host [10.200.2.88:5300] by the command [5B 03 00 01 00 24 18 EB].
2023-06-18 09:10:59.397: Arrived data length:[31], Data(Hex):[5B 03 48 40 BC BF 86 BD 1C 60 7E 3C F6 7B 19 44 B8 D3 C6 00 0A 99 3F 3E 03 C8 8B FF FF 2E E9] from host [10.200.2.88:5300] by command [5B 03 00 01 00 24 18 EB]
2023-06-18 09:10:59.398: Read data [5B 03 48 40 BC BF 86 BD 1C 60 7E 3C F6 7B 19 44 B8 D3 C6 00 0A 99 3F 3E 03 C8 8B FF FF 2E E9] is not enough from remote host [10.200.2.88:5300] by the command [5B 03 00 01 00 24 18 EB]
2023-06-18 09:11:01.404: Try to read data from host [10.200.2.88:5300] by the command [5A 03 00 01 00 24 19 3A].
2023-06-18 09:11:01.832: Arrived data length:[77], Data(Hex):[5A 03 48 C1 57 3C 38 3C D7 BA C1 BC B6 FE AF 44 B7 8C 53 00 44 8F 82 3F 1F 41 33 FF FF C6 8F BD BE 00 8A 00 00 5B D4 3F 54 5F CE FF FF 14 38 BF 4A CD 87 00 43 B3 36 BE F0 A0 BD 00 00 69 AC 3F 1E 51 6C 41 81 0D 38 41 85 C7 00 2F E2] from host [10.200.2.88:5300] by command [5A 03 00 01 00 24 19 3A]
2023-06-18 09:11:03.846: Try to read data from host [10.200.2.88:5300] by the command [5D 03 00 01 00 24 18 8D].
2023-06-18 09:11:04.275: Arrived data length:[77], Data(Hex):[5D 03 48 C2 09 D7 25 3D E1 CD 44 BD 68 B4 00 44 B6 F6 CE 00 49 56 6C 3D F4 BC 01 FF FE 75 A0 BF 3D 00 79 00 00 60 2B 3E 8A 56 B7 FF FF 0D D9 BF 42 B2 CF 00 48 E4 7F BF 1E A9 C3 00 00 47 B7 3C E7 13 F4 41 7A 30 34 41 83 00 00 07 67] from host [10.200.2.88:5300] by command [5D 03 00 01 00 24 18 8D]
2023-06-18 09:11:06.312: Try to read data from host [10.200.2.88:5300] by the command [5E 03 00 01 00 24 18 BE].
2023-06-18 09:11:06.753: Arrived data length:[77], Data(Hex):[5E 03 48 00 00 00 00 00 00 00 00 00 00 9D 34 44 B8 28 E5 00 4F E6 11 3F 52 FF F7 FF FF A0 97 BF 72 01 79 00 00 D5 14 3F 37 26 76 FF FF 21 38 BF 30 28 DB 00 4F 3D 87 3F 60 DB 04 00 00 01 B4 3E D0 BE B0 41 80 B2 46 41 82 72 00 62 5F] from host [10.200.2.88:5300] by command [5E 03 00 01 00 24 18 BE]
2023-06-18 09:11:09.032: Try to read data from host [10.200.2.88:5300] by the command [5C 03 00 01 00 24 19 5C].
2023-06-18 09:11:09.475: Arrived data length:[77], Data(Hex):[5C 03 48 41 C5 BA EF BD CB 30 AE 3E 4D 2F 64 44 B8 3A DC 00 14 EA D9 3F 67 B8 EA FF FF 4C D7 BE 05 00 BF 00 00 99 B2 3E E7 DD D7 FF FF 38 13 BE B9 F3 C6 00 13 91 33 3F 46 22 E8 00 00 6D 17 3F 50 D8 C4 41 7C 1C E8 41 86 E4 00 14 C0] from host [10.200.2.88:5300] by command [5C 03 00 01 00 24 19 5C]
2023-06-18 09:11:11.503: Try to read data from host [10.200.2.88:5300] by the command [5F 03 00 01 00 24 19 6F].
2023-06-18 09:11:11.953: Arrived data length:[77], Data(Hex):[5F 03 48 BF EB 77 80 BD 11 C7 B6 BD 00 C1 83 44 AA 09 0E 00 02 35 81 3D A0 00 00 00 00 A7 24 BA B5 00 6B 00 00 FF 7E 3F 51 FB 9A FF FF 1B 4B BF 45 09 0E 00 02 4D E8 3D 98 04 D2 00 00 00 34 3F 16 2E 97 41 AB 44 94 41 86 C8 00 5C 2A] from host [10.200.2.88:5300] by command [5F 03 00 01 00 24 19 6F]
2023-06-18 09:11:13.963: ExecutionforChilledWaterFlowMeter time : 14919

2023-06-18 09:13:03.050: ExecutionforChilledWaterFlowMeter started
2023-06-18 09:13:03.054: Try to read data from host [10.200.2.88:5300] by the command [5B 03 00 01 00 24 18 EB].
2023-06-18 09:13:03.457: Arrived data length:[77], Data(Hex):[5B 03 48 41 00 EF 1B BD 67 A8 6A 3D 27 83 E9 44 B8 D3 C6 00 0A D0 F5 3E A7 C8 8B FF FF 2E 29 BF 3D 00 E7 00 00 50 3A 3F 44 F2 A1 FF FF A9 4E BB 9C 9C 50 00 0A BF D5 3F 16 0E 46 00 00 71 F2 3F 45 69 1C 41 68 BB A2 41 81 39 00 C5 FD] from host [10.200.2.88:5300] by command [5B 03 00 01 00 24 18 EB]
2023-06-18 09:13:05.473: Try to read data from host [10.200.2.88:5300] by the command [5A 03 00 01 00 24 19 3A].
2023-06-18 09:13:05.830: Arrived data length:[44], Data(Hex):[5A 03 48 00 00 00 00 00 00 00 00 00 00 02 FC 44 B8 8C 53 00 44 8F 82 3F 1F 41 33 FF FF 38 20 BE DA 00 8A 00 00 84 E0 3F 54 5F CE FF] from host [10.200.2.88:5300] by command [5A 03 00 01 00 24 19 3A]
2023-06-18 09:13:05.830: Read data [5A 03 48 00 00 00 00 00 00 00 00 00 00 02 FC 44 B8 8C 53 00 44 8F 82 3F 1F 41 33 FF FF 38 20 BE DA 00 8A 00 00 84 E0 3F 54 5F CE FF] is not enough from remote host [10.200.2.88:5300] by the command [5A 03 00 01 00 24 19 3A]
2023-06-18 09:13:07.834: Try to read data from host [10.200.2.88:5300] by the command [5D 03 00 01 00 24 18 8D].
2023-06-18 09:13:08.247: Arrived data length:[77], Data(Hex):[5D 03 48 C1 C3 AA 1B 3D 98 F7 D8 BD 25 B9 BE 44 B6 F6 CE 00 49 56 6C 3D F4 BC 00 FF FE 4C 33 BF 59 00 79 00 00 21 59 3E 8C 56 B7 FF FF 0D D9 BF 42 B2 CE 00 48 BB 10 BF 3A A9 C3 00 00 AD 80 3D 01 2B 44 41 7B 6A 54 41 83 E4 00 41 4F] from host [10.200.2.88:5300] by command [5D 03 00 01 00 24 18 8D]
2023-06-18 09:13:10.256: Try to read data from host [10.200.2.88:5300] by the command [5E 03 00 01 00 24 18 BE].
2023-06-18 09:13:10.677: Arrived data length:[77], Data(Hex):[5E 03 48 00 00 00 00 00 00 00 00 00 00 9E 2C 44 B8 28 E5 00 4F E6 11 3F 52 FF F7 FF FF A0 97 BF 72 01 79 00 00 D5 14 3F 37 26 76 FF FF 21 38 BF 30 28 DB 00 4F 3D 87 3F 60 DB 04 00 00 01 B4 3E D0 8D 90 41 80 45 B2 41 83 72 00 DE F7] from host [10.200.2.88:5300] by command [5E 03 00 01 00 24 18 BE]
2023-06-18 09:13:13.283: Try to read data from host [10.200.2.88:5300] by the command [5C 03 00 01 00 24 19 5C].
2023-06-18 09:13:13.656: Arrived data length:[44], Data(Hex):[5C 03 48 00 00 00 00 00 00 00 00 00 00 31 93 44 B8 3A DD 00 14 D0 61 3F 02 B8 EA FF FF 4C D7 BE 05 00 BF 00 00 99 B2 3E E7 DD D7 FF] from host [10.200.2.88:5300] by command [5C 03 00 01 00 24 19 5C]
2023-06-18 09:13:13.656: Read data [5C 03 48 00 00 00 00 00 00 00 00 00 00 31 93 44 B8 3A DD 00 14 D0 61 3F 02 B8 EA FF FF 4C D7 BE 05 00 BF 00 00 99 B2 3E E7 DD D7 FF] is not enough from remote host [10.200.2.88:5300] by the command [5C 03 00 01 00 24 19 5C]
2023-06-18 09:13:15.660: Try to read data from host [10.200.2.88:5300] by the command [5F 03 00 01 00 24 19 6F].
2023-06-18 09:13:16.093: Arrived data length:[77], Data(Hex):[5F 03 48 BF 33 19 A2 BC 5F D4 AF BC 43 CD 5F 44 AA 09 0E 00 02 35 81 3D A0 00 00 00 00 A7 24 BA B5 00 6B 00 00 FF 7E 3F 51 FB 9A FF FF 5B E9 BF 45 09 0E 00 02 4D E8 3D 98 04 D2 00 00 40 D2 3F 16 A7 47 41 AB 6C 1E 41 86 56 00 A5 F3] from host [10.200.2.88:5300] by command [5F 03 00 01 00 24 19 6F]
2023-06-18 09:13:18.119: ExecutionforChilledWaterFlowMeter time : 15068

2023-06-18 09:17:35.761: ExecutionforChilledWaterFlowMeter started
2023-06-18 09:17:35.771: Try to read data from host [10.200.2.88:5300] by the command [5B 03 00 01 00 24 18 EB].
2023-06-18 09:17:36.185: Arrived data length:[77], Data(Hex):[5B 03 48 40 FD 58 EE BD 3E BB 37 3D 25 79 24 44 B8 D3 C6 00 0A 3E 0A 3F 69 C8 8B FF FF 2E 29 BF 3D 00 E7 00 00 50 3A 3F 44 F2 A1 FF FF 89 B8 BC 0B 9C 51 00 0A 55 A8 3E 30 0E 46 00 00 66 B7 3F 46 32 58 41 6C 54 84 41 81 C7 00 E8 18] from host [10.200.2.88:5300] by command [5B 03 00 01 00 24 18 EB]
2023-06-18 09:17:38.222: Try to read data from host [10.200.2.88:5300] by the command [5A 03 00 01 00 24 19 3A].
2023-06-18 09:17:38.635: Arrived data length:[77], Data(Hex):[5A 03 48 00 00 00 00 00 00 00 00 00 00 03 71 44 B8 8C 53 00 44 8F 82 3F 1F 41 33 FF FF 38 20 BE DA 00 8A 00 00 84 E0 3F 54 5F CE FF FF 14 38 BF 4A CD 87 00 43 9C CB BF 4D A0 BD 00 00 92 B8 3F 1E 73 20 41 81 91 08 41 85 AB 00 CC 6F] from host [10.200.2.88:5300] by command [5A 03 00 01 00 24 19 3A]
2023-06-18 09:17:41.045: Try to read data from host [10.200.2.88:5300] by the command [5D 03 00 01 00 24 18 8D].
2023-06-18 09:17:41.463: Arrived data length:[77], Data(Hex):[5D 03 48 C1 AD 9C 15 3D 9A 2F 11 BD 13 B9 6D 44 B6 F6 CE 00 49 56 6C 3D F4 BB FE FF FE 63 71 BF 14 00 79 00 00 E9 6E 3E 8E 56 B7 FF FF 0D D9 BF 42 B2 CC 00 48 A4 A4 BE EB A9 C3 00 00 EE 54 3D 17 FF B0 41 79 A8 78 41 83 E4 00 18 09] from host [10.200.2.88:5300] by command [5D 03 00 01 00 24 18 8D]
2023-06-18 09:17:43.473: Try to read data from host [10.200.2.88:5300] by the command [5E 03 00 01 00 24 18 BE].
2023-06-18 09:17:43.896: Arrived data length:[77], Data(Hex):[5E 03 48 00 00 00 00 00 00 00 00 00 00 9F 1E 44 B8 28 E5 00 4F E6 11 3F 52 FF F7 FF FF A0 97 BF 72 01 79 00 00 D5 14 3F 37 26 76 FF FF 21 38 BF 30 28 DB 00 4F 3D 87 3F 60 DB 04 00 00 01 B4 3E D0 BD AE 41 80 67 84 41 82 01 00 C4 4F] from host [10.200.2.88:5300] by command [5E 03 00 01 00 24 18 BE]
2023-06-18 09:17:46.223: Try to read data from host [10.200.2.88:5300] by the command [5C 03 00 01 00 24 19 5C].
2023-06-18 09:17:46.653: Arrived data length:[77], Data(Hex):[5C 03 48 00 00 00 00 00 00 00 00 00 00 31 0B 44 B8 3A DD 00 14 D0 61 3F 02 B8 EA FF FF 4C D7 BE 05 00 BF 00 00 99 B2 3E E7 DD D7 FF FF 81 F9 BE BA F3 C7 00 13 ED 75 3E C2 22 E8 00 00 12 00 3F 51 D4 A0 41 7F 51 98 41 86 56 00 05 6A] from host [10.200.2.88:5300] by command [5C 03 00 01 00 24 19 5C]
2023-06-18 09:17:48.975: Try to read data from host [10.200.2.88:5300] by the command [5F 03 00 01 00 24 19 6F].
2023-06-18 09:17:49.412: Arrived data length:[77], Data(Hex):[5F 03 48 BF 79 F2 8D BC 9B 4D 76 BC 88 D2 82 44 AA 09 0E 00 02 35 81 3D A0 00 00 00 00 A7 24 BA B5 00 6B 00 00 FF 7E 3F 51 FB 9A FF FF B7 CC BF 45 09 0E 00 02 4D E8 3D 98 04 D2 00 00 9C B5 3F 16 4B 6B 41 AC E7 1E 41 86 8F 00 5B 58] from host [10.200.2.88:5300] by command [5F 03 00 01 00 24 19 6F]
2023-06-18 09:17:51.441: ExecutionforChilledWaterFlowMeter time : 15679

2023-06-18 09:18:18.548: ExecutionforChilledWaterFlowMeter started
2023-06-18 09:18:18.553: Try to read data from host [10.200.2.88:5300] by the command [5B 03 00 01 00 24 18 EB].
2023-06-18 09:18:19.029: Arrived data length:[77], Data(Hex):[5B 03 48 40 FD 70 1C BD 40 20 FF 3D 26 77 66 44 B8 D3 C7 00 0A 1F 7D 3B A6 C8 8B FF FF 2E 29 BF 3D 00 E7 00 00 50 3A 3F 44 F2 A1 FF FF 76 D0 BC 14 9C 51 00 0A 47 3C 3E 88 0E 46 00 00 8A 68 3F 46 54 E0 41 6C 7E 6A 41 81 90 00 EA AF] from host [10.200.2.88:5300] by command [5B 03 00 01 00 24 18 EB]
2023-06-18 09:18:21.092: Try to read data from host [10.200.2.88:5300] by the command [5A 03 00 01 00 24 19 3A].
2023-06-18 09:18:21.466: Arrived data length:[77], Data(Hex):[5A 03 48 00 00 00 00 00 00 00 00 00 00 03 50 44 B8 8C 53 00 44 8F 82 3F 1F 41 33 FF FF 38 20 BE DA 00 8A 00 00 84 E0 3F 54 5F CE FF FF 14 38 BF 4A CD 87 00 43 9C CB BF 4D A0 BD 00 00 92 B8 3F 1E C3 CC 41 81 7F A0 41 85 90 00 4E 05] from host [10.200.2.88:5300] by command [5A 03 00 01 00 24 19 3A]
2023-06-18 09:18:23.672: Try to read data from host [10.200.2.88:5300] by the command [5D 03 00 01 00 24 18 8D].
2023-06-18 09:18:24.035: Arrived data length:[77], Data(Hex):[5D 03 48 C1 A7 25 E7 3D 8E 1D EC BD 0E B9 18 44 B6 F6 CE 00 49 56 6C 3D F4 BB FE FF FE 7F 49 BF 55 00 79 00 00 56 6B 3E 8F 56 B7 FF FF 0D D9 BF 42 B2 CC 00 48 EE 2C BF 36 A9 C3 00 00 56 68 3D 1B 65 90 41 7A 89 E6 41 83 72 00 3D 6F] from host [10.200.2.88:5300] by command [5D 03 00 01 00 24 18 8D]
2023-06-18 09:18:26.057: Try to read data from host [10.200.2.88:5300] by the command [5E 03 00 01 00 24 18 BE].
2023-06-18 09:18:26.426: Arrived data length:[77], Data(Hex):[5E 03 48 00 00 00 00 00 00 00 00 00 00 9D D0 44 B8 28 E5 00 4F E6 11 3F 52 FF F7 FF FF A0 97 BF 72 01 79 00 00 D5 14 3F 37 26 76 FF FF 21 38 BF 30 28 DB 00 4F 3D 87 3F 60 DB 04 00 00 01 B4 3E D0 00 34 41 81 1E DA 41 82 AB 00 A4 C6] from host [10.200.2.88:5300] by command [5E 03 00 01 00 24 18 BE]
2023-06-18 09:18:28.620: Try to read data from host [10.200.2.88:5300] by the command [5C 03 00 01 00 24 19 5C].
2023-06-18 09:18:28.996: Arrived data length:[77], Data(Hex):[5C 03 48 00 00 00 00 00 00 00 00 00 00 32 4B 44 B8 3A DD 00 14 D0 61 3F 02 B8 EA FF FF 4C D7 BE 05 00 BF 00 00 99 B2 3E E7 DD D7 FF FF 81 F9 BE BA F3 C7 00 13 ED 75 3E C2 22 E8 00 00 12 00 3F 51 F1 78 41 7F 80 DA 41 86 56 00 85 67] from host [10.200.2.88:5300] by command [5C 03 00 01 00 24 19 5C]
2023-06-18 09:18:31.218: Try to read data from host [10.200.2.88:5300] by the command [5F 03 00 01 00 24 19 6F].
2023-06-18 09:18:31.600: Arrived data length:[77], Data(Hex):[5F 03 48 BF 71 0B D0 BC 94 DA 0A BC 83 CF C9 44 AA 09 0E 00 02 35 81 3D A0 00 00 00 00 A7 24 BA B5 00 6B 00 00 FF 7E 3F 51 FB 9A FF FF C6 6A BF 45 09 0E 00 02 4D E8 3D 98 04 D2 00 00 AB 53 3F 16 BB A2 41 AB 09 C2 41 87 E4 00 66 38] from host [10.200.2.88:5300] by command [5F 03 00 01 00 24 19 6F]
2023-06-18 09:18:33.630: ExecutionforChilledWaterFlowMeter time : 15081

2023-06-18 09:18:38.397: ExecutionforChilledWaterFlowMeter started
2023-06-18 09:18:38.398: Try to read data from host [10.200.2.88:5300] by the command [5B 03 00 01 00 24 18 EB].
2023-06-18 09:18:38.790: Arrived data length:[77], Data(Hex):[5B 03 48 40 FD 7C 2B BD 37 E4 96 3D 25 75 BE 44 B8 D3 C7 00 0A 90 43 3D 4A C8 8B FF FF 2E 29 BF 3D 00 E7 00 00 50 3A 3F 44 F2 A1 FF FF 91 08 BC 18 9C 51 00 0A 00 C3 3E 9F 0E 46 00 00 9A D0 3F 46 E2 34 41 6C 42 1E 41 81 C8 00 6F AA] from host [10.200.2.88:5300] by command [5B 03 00 01 00 24 18 EB]
2023-06-18 09:18:40.822: Try to read data from host [10.200.2.88:5300] by the command [5A 03 00 01 00 24 19 3A].
2023-06-18 09:18:41.221: Arrived data length:[77], Data(Hex):[5A 03 48 00 00 00 00 00 00 00 00 00 00 03 58 44 B8 8C 53 00 44 8F 82 3F 1F 41 33 FF FF 38 20 BE DA 00 8A 00 00 84 E0 3F 54 5F CE FF FF 14 38 BF 4A CD 87 00 43 9C CB BF 4D A0 BD 00 00 92 B8 3F 1E C8 DA 41 81 7C 6A 41 85 00 00 CC 64] from host [10.200.2.88:5300] by command [5A 03 00 01 00 24 19 3A]
2023-06-18 09:18:43.408: Try to read data from host [10.200.2.88:5300] by the command [5D 03 00 01 00 24 18 8D].
2023-06-18 09:18:43.811: Arrived data length:[77], Data(Hex):[5D 03 48 C1 A4 FD C5 3D 78 ED 53 BD 0B B8 D8 44 B6 F6 CE 00 49 56 6C 3D F4 BB FE FF FE 41 2C BF 72 00 79 00 00 83 8C 3E 8F 56 B7 FF FF 0D D9 BF 42 B2 CC 00 48 B0 0F BF 53 A9 C3 00 00 BF 73 3D 1C 8F 20 41 7B 6B 60 41 83 72 00 8E CE] from host [10.200.2.88:5300] by command [5D 03 00 01 00 24 18 8D]
2023-06-18 09:18:45.863: Try to read data from host [10.200.2.88:5300] by the command [5E 03 00 01 00 24 18 BE].
2023-06-18 09:18:46.272: Arrived data length:[77], Data(Hex):[5E 03 48 00 00 00 00 00 00 00 00 00 00 9E 2B 44 B8 28 E5 00 4F E6 11 3F 52 FF F7 FF FF A0 97 BF 72 01 79 00 00 D5 14 3F 37 26 76 FF FF 21 38 BF 30 28 DB 00 4F 3D 87 3F 60 DB 04 00 00 01 B4 3E D0 E0 82 41 80 CD FE 41 81 01 00 E6 67] from host [10.200.2.88:5300] by command [5E 03 00 01 00 24 18 BE]
2023-06-18 09:18:48.464: Try to read data from host [10.200.2.88:5300] by the command [5C 03 00 01 00 24 19 5C].
2023-06-18 09:18:48.884: Arrived data length:[77], Data(Hex):[5C 03 48 00 00 00 00 00 00 00 00 00 00 31 EB 44 B8 3A DD 00 14 D0 61 3F 02 B8 EA FF FF 4C D7 BE 05 00 BF 00 00 99 B2 3E E7 DD D7 FF FF 81 F9 BE BA F3 C7 00 13 ED 75 3E C2 22 E8 00 00 12 00 3F 51 F1 78 41 7F 1D FE 41 86 72 00 72 8F] from host [10.200.2.88:5300] by command [5C 03 00 01 00 24 19 5C]
2023-06-18 09:18:51.075: Try to read data from host [10.200.2.88:5300] by the command [5F 03 00 01 00 24 19 6F].
2023-06-18 09:18:51.556: Arrived data length:[77], Data(Hex):[5F 03 48 BF 87 2C 41 BC AC 56 54 BC 94 CA 30 44 AA 09 0E 00 02 35 81 3D A0 00 00 00 00 A7 24 BA B5 00 6B 00 00 FF 7E 3F 51 FB 9A FF FF CD 81 BF 45 09 0E 00 02 4D E8 3D 98 04 D2 00 00 B2 6A 3F 16 6D 56 41 AC 7E 84 41 86 00 00 E9 2A] from host [10.200.2.88:5300] by command [5F 03 00 01 00 24 19 6F]
2023-06-18 09:18:53.599: ExecutionforChilledWaterFlowMeter time : 15202

2023-06-18 09:18:58.410: ExecutionforChilledWaterFlowMeter started
2023-06-18 09:18:58.413: Try to read data from host [10.200.2.88:5300] by the command [5B 03 00 01 00 24 18 EB].
2023-06-18 09:18:58.846: Arrived data length:[77], Data(Hex):[5B 03 48 40 F1 4E 8C BD 34 5A A7 3D 1E 78 4C 44 B8 D3 C7 00 0A 49 82 3D BD C8 8B FF FF 2E 29 BF 3D 00 E7 00 00 50 3A 3F 44 F2 A1 FF FF 93 28 BC 1C 9C 51 00 0A 01 1B 3E B5 0E 46 00 00 AA D9 3F 46 5D B4 41 6C 51 6C 41 81 AC 00 1C 8C] from host [10.200.2.88:5300] by command [5B 03 00 01 00 24 18 EB]
2023-06-18 09:19:00.909: Try to read data from host [10.200.2.88:5300] by the command [5A 03 00 01 00 24 19 3A].
2023-06-18 09:19:01.351: Arrived data length:[77], Data(Hex):[5A 03 48 00 00 00 00 00 00 00 00 00 00 02 ED 44 B8 8C 53 00 44 8F 82 3F 1F 41 33 FF FF 38 20 BE DA 00 8A 00 00 84 E0 3F 54 5F CE FF FF 14 38 BF 4A CD 87 00 43 9C CB BF 4D A0 BD 00 00 92 B8 3F 1E D4 22 41 81 87 C8 41 85 00 00 CE 74] from host [10.200.2.88:5300] by command [5A 03 00 01 00 24 19 3A]
2023-06-18 09:19:03.540: Try to read data from host [10.200.2.88:5300] by the command [5D 03 00 01 00 24 18 8D].
2023-06-18 09:19:03.986: Arrived data length:[77], Data(Hex):[5D 03 48 C1 A2 88 1C 3D 7C 0A AB BD 0A B9 58 44 B6 F6 CE 00 49 56 6C 3D F4 BB FD FF FE 7B 51 BD 76 00 79 00 00 B1 1F 3E 8F 56 B7 FF FF 0D D9 BF 42 B2 CC 00 48 D6 97 BF 70 A9 C3 00 00 2C 12 3D 1E 64 8C 41 7B 7E 9E 41 83 55 00 19 11] from host [10.200.2.88:5300] by command [5D 03 00 01 00 24 18 8D]
2023-06-18 09:19:06.025: Try to read data from host [10.200.2.88:5300] by the command [5E 03 00 01 00 24 18 BE].
2023-06-18 09:19:06.478: Arrived data length:[77], Data(Hex):[5E 03 48 00 00 00 00 00 00 00 00 00 00 9E 55 44 B8 28 E5 00 4F E6 11 3F 52 FF F7 FF FF A0 97 BF 72 01 79 00 00 D5 14 3F 37 26 76 FF FF 21 38 BF 30 28 DB 00 4F 3D 87 3F 60 DB 04 00 00 01 B4 3E D0 87 6C 41 80 F5 E0 41 82 E4 00 6F A7] from host [10.200.2.88:5300] by command [5E 03 00 01 00 24 18 BE]
2023-06-18 09:19:08.666: Try to read data from host [10.200.2.88:5300] by the command [5C 03 00 01 00 24 19 5C].
2023-06-18 09:19:09.127: Arrived data length:[77], Data(Hex):[5C 03 48 00 00 00 00 00 00 00 00 00 00 2F 53 44 B8 3A DD 00 14 D0 61 3F 02 B8 EA FF FF 4C D7 BE 05 00 BF 00 00 99 B2 3E E7 DD D7 FF FF 81 F9 BE BA F3 C7 00 13 ED 75 3E C2 22 E8 00 00 12 00 3F 51 E5 18 41 7F 41 14 41 86 AB 00 7E 61] from host [10.200.2.88:5300] by command [5C 03 00 01 00 24 19 5C]
2023-06-18 09:19:11.322: Try to read data from host [10.200.2.88:5300] by the command [5F 03 00 01 00 24 19 6F].
2023-06-18 09:19:11.775: Arrived data length:[77], Data(Hex):[5F 03 48 BF 84 78 CC BC A5 40 F0 BC 90 CF CA 44 AA 09 0E 00 02 35 81 3D A0 00 00 00 00 A7 24 BA B5 00 6B 00 00 FF 7E 3F 51 FB 9A FF FF D5 09 BF 45 09 0E 00 02 4D E8 3D 98 04 D2 00 00 B9 F2 3F 16 EB 1C 41 AB 6E 40 41 86 90 00 50 31] from host [10.200.2.88:5300] by command [5F 03 00 01 00 24 19 6F]
2023-06-18 09:19:13.784: ExecutionforChilledWaterFlowMeter time : 15372

2023-06-18 09:19:18.400: ExecutionforChilledWaterFlowMeter started
2023-06-18 09:19:18.402: Try to read data from host [10.200.2.88:5300] by the command [5B 03 00 01 00 24 18 EB].
2023-06-18 09:19:18.821: Arrived data length:[77], Data(Hex):[5B 03 48 40 F7 42 FB BD 37 DC 77 3D 21 79 89 44 B8 D3 C7 00 0A 71 61 3E 09 C8 8B FF FF 2E 29 BF 3D 00 E7 00 00 50 3A 3F 44 F2 A1 FF FF 81 CC BC 20 9C 51 00 0A 67 6D 3E CA 0E 46 00 00 BA 92 3F 46 8F 00 41 6B D9 F6 41 80 E4 00 D7 B4] from host [10.200.2.88:5300] by command [5B 03 00 01 00 24 18 EB]
2023-06-18 09:19:20.979: Try to read data from host [10.200.2.88:5300] by the command [5A 03 00 01 00 24 19 3A].
2023-06-18 09:19:21.405: Arrived data length:[77], Data(Hex):[5A 03 48 00 00 00 00 00 00 00 00 00 00 02 6B 44 B8 8C 53 00 44 8F 82 3F 1F 41 33 FF FF 38 20 BE DA 00 8A 00 00 84 E0 3F 54 5F CE FF FF 14 38 BF 4A CD 87 00 43 9C CB BF 4D A0 BD 00 00 92 B8 3F 1E B3 7A 41 81 A0 4C 41 85 AB 00 67 96] from host [10.200.2.88:5300] by command [5A 03 00 01 00 24 19 3A]
2023-06-18 09:19:23.913: Try to read data from host [10.200.2.88:5300] by the command [5D 03 00 01 00 24 18 8D].
2023-06-18 09:19:24.343: Arrived data length:[77], Data(Hex):[5D 03 48 C1 A2 96 D2 3D 7A B7 17 BD 09 B8 B5 44 B6 F6 CE 00 49 56 6C 3D F4 BB FD FF FE CF BB BE 33 00 79 00 00 DE 56 3E 8F 56 B7 FF FF 0D D9 BF 42 B2 CB 00 48 2D 01 BD 66 A9 C3 00 00 95 C3 3D 1F C0 24 41 7B A4 7E 41 83 1D 00 5C 2C] from host [10.200.2.88:5300] by command [5D 03 00 01 00 24 18 8D]
2023-06-18 09:19:26.389: Try to read data from host [10.200.2.88:5300] by the command [5E 03 00 01 00 24 18 BE].
2023-06-18 09:19:26.827: Arrived data length:[77], Data(Hex):[5E 03 48 00 00 00 00 00 00 00 00 00 00 9E 76 44 B8 28 E5 00 4F E6 11 3F 52 FF F7 FF FF A0 97 BF 72 01 79 00 00 D5 14 3F 37 26 76 FF FF 21 38 BF 30 28 DB 00 4F 3D 87 3F 60 DB 04 00 00 01 B4 3E D0 D1 20 41 80 B4 5C 41 82 C7 00 2A 1E] from host [10.200.2.88:5300] by command [5E 03 00 01 00 24 18 BE]
2023-06-18 09:19:29.028: Try to read data from host [10.200.2.88:5300] by the command [5C 03 00 01 00 24 19 5C].
2023-06-18 09:19:29.472: Arrived data length:[77], Data(Hex):[5C 03 48 00 00 00 00 00 00 00 00 00 00 31 EB 44 B8 3A DD 00 14 D0 61 3F 02 B8 EA FF FF 4C D7 BE 05 00 BF 00 00 99 B2 3E E7 DD D7 FF FF 81 F9 BE BA F3 C7 00 13 ED 75 3E C2 22 E8 00 00 12 00 3F 51 23 FE 41 80 F6 F0 41 85 AB 00 47 CF] from host [10.200.2.88:5300] by command [5C 03 00 01 00 24 19 5C]
2023-06-18 09:19:31.664: Try to read data from host [10.200.2.88:5300] by the command [5F 03 00 01 00 24 19 6F].
2023-06-18 09:19:32.117: Arrived data length:[77], Data(Hex):[5F 03 48 BF 75 60 16 BC 96 0D 0A BC 86 CF C8 44 AA 09 0E 00 02 35 81 3D A0 00 00 00 00 A7 24 BA B5 00 6B 00 00 FF 7E 3F 51 FB 9A FF FF DC 2E BF 45 09 0E 00 02 4D E8 3D 98 04 D2 00 00 C1 17 3F 16 C9 32 41 AB 20 08 41 87 3A 00 69 E3] from host [10.200.2.88:5300] by command [5F 03 00 01 00 24 19 6F]
2023-06-18 09:19:34.124: ExecutionforChilledWaterFlowMeter time : 15723

2023-06-18 09:19:38.415: ExecutionforChilledWaterFlowMeter started
2023-06-18 09:19:38.417: Try to read data from host [10.200.2.88:5300] by the command [5B 03 00 01 00 24 18 EB].
2023-06-18 09:19:38.879: Arrived data length:[77], Data(Hex):[5B 03 48 40 F8 C5 08 BD 30 B4 1D 3D 22 79 32 44 B8 D3 C7 00 0A E1 C1 3E 35 C8 8B FF FF 2E 29 BF 3D 00 E7 00 00 50 3A 3F 44 F2 A1 FF FF 8E 3A BC 24 9C 51 00 0A 9F 9E 3E E0 0E 46 00 00 CA BF 3F 46 90 A0 41 6C E8 42 41 80 8F 00 E6 64] from host [10.200.2.88:5300] by command [5B 03 00 01 00 24 18 EB]
2023-06-18 09:19:40.889: Try to read data from host [10.200.2.88:5300] by the command [5A 03 00 01 00 24 19 3A].
2023-06-18 09:19:41.275: Arrived data length:[77], Data(Hex):[5A 03 48 00 00 00 00 00 00 00 00 00 00 02 3D 44 B8 8C 53 00 44 8F 82 3F 1F 41 33 FF FF 38 20 BE DA 00 8A 00 00 84 E0 3F 54 5F CE FF FF 14 38 BF 4A CD 87 00 43 9C CB BF 4D A0 BD 00 00 92 B8 3F 1E FB F2 41 81 86 B4 41 85 1D 00 FA 2E] from host [10.200.2.88:5300] by command [5A 03 00 01 00 24 19 3A]
2023-06-18 09:19:43.468: Try to read data from host [10.200.2.88:5300] by the command [5D 03 00 01 00 24 18 8D].
2023-06-18 09:19:43.858: Arrived data length:[77], Data(Hex):[5D 03 48 C1 A2 41 48 3D 7F 00 D9 BD 0A B9 10 44 B6 F6 CE 00 49 56 6C 3D F4 BB FD FF FE 3D C9 BE 92 00 79 00 00 09 93 3E 90 56 B7 FF FF 0D D9 BF 42 B2 CB 00 48 37 1E BE 2A A9 C3 00 00 EF BF 3D 20 37 90 41 7B 78 8C 41 83 55 00 7C 2A] from host [10.200.2.88:5300] by command [5D 03 00 01 00 24 18 8D]
2023-06-18 09:19:45.886: Try to read data from host [10.200.2.88:5300] by the command [5E 03 00 01 00 24 18 BE].
2023-06-18 09:19:46.281: Arrived data length:[77], Data(Hex):[5E 03 48 00 00 00 00 00 00 00 00 00 00 9E 7F 44 B8 28 E5 00 4F E6 11 3F 52 FF F7 FF FF A0 97 BF 72 01 79 00 00 D5 14 3F 37 26 76 FF FF 21 38 BF 30 28 DB 00 4F 3D 87 3F 60 DB 04 00 00 01 B4 3E D0 C6 E2 41 80 BA 78 41 82 1D 00 E5 7A] from host [10.200.2.88:5300] by command [5E 03 00 01 00 24 18 BE]
2023-06-18 09:19:48.479: Try to read data from host [10.200.2.88:5300] by the command [5C 03 00 01 00 24 19 5C].
2023-06-18 09:19:48.881: Arrived data length:[77], Data(Hex):[5C 03 48 00 00 00 00 00 00 00 00 00 00 30 B7 44 B8 3A DD 00 14 D0 61 3F 02 B8 EA FF FF 4C D7 BE 05 00 BF 00 00 99 B2 3E E7 DD D7 FF FF 81 F9 BE BA F3 C7 00 13 ED 75 3E C2 22 E8 00 00 12 00 3F 51 77 FC 41 7F 12 80 41 86 8F 00 7F AE] from host [10.200.2.88:5300] by command [5C 03 00 01 00 24 19 5C]
2023-06-18 09:19:51.075: Try to read data from host [10.200.2.88:5300] by the command [5F 03 00 01 00 24 19 6F].
2023-06-18 09:19:51.516: Arrived data length:[77], Data(Hex):[5F 03 48 BF 84 21 FB BC A3 6B ED BC 90 C9 93 44 AA 09 0E 00 02 35 81 3D A0 00 00 00 00 A7 24 BA B5 00 6B 00 00 FF 7E 3F 51 FB 9A FF FF E2 E3 BF 45 09 0E 00 02 4D E8 3D 98 04 D2 00 00 C7 CC 3F 16 D9 7D 41 AB EF 3C 41 86 C8 00 B2 16] from host [10.200.2.88:5300] by command [5F 03 00 01 00 24 19 6F]
2023-06-18 09:19:53.574: ExecutionforChilledWaterFlowMeter time : 15159

2023-06-18 09:19:58.413: ExecutionforChilledWaterFlowMeter started
2023-06-18 09:19:58.416: Try to read data from host [10.200.2.88:5300] by the command [5B 03 00 01 00 24 18 EB].
2023-06-18 09:19:58.835: Arrived data length:[77], Data(Hex):[5B 03 48 40 FF 60 D8 BD 3B 6D A3 3D 27 76 D0 44 B8 D3 C7 00 0A E4 B9 3E 62 C8 8B FF FF 2E 29 BF 3D 00 E7 00 00 50 3A 3F 44 F2 A1 FF FF 95 78 BC 28 9C 51 00 0A 21 18 3E F7 0E 46 00 00 DA DC 3F 46 D0 5C 41 6B D9 F6 41 80 00 00 B6 81] from host [10.200.2.88:5300] by command [5B 03 00 01 00 24 18 EB]
2023-06-18 09:20:00.869: Try to read data from host [10.200.2.88:5300] by the command [5A 03 00 01 00 24 19 3A].
2023-06-18 09:20:01.298: Arrived data length:[77], Data(Hex):[5A 03 48 00 00 00 00 00 00 00 00 00 00 02 13 44 B8 8C 53 00 44 8F 82 3F 1F 41 33 FF FF 38 20 BE DA 00 8A 00 00 84 E0 3F 54 5F CE FF FF 14 38 BF 4A CD 87 00 43 9C CB BF 4D A0 BD 00 00 92 B8 3F 1E 0D 56 41 82 67 14 41 85 AB 00 6F E7] from host [10.200.2.88:5300] by command [5A 03 00 01 00 24 19 3A]
2023-06-18 09:20:03.491: Try to read data from host [10.200.2.88:5300] by the command [5D 03 00 01 00 24 18 8D].
2023-06-18 09:20:03.920: Arrived data length:[77], Data(Hex):[5D 03 48 C1 A6 26 28 3D 6F 9A 6D BD 0D B9 15 44 B6 F6 CE 00 49 56 6C 3D F4 BB FD FF FE AB E1 BE CC 00 79 00 00 34 76 3E 90 56 B7 FF FF 0D D9 BF 42 B2 CB 00 48 89 A8 BE 8F A9 C3 00 00 46 C5 3D 22 0F AC 41 7C 62 2C 41 83 55 00 19 EE] from host [10.200.2.88:5300] by command [5D 03 00 01 00 24 18 8D]
2023-06-18 09:20:05.962: Try to read data from host [10.200.2.88:5300] by the command [5E 03 00 01 00 24 18 BE].
2023-06-18 09:20:06.382: Arrived data length:[77], Data(Hex):[5E 03 48 00 00 00 00 00 00 00 00 00 00 9E 04 44 B8 28 E5 00 4F E6 11 3F 52 FF F7 FF FF A0 97 BF 72 01 79 00 00 D5 14 3F 37 26 76 FF FF 21 38 BF 30 28 DB 00 4F 3D 87 3F 60 DB 04 00 00 01 B4 3E D0 D7 46 41 80 A1 E4 41 82 56 00 3E C3] from host [10.200.2.88:5300] by command [5E 03 00 01 00 24 18 BE]
2023-06-18 09:20:08.579: Try to read data from host [10.200.2.88:5300] by the command [5C 03 00 01 00 24 19 5C].
2023-06-18 09:20:08.972: Arrived data length:[77], Data(Hex):[5C 03 48 00 00 00 00 00 00 00 00 00 00 30 60 44 B8 3A DD 00 14 D0 61 3F 02 B8 EA FF FF 4C D7 BE 05 00 BF 00 00 99 B2 3E E7 DD D7 FF FF 81 F9 BE BA F3 C7 00 13 ED 75 3E C2 22 E8 00 00 12 00 3F 51 06 26 41 80 F1 90 41 85 1D 00 BE 96] from host [10.200.2.88:5300] by command [5C 03 00 01 00 24 19 5C]
2023-06-18 09:20:11.178: Try to read data from host [10.200.2.88:5300] by the command [5F 03 00 01 00 24 19 6F].
2023-06-18 09:20:11.579: Arrived data length:[77], Data(Hex):[5F 03 48 BF 86 47 47 BC AA 52 CB BC 92 CD 53 44 AA 09 0E 00 02 35 81 3D A0 00 00 00 00 A7 24 BA B5 00 6B 00 00 FF 7E 3F 51 FB 9A FF FF EA 54 BF 45 09 0E 00 02 4D E8 3D 98 04 D2 00 00 CF 3D 3F 16 48 B9 41 AC 40 AC 41 86 E4 00 AA 52] from host [10.200.2.88:5300] by command [5F 03 00 01 00 24 19 6F]
2023-06-18 09:20:13.587: ExecutionforChilledWaterFlowMeter time : 15173

2023-06-18 09:20:18.415: ExecutionforChilledWaterFlowMeter started
2023-06-18 09:20:18.418: Try to read data from host [10.200.2.88:5300] by the command [5B 03 00 01 00 24 18 EB].
2023-06-18 09:20:18.825: Arrived data length:[77], Data(Hex):[5B 03 48 40 FB 5A 13 BD 35 EE FF 3D 24 79 74 44 B8 D3 C7 00 0A 0A 2A 3E 88 C8 8B FF FF 2E 29 BF 3D 00 E7 00 00 50 3A 3F 44 F2 A1 FF FF AD CC BC 2C 9C 51 00 0A DC 74 3F 06 0E 46 00 00 EB 3B 3F 46 46 1C 41 6D 63 D2 41 81 8F 00 4A 8D] from host [10.200.2.88:5300] by command [5B 03 00 01 00 24 18 EB]
2023-06-18 09:20:20.871: Try to read data from host [10.200.2.88:5300] by the command [5A 03 00 01 00 24 19 3A].
2023-06-18 09:20:21.287: Arrived data length:[77], Data(Hex):[5A 03 48 00 00 00 00 00 00 00 00 00 00 01 DC 44 B8 8C 53 00 44 8F 82 3F 1F 41 33 FF FF 38 20 BE DA 00 8A 00 00 84 E0 3F 54 5F CE FF FF 14 38 BF 4A CD 87 00 43 9C CB BF 4D A0 BD 00 00 92 B8 3F 1E C9 E4 41 81 8D D0 41 85 8F 00 DC 35] from host [10.200.2.88:5300] by command [5A 03 00 01 00 24 19 3A]
2023-06-18 09:20:23.477: Try to read data from host [10.200.2.88:5300] by the command [5D 03 00 01 00 24 18 8D].
2023-06-18 09:20:23.897: Arrived data length:[77], Data(Hex):[5D 03 48 C1 AA 99 3E 3D 87 43 40 BD 10 B9 81 44 B6 F6 CE 00 49 56 6C 3D F4 BB FD FF FE 39 FC BF 04 00 79 00 00 60 7F 3E 90 56 B7 FF FF 0D D9 BF 42 B2 CB 00 48 51 C0 BE CB A9 C3 00 00 A7 12 3D 23 5A 30 41 7B A2 68 41 83 1D 00 ED E2] from host [10.200.2.88:5300] by command [5D 03 00 01 00 24 18 8D]
2023-06-18 09:20:26.020: Try to read data from host [10.200.2.88:5300] by the command [5E 03 00 01 00 24 18 BE].
2023-06-18 09:20:26.449: Arrived data length:[77], Data(Hex):[5E 03 48 00 00 00 00 00 00 00 00 00 00 9D EA 44 B8 28 E5 00 4F E6 11 3F 52 FF F7 FF FF A0 97 BF 72 01 79 00 00 D5 14 3F 37 26 76 FF FF 21 38 BF 30 28 DB 00 4F 3D 87 3F 60 DB 04 00 00 01 B4 3E D0 E0 82 41 80 36 5A 41 83 39 00 CD 77] from host [10.200.2.88:5300] by command [5E 03 00 01 00 24 18 BE]
2023-06-18 09:20:28.921: Try to read data from host [10.200.2.88:5300] by the command [5C 03 00 01 00 24 19 5C].
2023-06-18 09:20:29.357: Arrived data length:[77], Data(Hex):[5C 03 48 00 00 00 00 00 00 00 00 00 00 2F 37 44 B8 3A DD 00 14 D0 61 3F 02 B8 EA FF FF 4C D7 BE 05 00 BF 00 00 99 B2 3E E7 DD D7 FF FF 81 F9 BE BA F3 C7 00 13 ED 75 3E C2 22 E8 00 00 12 00 3F 51 57 0C 41 7F 3B B2 41 86 AB 00 55 DC] from host [10.200.2.88:5300] by command [5C 03 00 01 00 24 19 5C]
2023-06-18 09:20:31.665: Try to read data from host [10.200.2.88:5300] by the command [5F 03 00 01 00 24 19 6F].
2023-06-18 09:20:32.105: Arrived data length:[77], Data(Hex):[5F 03 48 BF 83 7B 5B BC A8 11 40 BC 90 CE B7 44 AA 09 0E 00 02 35 81 3D A0 00 00 00 00 A7 24 BA B5 00 6B 00 00 FF 7E 3F 51 FB 9A FF FF F1 FB BF 45 09 0E 00 02 4D E8 3D 98 04 D2 00 00 D6 E4 3F 16 97 60 41 AC 5F 0E 41 86 1C 00 B5 02] from host [10.200.2.88:5300] by command [5F 03 00 01 00 24 19 6F]
2023-06-18 09:20:34.113: ExecutionforChilledWaterFlowMeter time : 15697

2023-06-18 09:20:38.416: ExecutionforChilledWaterFlowMeter started
2023-06-18 09:20:38.419: Try to read data from host [10.200.2.88:5300] by the command [5B 03 00 01 00 24 18 EB].
2023-06-18 09:20:38.870: Arrived data length:[77], Data(Hex):[5B 03 48 40 FE 98 F0 BD 30 8A 9D 3D 26 78 1E 44 B8 D3 C7 00 0A 8A 38 3E 9E C8 8B FF FF 2E 29 BF 3D 00 E7 00 00 50 3A 3F 44 F2 A1 FF FF 94 E0 BC 30 9C 51 00 0A 1C 78 3F 12 0E 46 00 00 FA D5 3F 46 66 CC 41 6D 12 1E 41 81 C8 00 5A FE] from host [10.200.2.88:5300] by command [5B 03 00 01 00 24 18 EB]
2023-06-18 09:20:40.880: Try to read data from host [10.200.2.88:5300] by the command [5A 03 00 01 00 24 19 3A].
2023-06-18 09:20:41.339: Arrived data length:[77], Data(Hex):[5A 03 48 00 00 00 00 00 00 00 00 00 00 01 F1 44 B8 8C 53 00 44 8F 82 3F 1F 41 33 FF FF 38 20 BE DA 00 8A 00 00 84 E0 3F 54 5F CE FF FF 14 38 BF 4A CD 87 00 43 9C CB BF 4D A0 BD 00 00 92 B8 3F 1E AA 3E 41 81 97 0E 41 85 00 00 6E E3] from host [10.200.2.88:5300] by command [5A 03 00 01 00 24 19 3A]
2023-06-18 09:20:43.533: Try to read data from host [10.200.2.88:5300] by the command [5D 03 00 01 00 24 18 8D].
2023-06-18 09:20:43.995: Arrived data length:[77], Data(Hex):[5D 03 48 C1 AB E2 30 3D 73 48 B4 BD 11 B9 DA 44 B6 F6 CE 00 49 56 6C 3D F4 BB FD FF FE 94 85 BF 22 00 79 00 00 8D 88 3E 90 56 B7 FF FF 0D D9 BF 42 B2 CB 00 48 03 6E BF 04 A9 C3 00 00 0F 4F 3D 25 6B 80 41 7C 87 D0 41 83 8F 00 69 0E] from host [10.200.2.88:5300] by command [5D 03 00 01 00 24 18 8D]
2023-06-18 09:20:46.023: Try to read data from host [10.200.2.88:5300] by the command [5E 03 00 01 00 24 18 BE].
2023-06-18 09:20:46.494: Arrived data length:[77], Data(Hex):[5E 03 48 00 00 00 00 00 00 00 00 00 00 9E 22 44 B8 28 E5 00 4F E6 11 3F 52 FF F7 FF FF A0 97 BF 72 01 79 00 00 D5 14 3F 37 26 76 FF FF 21 38 BF 30 28 DB 00 4F 3D 87 3F 60 DB 04 00 00 01 B4 3E D0 D7 46 41 80 CA DC 41 82 E4 00 6A A0] from host [10.200.2.88:5300] by command [5E 03 00 01 00 24 18 BE]
2023-06-18 09:20:48.674: Try to read data from host [10.200.2.88:5300] by the command [5C 03 00 01 00 24 19 5C].
2023-06-18 09:20:49.155: Arrived data length:[77], Data(Hex):[5C 03 48 00 00 00 00 00 00 00 00 00 00 30 EE 44 B8 3A DD 00 14 D0 61 3F 02 B8 EA FF FF 4C D7 BE 05 00 BF 00 00 99 B2 3E E7 DD D7 FF FF 81 F9 BE BA F3 C7 00 13 ED 75 3E C2 22 E8 00 00 12 00 3F 51 71 D0 41 7F 49 5A 41 86 C7 00 ED BF] from host [10.200.2.88:5300] by command [5C 03 00 01 00 24 19 5C]
2023-06-18 09:20:51.347: Try to read data from host [10.200.2.88:5300] by the command [5F 03 00 01 00 24 19 6F].
2023-06-18 09:20:52.832: Arrived data length:[77], Data(Hex):[5F 03 48 BF 7D E5 DE BC 9E 6A 6A BC 8A CE E5 44 AA 09 0E 00 02 35 81 3D A0 00 00 00 00 A7 24 BA B5 00 6B 00 00 FF 7E 3F 51 FB 9A FF FF F9 6C BF 45 09 0E 00 02 4D E8 3D 98 04 D2 00 00 DE 55 3F 16 52 2E 41 AC CD AE 41 86 C8 00 6B 16] from host [10.200.2.88:5300] by command [5F 03 00 01 00 24 19 6F]
2023-06-18 09:20:54.860: ExecutionforChilledWaterFlowMeter time : 16441

2023-06-18 09:20:58.429: ExecutionforChilledWaterFlowMeter started
2023-06-18 09:20:58.431: Try to read data from host [10.200.2.88:5300] by the command [5B 03 00 01 00 24 18 EB].
2023-06-18 09:20:58.927: Arrived data length:[77], Data(Hex):[5B 03 48 41 00 78 85 BD 26 D5 A3 3D 27 77 F9 44 B8 D3 C7 00 0A 64 43 3E B5 C8 8B FF FF 2E 29 BF 3D 00 E7 00 00 50 3A 3F 44 F2 A1 FF FF 77 1B BC 34 9C 51 00 0A 89 79 3F 1D 0E 46 00 00 0A 5C 3F 47 9D 18 41 6E 01 D0 41 81 AC 00 B0 76] from host [10.200.2.88:5300] by command [5B 03 00 01 00 24 18 EB]
2023-06-18 09:21:00.997: Try to read data from host [10.200.2.88:5300] by the command [5A 03 00 01 00 24 19 3A].
2023-06-18 09:21:01.442: Arrived data length:[77], Data(Hex):[5A 03 48 00 00 00 00 00 00 00 00 00 00 02 2D 44 B8 8C 53 00 44 8F 82 3F 1F 41 33 FF FF 38 20 BE DA 00 8A 00 00 84 E0 3F 54 5F CE FF FF 14 38 BF 4A CD 87 00 43 9C CB BF 4D A0 BD 00 00 92 B8 3F 1E E3 70 41 81 76 64 41 85 00 00 1F 4A] from host [10.200.2.88:5300] by command [5A 03 00 01 00 24 19 3A]
2023-06-18 09:21:03.626: Try to read data from host [10.200.2.88:5300] by the command [5D 03 00 01 00 24 18 8D].
2023-06-18 09:21:04.070: Arrived data length:[77], Data(Hex):[5D 03 48 C1 AB 9E E0 3D 80 60 B1 BD 11 B8 6D 44 B6 F6 CE 00 49 56 6C 3D F4 BB FD FF FE 01 59 BF 41 00 79 00 00 BA A1 3E 90 56 B7 FF FF 0D D9 BF 42 B2 CB 00 48 70 42 BF 22 A9 C3 00 00 78 05 3D 26 05 68 41 7C 9E 70 41 83 E4 00 A0 9C] from host [10.200.2.88:5300] by command [5D 03 00 01 00 24 18 8D]
2023-06-18 09:21:06.100: Try to read data from host [10.200.2.88:5300] by the command [5E 03 00 01 00 24 18 BE].
2023-06-18 09:21:06.470: Arrived data length:[77], Data(Hex):[5E 03 48 00 00 00 00 00 00 00 00 00 00 9E C5 44 B8 28 E5 00 4F E6 11 3F 52 FF F7 FF FF A0 97 BF 72 01 79 00 00 D5 14 3F 37 26 76 FF FF 21 38 BF 30 28 DB 00 4F 3D 87 3F 60 DB 04 00 00 01 B4 3E D0 C9 FA 41 80 07 50 41 83 8F 00 61 69] from host [10.200.2.88:5300] by command [5E 03 00 01 00 24 18 BE]
2023-06-18 09:21:08.670: Try to read data from host [10.200.2.88:5300] by the command [5C 03 00 01 00 24 19 5C].
2023-06-18 09:21:09.046: Arrived data length:[77], Data(Hex):[5C 03 48 00 00 00 00 00 00 00 00 00 00 2F BC 44 B8 3A DD 00 14 D0 61 3F 02 B8 EA FF FF 4C D7 BE 05 00 BF 00 00 99 B2 3E E7 DD D7 FF FF 81 F9 BE BA F3 C7 00 13 ED 75 3E C2 22 E8 00 00 12 00 3F 51 B3 B0 41 7F 8B 42 41 86 1D 00 B8 A5] from host [10.200.2.88:5300] by command [5C 03 00 01 00 24 19 5C]
2023-06-18 09:21:11.243: Try to read data from host [10.200.2.88:5300] by the command [5F 03 00 01 00 24 19 6F].
2023-06-18 09:21:11.625: Arrived data length:[77], Data(Hex):[5F 03 48 BF 81 36 AC BC A5 DE C7 BC 8D CF C8 44 AA 09 0E 00 02 35 81 3D A0 00 00 00 00 A7 24 BA B5 00 6B 00 00 FF 7E 3F 51 FB 9A FF FF 00 33 BF 46 09 0E 00 02 4D E8 3D 98 04 D2 00 00 E5 1C 3F 16 6B F7 41 AC 5C EC 41 86 C8 00 83 ED] from host [10.200.2.88:5300] by command [5F 03 00 01 00 24 19 6F]
2023-06-18 09:21:13.633: ExecutionforChilledWaterFlowMeter time : 15203

2023-06-18 09:21:18.430: ExecutionforChilledWaterFlowMeter started
2023-06-18 09:21:18.432: Try to read data from host [10.200.2.88:5300] by the command [5B 03 00 01 00 24 18 EB].
2023-06-18 09:21:18.824: Arrived data length:[77], Data(Hex):[5B 03 48 40 FB 0D F6 BD 2D B8 65 3D 24 78 29 44 B8 D3 C7 00 0A F4 91 3E CB C8 8B FF FF 2E 29 BF 3D 00 E7 00 00 50 3A 3F 44 F2 A1 FF FF 35 12 BC 38 9C 51 00 0A D1 A3 3F 28 0E 46 00 00 19 51 3F 47 C8 C4 41 6D 2A A0 41 81 C7 00 E8 0C] from host [10.200.2.88:5300] by command [5B 03 00 01 00 24 18 EB]
2023-06-18 09:21:20.855: Try to read data from host [10.200.2.88:5300] by the command [5A 03 00 01 00 24 19 3A].
2023-06-18 09:21:21.254: Arrived data length:[77], Data(Hex):[5A 03 48 00 00 00 00 00 00 00 00 00 00 01 8E 44 B8 8C 53 00 44 8F 82 3F 1F 41 33 FF FF 38 20 BE DA 00 8A 00 00 84 E0 3F 54 5F CE FF FF 14 38 BF 4A CD 87 00 43 9C CB BF 4D A0 BD 00 00 92 B8 3F 1E A3 22 41 81 A0 4C 41 85 00 00 0F AE] from host [10.200.2.88:5300] by command [5A 03 00 01 00 24 19 3A]
2023-06-18 09:21:23.455: Try to read data from host [10.200.2.88:5300] by the command [5D 03 00 01 00 24 18 8D].
2023-06-18 09:21:23.859: Arrived data length:[77], Data(Hex):[5D 03 48 C1 AC DA 38 3D 85 53 1F BD 12 B9 DC 44 B6 F6 CE 00 49 56 6C 3D F4 BB FD FF FE 90 7F BF 5F 00 79 00 00 E9 78 3E 90 56 B7 FF FF 0D D9 BF 42 B2 CB 00 48 FF 68 BF 40 A9 C3 00 00 EE C9 3D 27 A9 CC 41 7B A1 5C 41 83 8F 00 9F DD] from host [10.200.2.88:5300] by command [5D 03 00 01 00 24 18 8D]
2023-06-18 09:21:25.868: Try to read data from host [10.200.2.88:5300] by the command [5E 03 00 01 00 24 18 BE].
2023-06-18 09:21:26.278: Arrived data length:[77], Data(Hex):[5E 03 48 00 00 00 00 00 00 00 00 00 00 9E D7 44 B8 28 E5 00 4F E6 11 3F 52 FF F7 FF FF A0 97 BF 72 01 79 00 00 D5 14 3F 37 26 76 FF FF 21 38 BF 30 28 DB 00 4F 3D 87 3F 60 DB 04 00 00 01 B4 3E D0 AC 4A 41 80 02 40 41 83 C7 00 88 98] from host [10.200.2.88:5300] by command [5E 03 00 01 00 24 18 BE]
2023-06-18 09:21:28.473: Try to read data from host [10.200.2.88:5300] by the command [5C 03 00 01 00 24 19 5C].
2023-06-18 09:21:28.916: Arrived data length:[77], Data(Hex):[5C 03 48 00 00 00 00 00 00 00 00 00 00 30 97 44 B8 3A DD 00 14 D0 61 3F 02 B8 EA FF FF 4C D7 BE 05 00 BF 00 00 99 B2 3E E7 DD D7 FF FF 81 F9 BE BA F3 C7 00 13 ED 75 3E C2 22 E8 00 00 12 00 3F 51 29 A8 41 7F 56 FA 41 86 C7 00 B2 88] from host [10.200.2.88:5300] by command [5C 03 00 01 00 24 19 5C]
2023-06-18 09:21:31.249: Try to read data from host [10.200.2.88:5300] by the command [5F 03 00 01 00 24 19 6F].
2023-06-18 09:21:31.675: Arrived data length:[77], Data(Hex):[5F 03 48 BF 80 E9 A9 BC A3 66 C3 BC 8C CD 4A 44 AA 09 0E 00 02 35 81 3D A0 00 00 00 00 A7 24 BA B5 00 6B 00 00 FF 7E 3F 51 FB 9A FF FF 07 6B BF 46 09 0E 00 02 4D E8 3D 98 04 D2 00 00 EC 54 3F 16 43 41 41 AC 1B E8 41 86 90 00 B6 71] from host [10.200.2.88:5300] by command [5F 03 00 01 00 24 19 6F]
2023-06-18 09:21:33.851: ExecutionforChilledWaterFlowMeter time : 15419

2023-06-18 09:21:38.434: ExecutionforChilledWaterFlowMeter started
2023-06-18 09:21:38.436: Try to read data from host [10.200.2.88:5300] by the command [5B 03 00 01 00 24 18 EB].
2023-06-18 09:21:38.870: Arrived data length:[77], Data(Hex):[5B 03 48 40 F5 79 1E BD 1B FA AA 3D 20 78 35 44 B8 D3 C7 00 0A ED 68 3E E1 C8 8B FF FF 2E 29 BF 3D 00 E7 00 00 50 3A 3F 44 F2 A1 FF FF D7 2E BC 3B 9C 51 00 0A CE 0D 3F 33 0E 46 00 00 27 D6 3F 47 32 00 41 6F 0B 02 41 81 C8 00 25 2E] from host [10.200.2.88:5300] by command [5B 03 00 01 00 24 18 EB]
2023-06-18 09:21:40.888: Try to read data from host [10.200.2.88:5300] by the command [5A 03 00 01 00 24 19 3A].
2023-06-18 09:21:41.328: Arrived data length:[77], Data(Hex):[5A 03 48 00 00 00 00 00 00 00 00 00 00 01 42 44 B8 8C 53 00 44 8F 82 3F 1F 41 33 FF FF 38 20 BE DA 00 8A 00 00 84 E0 3F 54 5F CE FF FF 14 38 BF 4A CD 87 00 43 9C CB BF 4D A0 BD 00 00 92 B8 3F 1E FB F2 41 81 A7 6A 41 85 00 00 08 F5] from host [10.200.2.88:5300] by command [5A 03 00 01 00 24 19 3A]
2023-06-18 09:21:43.517: Try to read data from host [10.200.2.88:5300] by the command [5D 03 00 01 00 24 18 8D].
2023-06-18 09:21:43.961: Arrived data length:[77], Data(Hex):[5D 03 48 C1 AE CC 7D 3D 75 33 03 BD 14 B9 A5 44 B6 F6 CE 00 49 56 6C 3D F4 BB FD FF FE 68 FF BF 7E 00 79 00 00 17 F1 3E 91 56 B7 FF FF 0D D9 BF 42 B2 CB 00 48 D7 E8 BF 5F A9 C3 00 00 62 A5 3D 29 9C 6C 41 7C 8F F8 41 83 8F 00 4A 80] from host [10.200.2.88:5300] by command [5D 03 00 01 00 24 18 8D]
2023-06-18 09:21:46.020: Try to read data from host [10.200.2.88:5300] by the command [5E 03 00 01 00 24 18 BE].
2023-06-18 09:21:46.471: Arrived data length:[77], Data(Hex):[5E 03 48 00 00 00 00 00 00 00 00 00 00 9E CF 44 B8 28 E5 00 4F E6 11 3F 52 FF F7 FF FF A0 97 BF 72 01 79 00 00 D5 14 3F 37 26 76 FF FF 21 38 BF 30 28 DB 00 4F 3D 87 3F 60 DB 04 00 00 01 B4 3E D0 C4 D6 41 80 4D EE 41 82 39 00 25 85] from host [10.200.2.88:5300] by command [5E 03 00 01 00 24 18 BE]
2023-06-18 09:21:48.669: Try to read data from host [10.200.2.88:5300] by the command [5C 03 00 01 00 24 19 5C].
2023-06-18 09:21:49.129: Arrived data length:[77], Data(Hex):[5C 03 48 00 00 00 00 00 00 00 00 00 00 31 90 44 B8 3A DD 00 14 D0 61 3F 02 B8 EA FF FF 4C D7 BE 05 00 BF 00 00 99 B2 3E E7 DD D7 FF FF 81 F9 BE BA F3 C7 00 13 ED 75 3E C2 22 E8 00 00 12 00 3F 51 5F 44 41 7F 71 76 41 86 C7 00 2F 33] from host [10.200.2.88:5300] by command [5C 03 00 01 00 24 19 5C]
2023-06-18 09:21:51.332: Try to read data from host [10.200.2.88:5300] by the command [5F 03 00 01 00 24 19 6F].
2023-06-18 09:21:51.784: Arrived data length:[77], Data(Hex):[5F 03 48 BF 90 53 30 BC B6 55 DC BC 9D CD 78 44 AA 09 0E 00 02 35 81 3D A0 00 00 00 00 A7 24 BA B5 00 6B 00 00 FF 7E 3F 51 FB 9A FF FF 0F 32 BF 46 09 0E 00 02 4D E8 3D 98 04 D2 00 00 F4 1B 3F 16 FE 23 41 AB 1F 14 41 86 C8 00 76 4C] from host [10.200.2.88:5300] by command [5F 03 00 01 00 24 19 6F]
2023-06-18 09:21:53.841: ExecutionforChilledWaterFlowMeter time : 15407

2023-06-18 09:21:58.423: ExecutionforChilledWaterFlowMeter started
2023-06-18 09:21:58.426: Try to read data from host [10.200.2.88:5300] by the command [5B 03 00 01 00 24 18 EB].
2023-06-18 09:21:58.848: Arrived data length:[77], Data(Hex):[5B 03 48 40 F0 44 2A BD 24 53 BE 3D 1D 78 58 44 B8 D3 C7 00 0A 6F 6F 3E F7 C8 8B FF FF 2E 29 BF 3D 00 E7 00 00 50 3A 3F 44 F2 A1 FF FF 5E B0 BC 3F 9C 51 00 0A 8F 12 3F 3E 0E 46 00 00 35 F1 3F 47 DB 04 41 6D 23 82 41 81 8F 00 6D 15] from host [10.200.2.88:5300] by command [5B 03 00 01 00 24 18 EB]
2023-06-18 09:22:00.899: Try to read data from host [10.200.2.88:5300] by the command [5A 03 00 01 00 24 19 3A].
2023-06-18 09:22:01.326: Arrived data length:[77], Data(Hex):[5A 03 48 00 00 00 00 00 00 00 00 00 00 01 7B 44 B8 8C 53 00 44 8F 82 3F 1F 41 33 FF FF 38 20 BE DA 00 8A 00 00 84 E0 3F 54 5F CE FF FF 14 38 BF 4A CD 87 00 43 9C CB BF 4D A0 BD 00 00 92 B8 3F 1E B8 8A 41 81 7C 6A 41 85 AB 00 C9 E0] from host [10.200.2.88:5300] by command [5A 03 00 01 00 24 19 3A]
2023-06-18 09:22:03.510: Try to read data from host [10.200.2.88:5300] by the command [5D 03 00 01 00 24 18 8D].
2023-06-18 09:22:03.940: Arrived data length:[77], Data(Hex):[5D 03 48 C1 AF A6 6B 3D 81 1B 50 BD 15 B9 75 44 B6 F6 CE 00 49 56 6C 3D F4 BB FC FF FE 8A D1 BD EC 00 79 00 00 44 AA 3E 91 56 B7 FF FF 0D D9 BF 42 B2 CB 00 48 00 44 BF 7F A9 C3 00 00 C8 7D 3D 2A EB 08 41 7B 78 8C 41 83 C7 00 A6 76] from host [10.200.2.88:5300] by command [5D 03 00 01 00 24 18 8D]
2023-06-18 09:22:05.988: Try to read data from host [10.200.2.88:5300] by the command [5E 03 00 01 00 24 18 BE].
2023-06-18 09:22:06.426: Arrived data length:[77], Data(Hex):[5E 03 48 00 00 00 00 00 00 00 00 00 00 9E 94 44 B8 28 E5 00 4F E6 11 3F 52 FF F7 FF FF A0 97 BF 72 01 79 00 00 D5 14 3F 37 26 76 FF FF 21 38 BF 30 28 DB 00 4F 3D 87 3F 60 DB 04 00 00 01 B4 3E D0 2E 46 41 81 75 D2 41 82 72 00 FA 8E] from host [10.200.2.88:5300] by command [5E 03 00 01 00 24 18 BE]
2023-06-18 09:22:08.627: Try to read data from host [10.200.2.88:5300] by the command [5C 03 00 01 00 24 19 5C].
2023-06-18 09:22:09.073: Arrived data length:[77], Data(Hex):[5C 03 48 00 00 00 00 00 00 00 00 00 00 35 78 44 B8 3A DD 00 14 D0 61 3F 02 B8 EA FF FF 4C D7 BE 05 00 BF 00 00 99 B2 3E E7 DD D7 FF FF 81 F9 BE BA F3 C7 00 13 ED 75 3E C2 22 E8 00 00 12 00 3F 51 B5 C4 41 7F 10 BC 41 86 56 00 F5 AF] from host [10.200.2.88:5300] by command [5C 03 00 01 00 24 19 5C]
2023-06-18 09:22:11.275: Try to read data from host [10.200.2.88:5300] by the command [5F 03 00 01 00 24 19 6F].
2023-06-18 09:22:11.738: Arrived data length:[77], Data(Hex):[5F 03 48 BF 89 37 E3 BC B4 98 5B BC 96 CE F5 44 AA 09 0E 00 02 35 81 3D A0 00 00 00 00 A7 24 BA B5 00 6B 00 00 FF 7E 3F 51 FB 9A FF FF 17 3D BF 46 09 0E 00 02 4D E8 3D 98 04 D2 00 00 FC 26 3F 16 0A AD 41 AD EE 56 41 85 AC 00 88 62] from host [10.200.2.88:5300] by command [5F 03 00 01 00 24 19 6F]
2023-06-18 09:22:13.766: ExecutionforChilledWaterFlowMeter time : 15342

2023-06-18 09:22:18.432: ExecutionforChilledWaterFlowMeter started
2023-06-18 09:22:18.434: Try to read data from host [10.200.2.88:5300] by the command [5B 03 00 01 00 24 18 EB].
2023-06-18 09:22:18.897: Arrived data length:[77], Data(Hex):[5B 03 48 40 F0 E0 9B BD 1C 25 82 3D 1D 76 47 44 B8 D3 C7 00 0A 66 C1 3F 06 C8 8B FF FF 2E 29 BF 3D 00 E7 00 00 50 3A 3F 44 F2 A1 FF FF F9 0D BC 42 9C 51 00 0A 3E 1C 3F 49 0E 46 00 00 44 58 3F 47 87 18 41 6E 06 DE 41 81 AC 00 6A 7A] from host [10.200.2.88:5300] by command [5B 03 00 01 00 24 18 EB]
2023-06-18 09:22:20.928: Try to read data from host [10.200.2.88:5300] by the command [5A 03 00 01 00 24 19 3A].
2023-06-18 09:22:21.401: Arrived data length:[77], Data(Hex):[5A 03 48 00 00 00 00 00 00 00 00 00 00 01 6F 44 B8 8C 53 00 44 8F 82 3F 1F 41 33 FF FF 38 20 BE DA 00 8A 00 00 84 E0 3F 54 5F CE FF FF 14 38 BF 4A CD 87 00 43 9C CB BF 4D A0 BD 00 00 92 B8 3F 1E 1D A8 41 82 77 6E 41 85 C7 00 81 64] from host [10.200.2.88:5300] by command [5A 03 00 01 00 24 19 3A]
2023-06-18 09:22:23.587: Try to read data from host [10.200.2.88:5300] by the command [5D 03 00 01 00 24 18 8D].
2023-06-18 09:22:24.061: Arrived data length:[77], Data(Hex):[5D 03 48 C1 AE 95 E2 3D 7D 63 F7 BD 14 B9 E6 44 B6 F6 CE 00 49 56 6C 3D F4 BB FC FF FE D7 80 BE 72 00 79 00 00 71 5F 3E 91 56 B7 FF FF 0D D9 BF 42 B2 CA 00 48 26 47 BD F1 A9 C3 00 00 2E 43 3D 2C 6D 84 41 7C A1 5C 41 83 8F 00 99 C9] from host [10.200.2.88:5300] by command [5D 03 00 01 00 24 18 8D]
2023-06-18 09:22:26.071: Try to read data from host [10.200.2.88:5300] by the command [5E 03 00 01 00 24 18 BE].
2023-06-18 09:22:26.497: Arrived data length:[77], Data(Hex):[5E 03 48 00 00 00 00 00 00 00 00 00 00 9E 79 44 B8 28 E5 00 4F E6 11 3F 52 FF F7 FF FF A0 97 BF 72 01 79 00 00 D5 14 3F 37 26 76 FF FF 21 38 BF 30 28 DB 00 4F 3D 87 3F 60 DB 04 00 00 01 B4 3E D0 F4 F4 41 80 F0 A8 41 82 E4 00 27 C5] from host [10.200.2.88:5300] by command [5E 03 00 01 00 24 18 BE]
2023-06-18 09:22:28.695: Try to read data from host [10.200.2.88:5300] by the command [5C 03 00 01 00 24 19 5C].
2023-06-18 09:22:29.097: Arrived data length:[77], Data(Hex):[5C 03 48 00 00 00 00 00 00 00 00 00 00 31 5C 44 B8 3A DD 00 14 D0 61 3F 02 B8 EA FF FF 4C D7 BE 05 00 BF 00 00 99 B2 3E E7 DD D7 FF FF 81 F9 BE BA F3 C7 00 13 ED 75 3E C2 22 E8 00 00 12 00 3F 51 C4 28 41 7F 38 D6 41 86 AB 00 16 AC] from host [10.200.2.88:5300] by command [5C 03 00 01 00 24 19 5C]
2023-06-18 09:22:31.296: Try to read data from host [10.200.2.88:5300] by the command [5F 03 00 01 00 24 19 6F].
2023-06-18 09:22:31.705: Arrived data length:[77], Data(Hex):[5F 03 48 BF 84 9C BB BC A9 29 C1 BC 91 CD 96 44 AA 09 0E 00 02 35 81 3D A0 00 00 00 00 A7 24 BA B5 00 6B 00 00 FF 7E 3F 51 FB 9A FF FF 1E E0 BF 46 09 0E 00 02 4D E8 3D 98 04 D2 00 00 03 C9 3F 17 84 62 41 AC 54 CE 41 86 C8 00 19 0C] from host [10.200.2.88:5300] by command [5F 03 00 01 00 24 19 6F]
2023-06-18 09:22:33.736: ExecutionforChilledWaterFlowMeter time : 15303

2023-06-18 09:22:38.583: ExecutionforChilledWaterFlowMeter started
2023-06-18 09:22:38.586: Try to read data from host [10.200.2.88:5300] by the command [5B 03 00 01 00 24 18 EB].
2023-06-18 09:22:39.005: Arrived data length:[77], Data(Hex):[5B 03 48 40 EE BA DA BD 19 09 99 3D 1C 76 31 44 B8 D3 C7 00 0A 01 5B 3F 11 C8 8B FF FF 2E 29 BF 3D 00 E7 00 00 50 3A 3F 44 F2 A1 FF FF 61 B1 BC 46 9C 51 00 0A D8 B6 3F 53 0E 46 00 00 51 FC 3F 47 38 D0 41 6F 3F 06 41 81 1D 00 2D 37] from host [10.200.2.88:5300] by command [5B 03 00 01 00 24 18 EB]
2023-06-18 09:22:41.152: Try to read data from host [10.200.2.88:5300] by the command [5A 03 00 01 00 24 19 3A].
2023-06-18 09:22:41.577: Arrived data length:[77], Data(Hex):[5A 03 48 00 00 00 00 00 00 00 00 00 00 00 93 44 B8 8C 53 00 44 8F 82 3F 1F 41 33 FF FF 38 20 BE DA 00 8A 00 00 84 E0 3F 54 5F CE FF FF 14 38 BF 4A CD 87 00 43 9C CB BF 4D A0 BD 00 00 92 B8 3F 1E B5 86 41 81 81 B8 41 85 E4 00 F5 0D] from host [10.200.2.88:5300] by command [5A 03 00 01 00 24 19 3A]
2023-06-18 09:22:43.816: Try to read data from host [10.200.2.88:5300] by the command [5D 03 00 01 00 24 18 8D].
2023-06-18 09:22:44.248: Arrived data length:[77], Data(Hex):[5D 03 48 C1 B0 EB BE 3D 74 79 42 BD 15 B9 E7 44 B6 F6 CE 00 49 56 6C 3D F4 BB FC FF FE 72 4E BE B9 00 79 00 00 9E D4 3E 91 56 B7 FF FF 0D D9 BF 42 B2 CA 00 48 A0 3B BE 78 A9 C3 00 00 99 F3 3D 2D E1 C4 41 7C A2 68 41 83 8F 00 BC 9A] from host [10.200.2.88:5300] by command [5D 03 00 01 00 24 18 8D]
2023-06-18 09:22:46.257: Try to read data from host [10.200.2.88:5300] by the command [5E 03 00 01 00 24 18 BE].
2023-06-18 09:22:46.640: Arrived data length:[77], Data(Hex):[5E 03 48 00 00 00 00 00 00 00 00 00 00 9E FE 44 B8 28 E5 00 4F E6 11 3F 52 FF F7 FF FF A0 97 BF 72 01 79 00 00 D5 14 3F 37 26 76 FF FF 21 38 BF 30 28 DB 00 4F 3D 87 3F 60 DB 04 00 00 01 B4 3E D0 49 EA 41 81 E3 66 41 82 56 00 CB E7] from host [10.200.2.88:5300] by command [5E 03 00 01 00 24 18 BE]
2023-06-18 09:22:48.821: Try to read data from host [10.200.2.88:5300] by the command [5C 03 00 01 00 24 19 5C].
2023-06-18 09:22:49.211: Arrived data length:[77], Data(Hex):[5C 03 48 00 00 00 00 00 00 00 00 00 00 34 57 44 B8 3A DD 00 14 D0 61 3F 02 B8 EA FF FF 4C D7 BE 05 00 BF 00 00 99 B2 3E E7 DD D7 FF FF 81 F9 BE BA F3 C7 00 13 ED 75 3E C2 22 E8 00 00 12 00 3F 51 DE FC 41 7F 0C 70 41 86 AB 00 72 B2] from host [10.200.2.88:5300] by command [5C 03 00 01 00 24 19 5C]
2023-06-18 09:22:51.406: Try to read data from host [10.200.2.88:5300] by the command [5F 03 00 01 00 24 19 6F].
2023-06-18 09:22:51.801: Arrived data length:[77], Data(Hex):[5F 03 48 BF 83 8C 45 BC A6 5C 94 BC 8F CC AA 44 AA 09 0E 00 02 35 81 3D A0 00 00 00 00 A7 24 BA B5 00 6B 00 00 FF 7E 3F 51 FB 9A FF FF 26 5D BF 46 09 0E 00 02 4D E8 3D 98 04 D2 00 00 0B 46 3F 17 3F 3A 41 AC 47 C0 41 86 C8 00 12 3A] from host [10.200.2.88:5300] by command [5F 03 00 01 00 24 19 6F]
2023-06-18 09:22:53.809: ExecutionforChilledWaterFlowMeter time : 15225

2023-06-18 09:22:58.447: ExecutionforChilledWaterFlowMeter started
2023-06-18 09:22:58.448: Try to read data from host [10.200.2.88:5300] by the command [5B 03 00 01 00 24 18 EB].
2023-06-18 09:22:58.853: Arrived data length:[77], Data(Hex):[5B 03 48 40 F8 5B 8F BD 15 E8 9B 3D 22 75 96 44 B8 D3 C7 00 0A DB 9D 3F 1B C8 8B FF FF 2E 29 BF 3D 00 E7 00 00 50 3A 3F 44 F2 A1 FF FF BC 19 BC 49 9C 51 00 0A B2 F8 3F 5E 0E 46 00 00 5F 63 3F 47 14 C8 41 70 01 D0 41 81 39 00 2E 68] from host [10.200.2.88:5300] by command [5B 03 00 01 00 24 18 EB]
2023-06-18 09:23:00.902: Try to read data from host [10.200.2.88:5300] by the command [5A 03 00 01 00 24 19 3A].
2023-06-18 09:23:01.315: Arrived data length:[77], Data(Hex):[5A 03 48 00 00 00 00 00 00 00 00 00 00 00 D3 44 B8 8C 53 00 44 8F 82 3F 1F 41 33 FF FF 38 20 BE DA 00 8A 00 00 84 E0 3F 54 5F CE FF FF 14 38 BF 4A CD 87 00 43 9C CB BF 4D A0 BD 00 00 92 B8 3F 1E 3C 42 41 82 9E 2C 41 85 1D 00 03 12] from host [10.200.2.88:5300] by command [5A 03 00 01 00 24 19 3A]
2023-06-18 09:23:03.517: Try to read data from host [10.200.2.88:5300] by the command [5D 03 00 01 00 24 18 8D].
2023-06-18 09:23:03.933: Arrived data length:[77], Data(Hex):[5D 03 48 C1 B0 9B 3C 3D 8B 25 14 BD 16 BA 12 44 B6 F6 CE 00 49 56 6C 3D F4 BB FC FF FE B9 B8 BE F6 00 79 00 00 CB A0 3E 91 56 B7 FF FF 0D D9 BF 42 B2 CA 00 48 97 88 BE B9 A9 C3 00 00 00 5A 3D 2F D8 B8 41 7B D1 3E 41 83 C7 00 04 A5] from host [10.200.2.88:5300] by command [5D 03 00 01 00 24 18 8D]
2023-06-18 09:23:05.985: Try to read data from host [10.200.2.88:5300] by the command [5E 03 00 01 00 24 18 BE].
2023-06-18 09:23:06.410: Arrived data length:[77], Data(Hex):[5E 03 48 00 00 00 00 00 00 00 00 00 00 9E D1 44 B8 28 E5 00 4F E6 11 3F 52 FF F7 FF FF A0 97 BF 72 01 79 00 00 D5 14 3F 37 26 76 FF FF 21 38 BF 30 28 DB 00 4F 3D 87 3F 60 DB 04 00 00 01 B4 3E D0 EF DA 41 80 3F A0 41 82 56 00 67 2C] from host [10.200.2.88:5300] by command [5E 03 00 01 00 24 18 BE]
2023-06-18 09:23:08.594: Try to read data from host [10.200.2.88:5300] by the command [5C 03 00 01 00 24 19 5C].
2023-06-18 09:23:09.022: Arrived data length:[77], Data(Hex):[5C 03 48 00 00 00 00 00 00 00 00 00 00 36 C5 44 B8 3A DD 00 14 D0 61 3F 02 B8 EA FF FF 4C D7 BE 05 00 BF 00 00 99 B2 3E E7 DD D7 FF FF 81 F9 BE BA F3 C7 00 13 ED 75 3E C2 22 E8 00 00 12 00 3F 51 D2 A0 41 7F 71 76 41 86 AB 00 A1 51] from host [10.200.2.88:5300] by command [5C 03 00 01 00 24 19 5C]
2023-06-18 09:23:11.218: Try to read data from host [10.200.2.88:5300] by the command [5F 03 00 01 00 24 19 6F].
2023-06-18 09:23:11.693: Arrived data length:[77], Data(Hex):[5F 03 48 BF 81 F9 62 BC A5 73 26 BC 8D C3 E7 44 AA 09 0E 00 02 35 81 3D A0 00 00 00 00 A7 24 BA B5 00 6B 00 00 FF 7E 3F 51 FB 9A FF FF 2D B0 BF 46 09 0E 00 02 4D E8 3D 98 04 D2 00 00 12 99 3F 17 D9 D6 41 AC 80 A6 41 86 00 00 8A 36] from host [10.200.2.88:5300] by command [5F 03 00 01 00 24 19 6F]
2023-06-18 09:23:13.699: ExecutionforChilledWaterFlowMeter time : 15252

2023-06-18 09:23:18.450: ExecutionforChilledWaterFlowMeter started
2023-06-18 09:23:18.453: Try to read data from host [10.200.2.88:5300] by the command [5B 03 00 01 00 24 18 EB].
2023-06-18 09:23:18.901: Arrived data length:[77], Data(Hex):[5B 03 48 41 02 8C 5E BD 24 FA 5E 3D 2A 74 75 44 B8 D3 C7 00 0A 3C FF 3F 27 C8 8B FF FF 2E 29 BF 3D 00 E7 00 00 50 3A 3F 44 F2 A1 FF FF 2C 31 BC 4D 9C 51 00 0A 14 5A 3F 6A 0E 46 00 00 6D 22 3F 47 1A 14 41 6F F6 86 41 80 E4 00 9E D3] from host [10.200.2.88:5300] by command [5B 03 00 01 00 24 18 EB]
2023-06-18 09:23:20.932: Try to read data from host [10.200.2.88:5300] by the command [5A 03 00 01 00 24 19 3A].
2023-06-18 09:23:21.388: Arrived data length:[77], Data(Hex):[5A 03 48 00 00 00 00 00 00 00 00 00 00 01 02 44 B8 8C 53 00 44 8F 82 3F 1F 41 33 FF FF 38 20 BE DA 00 8A 00 00 84 E0 3F 54 5F CE FF FF 14 38 BF 4A CD 87 00 43 9C CB BF 4D A0 BD 00 00 92 B8 3F 1E 05 24 41 82 7F A0 41 85 8F 00 06 A1] from host [10.200.2.88:5300] by command [5A 03 00 01 00 24 19 3A]
2023-06-18 09:23:23.582: Try to read data from host [10.200.2.88:5300] by the command [5D 03 00 01 00 24 18 8D].
2023-06-18 09:23:24.043: Arrived data length:[77], Data(Hex):[5D 03 48 C1 AD 83 7C 3D 7D 78 BB BD 13 BA 7B 44 B6 F6 CE 00 49 56 6C 3D F4 BB FC FF FE 9D 64 BF 1A 00 79 00 00 FB 82 3E 91 56 B7 FF FF 0D D9 BF 42 B2 CA 00 48 18 9C BE F8 A9 C3 00 00 7F 75 3D 30 81 D4 41 7C B3 C2 41 83 72 00 D9 05] from host [10.200.2.88:5300] by command [5D 03 00 01 00 24 18 8D]
2023-06-18 09:23:26.057: Try to read data from host [10.200.2.88:5300] by the command [5E 03 00 01 00 24 18 BE].
2023-06-18 09:23:26.525: Arrived data length:[77], Data(Hex):[5E 03 48 00 00 00 00 00 00 00 00 00 00 9F 3C 44 B8 28 E5 00 4F E6 11 3F 52 FF F7 FF FF A0 97 BF 72 01 79 00 00 D5 14 3F 37 26 76 FF FF 21 38 BF 30 28 DB 00 4F 3D 87 3F 60 DB 04 00 00 01 B4 3E D0 22 06 41 81 DC 40 41 82 72 00 CA B1] from host [10.200.2.88:5300] by command [5E 03 00 01 00 24 18 BE]
2023-06-18 09:23:28.723: Try to read data from host [10.200.2.88:5300] by the command [5C 03 00 01 00 24 19 5C].
2023-06-18 09:23:29.198: Arrived data length:[77], Data(Hex):[5C 03 48 00 00 00 00 00 00 00 00 00 00 31 DA 44 B8 3A DD 00 14 D0 61 3F 02 B8 EA FF FF 4C D7 BE 05 00 BF 00 00 99 B2 3E E7 DD D7 FF FF 81 F9 BE BA F3 C7 00 13 ED 75 3E C2 22 E8 00 00 12 00 3F 51 EF 74 41 7F 35 A0 41 86 E4 00 3A 7A] from host [10.200.2.88:5300] by command [5C 03 00 01 00 24 19 5C]
2023-06-18 09:23:31.385: Try to read data from host [10.200.2.88:5300] by the command [5F 03 00 01 00 24 19 6F].
2023-06-18 09:23:32.867: Arrived data length:[77], Data(Hex):[5F 03 48 BF 82 6C CA BC A4 B9 8E BC 8E CB C8 44 AA 09 0E 00 02 35 81 3D A0 00 00 00 00 A7 24 BA B5 00 6B 00 00 FF 7E 3F 51 FB 9A FF FF 35 4D BF 46 09 0E 00 02 4D E8 3D 98 04 D2 00 00 1A 36 3F 17 50 D9 41 AC AA 5C 41 86 00 00 CD 51] from host [10.200.2.88:5300] by command [5F 03 00 01 00 24 19 6F]
2023-06-18 09:23:34.874: ExecutionforChilledWaterFlowMeter time : 16423

2023-06-18 09:23:38.461: ExecutionforChilledWaterFlowMeter started
2023-06-18 09:23:38.463: Try to read data from host [10.200.2.88:5300] by the command [5B 03 00 01 00 24 18 EB].
2023-06-18 09:23:38.957: Arrived data length:[77], Data(Hex):[5B 03 48 41 04 68 0D BD 26 E9 7D 3D 2C 74 7C 44 B8 D3 C7 00 0A F3 95 3F 32 C8 8B FF FF 2E 29 BF 3D 00 E7 00 00 50 3A 3F 44 F2 A1 FF FF EA 92 BC 50 9C 51 00 0A CA F0 3F 75 0E 46 00 00 7C 19 3F 47 69 D4 41 6F 1E 5E 41 81 39 00 95 21] from host [10.200.2.88:5300] by command [5B 03 00 01 00 24 18 EB]
2023-06-18 09:23:41.002: Try to read data from host [10.200.2.88:5300] by the command [5A 03 00 01 00 24 19 3A].
2023-06-18 09:23:41.446: Arrived data length:[77], Data(Hex):[5A 03 48 00 00 00 00 00 00 00 00 00 00 00 0A 44 B8 8C 53 00 44 8F 82 3F 1F 41 33 FF FF 38 20 BE DA 00 8A 00 00 84 E0 3F 54 5F CE FF FF 14 38 BF 4A CD 87 00 43 9C CB BF 4D A0 BD 00 00 92 B8 3F 1E 1C A4 41 82 76 64 41 85 8F 00 A7 D3] from host [10.200.2.88:5300] by command [5A 03 00 01 00 24 19 3A]
2023-06-18 09:23:43.937: Try to read data from host [10.200.2.88:5300] by the command [5D 03 00 01 00 24 18 8D].
2023-06-18 09:23:44.385: Arrived data length:[77], Data(Hex):[5D 03 48 C1 AE FF 97 3D 70 FF 3E BD 13 BA A9 44 B6 F6 CE 00 49 56 6C 3D F4 BB FC FF FE 2E 10 BF 3A 00 79 00 00 2A 34 3E 92 56 B7 FF FF 0D D9 BF 42 B2 CA 00 48 9C F9 BF 1B A9 C3 00 00 F4 FF 3D 31 4F E8 41 7D D1 3E 41 83 8F 00 A2 72] from host [10.200.2.88:5300] by command [5D 03 00 01 00 24 18 8D]
2023-06-18 09:23:46.641: Try to read data from host [10.200.2.88:5300] by the command [5E 03 00 01 00 24 18 BE].
2023-06-18 09:23:47.096: Arrived data length:[77], Data(Hex):[5E 03 48 00 00 00 00 00 00 00 00 00 00 9E EA 44 B8 28 E5 00 4F E6 11 3F 52 FF F7 FF FF A0 97 BF 72 01 79 00 00 D5 14 3F 37 26 76 FF FF 21 38 BF 30 28 DB 00 4F 3D 87 3F 60 DB 04 00 00 01 B4 3E D0 FA 18 41 80 DD 4C 41 82 00 00 23 EF] from host [10.200.2.88:5300] by command [5E 03 00 01 00 24 18 BE]
2023-06-18 09:23:49.315: Try to read data from host [10.200.2.88:5300] by the command [5C 03 00 01 00 24 19 5C].
2023-06-18 09:23:49.693: Arrived data length:[77], Data(Hex):[5C 03 48 00 00 00 00 00 00 00 00 00 00 34 2F 44 B8 3A DD 00 14 D0 61 3F 02 B8 EA FF FF 4C D7 BE 05 00 BF 00 00 99 B2 3E E7 DD D7 FF FF 81 F9 BE BA F3 C7 00 13 ED 75 3E C2 22 E8 00 00 12 00 3F 51 E5 18 41 7F 41 14 41 86 8F 00 3D 91] from host [10.200.2.88:5300] by command [5C 03 00 01 00 24 19 5C]
2023-06-18 09:23:51.888: Try to read data from host [10.200.2.88:5300] by the command [5F 03 00 01 00 24 19 6F].
2023-06-18 09:23:52.274: Arrived data length:[77], Data(Hex):[5F 03 48 BF 84 B8 F9 BC AB EE 10 BC 90 CD CC 44 AA 09 0E 00 02 35 81 3D A0 00 00 00 00 A7 24 BA B5 00 6B 00 00 FF 7E 3F 51 FB 9A FF FF 3C A7 BF 46 09 0E 00 02 4D E8 3D 98 04 D2 00 00 21 90 3F 17 D2 FF 41 AC 19 C8 41 86 56 00 A9 35] from host [10.200.2.88:5300] by command [5F 03 00 01 00 24 19 6F]
2023-06-18 09:23:54.301: ExecutionforChilledWaterFlowMeter time : 15838

2023-06-18 09:23:58.467: ExecutionforChilledWaterFlowMeter started
2023-06-18 09:23:58.468: Try to read data from host [10.200.2.88:5300] by the command [5B 03 00 01 00 24 18 EB].
2023-06-18 09:23:58.863: Arrived data length:[77], Data(Hex):[5B 03 48 41 04 2D 51 BD 1A BB 25 3D 2D 74 11 44 B8 D3 C7 00 0A B4 9E 3F 3E C8 8B FF FF 2E 29 BF 3D 00 E7 00 00 50 3A 3F 44 F2 A1 FF FF 93 AD BC 54 9C 52 00 0A FC E1 3B C5 0E 46 00 00 8A BD 3F 47 97 70 41 70 F9 9E 41 80 90 00 05 F1] from host [10.200.2.88:5300] by command [5B 03 00 01 00 24 18 EB]
2023-06-18 09:24:00.908: Try to read data from host [10.200.2.88:5300] by the command [5A 03 00 01 00 24 19 3A].
2023-06-18 09:24:01.312: Arrived data length:[77], Data(Hex):[5A 03 48 00 00 00 00 00 00 00 00 00 00 FF B6 44 B7 8C 53 00 44 8F 82 3F 1F 41 33 FF FF 38 20 BE DA 00 8A 00 00 84 E0 3F 54 5F CE FF FF 14 38 BF 4A CD 87 00 43 9C CB BF 4D A0 BD 00 00 92 B8 3F 1E D3 18 41 81 A7 6A 41 85 8F 00 8E C1] from host [10.200.2.88:5300] by command [5A 03 00 01 00 24 19 3A]
2023-06-18 09:24:03.504: Try to read data from host [10.200.2.88:5300] by the command [5D 03 00 01 00 24 18 8D].
2023-06-18 09:24:03.910: Arrived data length:[77], Data(Hex):[5D 03 48 C1 AF 2A 79 3D 80 1D 8F BD 15 BA E3 44 B6 F6 CE 00 49 56 6C 3D F4 BB FC FF FE A0 47 BF 58 00 79 00 00 54 88 3E 92 56 B7 FF FF 0D D9 BF 42 B2 CA 00 48 0F 30 BF 3A A9 C3 00 00 47 A4 3D 33 A0 70 41 7C C3 06 41 83 1D 00 2D 1F] from host [10.200.2.88:5300] by command [5D 03 00 01 00 24 18 8D]
2023-06-18 09:24:05.944: Try to read data from host [10.200.2.88:5300] by the command [5E 03 00 01 00 24 18 BE].
2023-06-18 09:24:06.358: Arrived data length:[77], Data(Hex):[5E 03 48 00 00 00 00 00 00 00 00 00 00 9E B4 44 B8 28 E5 00 4F E6 11 3F 52 FF F7 FF FF A0 97 BF 72 01 79 00 00 D5 14 3F 37 26 76 FF FF 21 38 BF 30 28 DB 00 4F 3D 87 3F 60 DB 04 00 00 01 B4 3E D0 D9 52 41 80 ED AE 41 82 AB 00 36 CA] from host [10.200.2.88:5300] by command [5E 03 00 01 00 24 18 BE]
2023-06-18 09:24:08.519: Try to read data from host [10.200.2.88:5300] by the command [5C 03 00 01 00 24 19 5C].
2023-06-18 09:24:08.963: Arrived data length:[77], Data(Hex):[5C 03 48 00 00 00 00 00 00 00 00 00 00 31 9D 44 B8 3A DD 00 14 D0 61 3F 02 B8 EA FF FF 4C D7 BE 05 00 BF 00 00 99 B2 3E E7 DD D7 FF FF 81 F9 BE BA F3 C7 00 13 ED 75 3E C2 22 E8 00 00 12 00 3F 51 A5 4C 41 7F EF CA 41 85 8F 00 0B 71] from host [10.200.2.88:5300] by command [5C 03 00 01 00 24 19 5C]
2023-06-18 09:24:11.123: Try to read data from host [10.200.2.88:5300] by the command [5F 03 00 01 00 24 19 6F].
2023-06-18 09:24:11.443: Arrived data length:[71], Data(Hex):[5D 03 48 C1 AF E2 56 3D 86 16 14 BD 15 BB 6B 44 B6 F6 CE 00 49 56 6C 3D F4 BB FC FF FE 54 95 BF 64 00 79 00 00 65 C3 3E 92 56 B7 FF FF 0D D9 BF 42 B2 CA 00 48 C3 7E BF 45 A9 C3 00 00 D1 8A 3D 33 0D A8 41 7C C3 06] from host [10.200.2.88:5300] by command [5F 03 00 01 00 24 19 6F]
2023-06-18 09:24:11.443: Try to re-read data from remote host [10.200.2.88:5300] by the command [5F 03 00 01 00 24 19 6F]
2023-06-18 09:24:11.873: Arrived data length:[77], Data(Hex):[5F 03 48 BF 87 77 EB BC B0 ED C7 BC 93 CD 14 44 AA 09 0E 00 02 35 81 3D A0 00 00 00 00 A7 24 BA B5 00 6B 00 00 FF 7E 3F 51 FB 9A FF FF 44 31 BF 46 09 0E 00 02 4D E8 3D 98 04 D2 00 00 29 1A 3F 17 16 F3 41 AD 1A 2E 41 86 C8 00 A0 E1] from host [10.200.2.88:5300] by command [5F 03 00 01 00 24 19 6F]
2023-06-18 09:24:13.904: ExecutionforChilledWaterFlowMeter time : 15437

2023-06-18 09:24:18.467: ExecutionforChilledWaterFlowMeter started
2023-06-18 09:24:18.468: Try to read data from host [10.200.2.88:5300] by the command [5B 03 00 01 00 24 18 EB].
2023-06-18 09:24:18.908: Arrived data length:[77], Data(Hex):[5B 03 48 41 03 02 39 BD 20 15 94 3D 2C 70 62 44 B8 D3 C7 00 0A 7A F8 3F 4A C8 8B FF FF 2E 29 BF 3D 00 E7 00 00 50 3A 3F 44 F2 A1 FF FF 0C 01 BC 58 9C 52 00 0A 25 3B 3D 55 0E 46 00 00 98 9D 3F 47 90 34 41 6F E0 12 41 80 AC 00 11 14] from host [10.200.2.88:5300] by command [5B 03 00 01 00 24 18 EB]
2023-06-18 09:24:20.958: Try to read data from host [10.200.2.88:5300] by the command [5A 03 00 01 00 24 19 3A].
2023-06-18 09:24:21.405: Arrived data length:[77], Data(Hex):[5A 03 48 00 00 00 00 00 00 00 00 00 00 FF A3 44 B7 8C 53 00 44 8F 82 3F 1F 41 33 FF FF 38 20 BE DA 00 8A 00 00 84 E0 3F 54 5F CE FF FF 14 38 BF 4A CD 87 00 43 9C CB BF 4D A0 BD 00 00 92 B8 3F 1E ED AE 41 81 91 08 41 85 1D 00 AD 5E] from host [10.200.2.88:5300] by command [5A 03 00 01 00 24 19 3A]
2023-06-18 09:24:23.566: Try to read data from host [10.200.2.88:5300] by the command [5D 03 00 01 00 24 18 8D].
2023-06-18 09:24:24.018: Arrived data length:[77], Data(Hex):[5D 03 48 C1 AF CD 3E 3D 87 44 A1 BD 15 BA E4 44 B6 F6 CE 00 49 56 6C 3D F4 BB FC FF FE DB A3 BF 77 00 79 00 00 84 63 3E 92 56 B7 FF FF 0D D9 BF 42 B2 CA 00 48 4A 8C BF 59 A9 C3 00 00 C6 8A 3D 34 CE 70 41 7B AB 9A 41 83 C7 00 E6 2C] from host [10.200.2.88:5300] by command [5D 03 00 01 00 24 18 8D]
2023-06-18 09:24:26.072: Try to read data from host [10.200.2.88:5300] by the command [5E 03 00 01 00 24 18 BE].
2023-06-18 09:24:26.530: Arrived data length:[77], Data(Hex):[5E 03 48 00 00 00 00 00 00 00 00 00 00 9E 3C 44 B8 28 E5 00 4F E6 11 3F 52 FF F7 FF FF A0 97 BF 72 01 79 00 00 D5 14 3F 37 26 76 FF FF 21 38 BF 30 28 DB 00 4F 3D 87 3F 60 DB 04 00 00 01 B4 3E D0 2B 3A 41 81 1E D0 41 83 AB 00 C0 B1] from host [10.200.2.88:5300] by command [5E 03 00 01 00 24 18 BE]
2023-06-18 09:24:28.734: Try to read data from host [10.200.2.88:5300] by the command [5C 03 00 01 00 24 19 5C].
2023-06-18 09:24:29.183: Arrived data length:[77], Data(Hex):[5C 03 48 00 00 00 00 00 00 00 00 00 00 30 86 44 B8 3A DD 00 14 D0 61 3F 02 B8 EA FF FF 4C D7 BE 05 00 BF 00 00 99 B2 3E E7 DD D7 FF FF 81 F9 BE BA F3 C7 00 13 ED 75 3E C2 22 E8 00 00 12 00 3F 51 11 00 41 7F 10 BC 41 86 1D 00 4C 5C] from host [10.200.2.88:5300] by command [5C 03 00 01 00 24 19 5C]
2023-06-18 09:24:31.387: Try to read data from host [10.200.2.88:5300] by the command [5F 03 00 01 00 24 19 6F].
2023-06-18 09:24:31.803: Arrived data length:[77], Data(Hex):[5F 03 48 BF 89 F8 9E BC AE 3E B8 BC 96 CB B0 44 AA 09 0E 00 02 35 81 3D A0 00 00 00 00 A7 24 BA B5 00 6B 00 00 FF 7E 3F 51 FB 9A FF FF 4C 1F BF 46 09 0E 00 02 4D E8 3D 98 04 D2 00 00 31 08 3F 17 75 76 41 AC 66 20 41 86 C8 00 44 6E] from host [10.200.2.88:5300] by command [5F 03 00 01 00 24 19 6F]
2023-06-18 09:24:33.854: ExecutionforChilledWaterFlowMeter time : 15387

2023-06-18 09:24:38.473: ExecutionforChilledWaterFlowMeter started
2023-06-18 09:24:38.475: Try to read data from host [10.200.2.88:5300] by the command [5B 03 00 01 00 24 18 EB].
2023-06-18 09:24:38.902: Arrived data length:[77], Data(Hex):[5B 03 48 41 03 DB 34 BD 19 18 75 3D 2C 73 01 44 B8 D3 C7 00 0A 1A 4F 3F 56 C8 8B FF FF 2E 29 BF 3D 00 E7 00 00 50 3A 3F 44 F2 A1 FF FF 95 B3 BC 5B 9C 52 00 0A 8D 72 3D C7 0E 46 00 00 A6 C0 3F 47 28 F4 41 70 D2 D0 41 80 AC 00 C9 CC] from host [10.200.2.88:5300] by command [5B 03 00 01 00 24 18 EB]
2023-06-18 09:24:40.912: Try to read data from host [10.200.2.88:5300] by the command [5A 03 00 01 00 24 19 3A].
2023-06-18 09:24:41.345: Arrived data length:[77], Data(Hex):[5A 03 48 00 00 00 00 00 00 00 00 00 00 FF 6D 44 B7 8C 53 00 44 8F 82 3F 1F 41 33 FF FF 38 20 BE DA 00 8A 00 00 84 E0 3F 54 5F CE FF FF 14 38 BF 4A CD 87 00 43 9C CB BF 4D A0 BD 00 00 92 B8 3F 1E 03 18 41 82 75 4C 41 85 1D 00 EB F5] from host [10.200.2.88:5300] by command [5A 03 00 01 00 24 19 3A]
2023-06-18 09:24:43.543: Try to read data from host [10.200.2.88:5300] by the command [5D 03 00 01 00 24 18 8D].
2023-06-18 09:24:43.979: Arrived data length:[77], Data(Hex):[5D 03 48 C1 AE 91 95 3D 73 C1 78 BD 13 BA E1 44 B6 F6 CE 00 49 56 6C 3D F4 BB FB FF FE 8B 35 BD B7 00 79 00 00 B2 DE 3E 92 56 B7 FF FF 0D D9 BF 42 B2 CA 00 48 60 4D BF 78 A9 C3 00 00 3A 50 3D 36 BD 20 41 7C 98 1E 41 83 39 00 52 80] from host [10.200.2.88:5300] by command [5D 03 00 01 00 24 18 8D]
2023-06-18 09:24:46.037: Try to read data from host [10.200.2.88:5300] by the command [5E 03 00 01 00 24 18 BE].
2023-06-18 09:24:46.482: Arrived data length:[77], Data(Hex):[5E 03 48 00 00 00 00 00 00 00 00 00 00 9E 35 44 B8 28 E5 00 4F E6 11 3F 52 FF F7 FF FF A0 97 BF 72 01 79 00 00 D5 14 3F 37 26 76 FF FF 21 38 BF 30 28 DB 00 4F 3D 87 3F 60 DB 04 00 00 01 B4 3E D0 1A D6 41 81 FE 12 41 82 72 00 74 A9] from host [10.200.2.88:5300] by command [5E 03 00 01 00 24 18 BE]
