2023-06-18 23:47:09.460: ExecutionforChilledWaterFlowMeter started
2023-06-18 23:47:09.471: Try to read data from host [10.200.2.88:5300] by the command [5B 03 00 01 00 24 18 EB].
2023-06-18 23:47:10.268: Arrived data length:[77], Data(Hex):[5B 03 48 40 FB 77 1F 3D FA E0 7A 3D 24 3E CE 44 B9 D4 38 00 0A 54 A0 3E C9 C8 8B FF FF 2E 29 BF 3D 00 E9 00 00 53 28 3E 3D F2 A1 FF FF 2E DD BD 4C 9C C2 00 0A 81 D9 3F 27 0E 48 00 00 FC 0D 3E 6F E8 DF 41 AD 22 2F 41 90 55 00 21 33] from host [10.200.2.88:5300] by command [5B 03 00 01 00 24 18 EB]
2023-06-18 23:47:13.326: Try to read data from host [10.200.2.88:5300] by the command [5A 03 00 01 00 24 19 3A].
2023-06-18 23:47:13.794: Arrived data length:[77], Data(Hex):[5A 03 48 00 00 00 00 00 00 00 00 00 00 71 D1 44 B8 8C 53 00 44 8F 82 3F 1F 41 33 FF FF 38 20 BE DA 00 8A 00 00 84 E0 3F 54 5F CE FF FF 14 38 BF 4A CD 87 00 43 9C CB BF 4D A0 BD 00 00 92 B8 3F 1E 3D 8A 41 8B B8 1A 41 8B E4 00 C7 F3] from host [10.200.2.88:5300] by command [5A 03 00 01 00 24 19 3A]
2023-06-18 23:47:17.235: Try to read data from host [10.200.2.88:5300] by the command [5D 03 00 01 00 24 18 8D].
2023-06-18 23:47:17.658: Arrived data length:[77], Data(Hex):[5D 03 48 C1 D1 C4 D3 BD 2B 10 75 BD 32 08 6A 44 B7 F6 CE 00 49 56 6C 3D F4 BA B9 FF FE 1A 82 BE E5 00 79 00 00 A2 DA 3F 35 56 B7 FF FF 7A 13 BF 46 B1 87 00 48 F7 D5 BE A7 A9 C3 00 00 3C 35 3E F8 9D 0C 41 8C 8D B8 41 89 E4 00 CB 5D] from host [10.200.2.88:5300] by command [5D 03 00 01 00 24 18 8D]
2023-06-18 23:47:20.939: Try to read data from host [10.200.2.88:5300] by the command [5E 03 00 01 00 24 18 BE].
2023-06-18 23:47:21.372: Arrived data length:[77], Data(Hex):[5E 03 48 00 00 00 00 00 00 00 00 00 00 15 F9 44 B9 28 E5 00 4F E6 11 3F 52 FF F7 FF FF A0 97 BF 72 01 79 00 00 D5 14 3F 37 26 76 FF FF 21 38 BF 30 28 DB 00 4F 3D 87 3F 60 DB 04 00 00 01 B4 3E D0 75 10 41 8A C3 02 41 8C 56 00 01 A0] from host [10.200.2.88:5300] by command [5E 03 00 01 00 24 18 BE]
2023-06-18 23:47:24.598: Try to read data from host [10.200.2.88:5300] by the command [5C 03 00 01 00 24 19 5C].
2023-06-18 23:47:25.040: Arrived data length:[77], Data(Hex):[5C 03 48 00 00 00 00 00 00 00 00 00 00 CA DC 44 B8 3A DD 00 14 D0 61 3F 02 B8 EA FF FF 4C D7 BE 05 00 BF 00 00 99 B2 3E E7 DD D7 FF FF 81 F9 BE BA F3 C7 00 13 ED 75 3E C2 22 E8 00 00 12 00 3F 51 A3 8D 41 D7 AE 11 41 92 8F 00 EF 73] from host [10.200.2.88:5300] by command [5C 03 00 01 00 24 19 5C]
2023-06-18 23:47:28.239: Try to read data from host [10.200.2.88:5300] by the command [5F 03 00 01 00 24 19 6F].
2023-06-18 23:47:28.683: Arrived data length:[77], Data(Hex):[5F 03 48 BF 56 2C F2 BC 69 DD 3C BC 69 27 A5 44 AD 09 0E 00 02 35 81 3D A0 00 00 00 00 A7 24 BA B5 00 6B 00 00 FF 7E 3F 51 FB 99 FF FF D4 DE BE 68 09 0E 00 02 4D E8 3D 98 04 D3 00 00 68 EF 3D 31 3D D1 41 DC 94 ED 41 BB 56 00 EE 40] from host [10.200.2.88:5300] by command [5F 03 00 01 00 24 19 6F]
2023-06-18 23:47:31.727: ExecutionforChilledWaterFlowMeter time : 22266

2023-06-18 23:49:09.376: ExecutionforChilledWaterFlowMeter started
2023-06-18 23:49:09.377: Try to read data from host [10.200.2.88:5300] by the command [5B 03 00 01 00 24 18 EB].
2023-06-18 23:49:09.763: Arrived data length:[77], Data(Hex):[5B 03 48 40 FC 1E 46 3D FB 1F E7 3D 25 3E 45 44 B9 D4 38 00 0A 9D 35 3F 27 C8 8B FF FF 2E 29 BF 3D 00 E9 00 00 78 26 3E 41 F2 A1 FF FF 2E DD BD 4C 9C C2 00 0A 74 BE 3F 6A 0E 48 00 00 21 0B 3E 74 E2 12 41 AD 12 FD 41 90 E4 00 6F 68] from host [10.200.2.88:5300] by command [5B 03 00 01 00 24 18 EB]
2023-06-18 23:49:12.794: Try to read data from host [10.200.2.88:5300] by the command [5A 03 00 01 00 24 19 3A].
2023-06-18 23:49:13.190: Arrived data length:[77], Data(Hex):[5A 03 48 00 00 00 00 00 00 00 00 00 00 71 75 44 B8 8C 53 00 44 8F 82 3F 1F 41 33 FF FF 38 20 BE DA 00 8A 00 00 84 E0 3F 54 5F CE FF FF 14 38 BF 4A CD 87 00 43 9C CB BF 4D A0 BD 00 00 92 B8 3F 1E 6F A8 41 8B B1 08 41 8B C7 00 35 D1] from host [10.200.2.88:5300] by command [5A 03 00 01 00 24 19 3A]
2023-06-18 23:49:16.394: Try to read data from host [10.200.2.88:5300] by the command [5D 03 00 01 00 24 18 8D].
2023-06-18 23:49:16.775: Arrived data length:[77], Data(Hex):[5D 03 48 C1 CA 34 4A BD 22 BC 6F BD 2B 08 11 44 B7 F6 CE 00 49 56 6C 3D F4 BA B8 FF FE 85 56 BE 96 00 79 00 00 A2 DA 3F 35 56 B7 FF FF D2 10 BF 46 B1 86 00 48 C5 5A BE 32 A9 C3 00 00 EC 58 3E F8 A5 32 41 8C A6 3A 41 89 E4 00 9F EE] from host [10.200.2.88:5300] by command [5D 03 00 01 00 24 18 8D]
2023-06-18 23:49:19.822: Try to read data from host [10.200.2.88:5300] by the command [5E 03 00 01 00 24 18 BE].
2023-06-18 23:49:20.208: Arrived data length:[77], Data(Hex):[5E 03 48 00 00 00 00 00 00 00 00 00 00 16 6C 44 B9 28 E5 00 4F E6 11 3F 52 FF F7 FF FF A0 97 BF 72 01 79 00 00 D5 14 3F 37 26 76 FF FF 21 38 BF 30 28 DB 00 4F 3D 87 3F 60 DB 04 00 00 01 B4 3E D0 89 3C 41 8A 39 64 41 8D 56 00 89 BE] from host [10.200.2.88:5300] by command [5E 03 00 01 00 24 18 BE]
2023-06-18 23:49:23.413: Try to read data from host [10.200.2.88:5300] by the command [5C 03 00 01 00 24 19 5C].
2023-06-18 23:49:23.809: Arrived data length:[77], Data(Hex):[5C 03 48 00 00 00 00 00 00 00 00 00 00 CB 29 44 B8 3A DD 00 14 D0 61 3F 02 B8 EA FF FF 4C D7 BE 05 00 BF 00 00 99 B2 3E E7 DD D7 FF FF 81 F9 BE BA F3 C7 00 13 ED 75 3E C2 22 E8 00 00 12 00 3F 51 09 C2 41 D8 2E EA 41 92 00 00 95 15] from host [10.200.2.88:5300] by command [5C 03 00 01 00 24 19 5C]
2023-06-18 23:49:26.988: Try to read data from host [10.200.2.88:5300] by the command [5F 03 00 01 00 24 19 6F].
2023-06-18 23:49:27.387: Arrived data length:[77], Data(Hex):[5F 03 48 BF 51 67 D5 BC 69 56 FC BC 64 2B D9 44 AD 09 0E 00 02 35 81 3D A0 00 00 00 00 A7 24 BA B5 00 6B 00 00 FF 7E 3F 51 FB 99 FF FF 4E 52 BE 69 09 0E 00 02 4D E8 3D 98 04 D3 00 00 4E AB 3D 33 FA 80 41 DC 7E A9 41 BB 56 00 10 7D] from host [10.200.2.88:5300] by command [5F 03 00 01 00 24 19 6F]
2023-06-18 23:49:30.415: ExecutionforChilledWaterFlowMeter time : 21038

