2023-06-18 00:00:00.617: Arrived data length:[77], Data(Hex):[5B 03 48 42 62 58 EA BE 4C 4F 9E 3E 94 1A F5 44 B6 D2 2B 00 0A DA 7A 3E E8 C8 AA FF FF 9D A0 BE CE 00 E7 00 00 AA FA 3F 0E F2 A3 FF FF 19 FC BF 5B 9A D5 00 0A 39 76 3D 52 0E 45 00 00 5A E1 3E D3 2A 94 41 1F 9C 58 41 2C 1D 00 A9 45] from host [10.200.2.88:5300] by command [5B 03 00 01 00 24 18 EB]
2023-06-18 00:00:02.460: Re-connect to the remote host [10.200.2.88:5300] for the 0 times
2023-06-18 00:00:02.752: Try to read data from host [10.200.2.88:5300] by the command [5A 03 00 01 00 24 19 3A].
2023-06-18 00:00:03.176: Re-connect to the remote host [10.200.2.88:5300] for the 0 times
2023-06-18 00:00:03.222: Re-connect to the remote host [10.200.2.88:5300] for the 0 times
2023-06-18 00:00:03.312: Try to read data from host [10.200.2.88:5300] by the command [5A 03 00 01 00 24 19 3A].
2023-06-18 00:00:04.243: Arrived data length:[77], Data(Hex):[5A 03 48 43 E9 86 93 C0 D8 DE 54 3F 45 CB 62 44 B6 7F 24 00 44 80 38 3F 30 42 69 FF FF 17 DD BE EA 00 8A 00 00 5C 55 3F 1E 5F FB FF FF BA 78 BE 9E C1 8D 00 43 90 D0 3E 6D A0 8F 00 00 B2 98 3F 6D 0B F8 41 26 72 1C 41 5D C7 00 67 26] from host [10.200.2.88:5300] by command [5A 03 00 01 00 24 19 3A]
2023-06-18 00:00:04.247: Arrived data length:[77], Data(Hex):[5A 03 48 43 E9 86 93 C0 D8 DE 54 3F 45 CB 62 44 B6 7F 24 00 44 80 38 3F 30 42 69 FF FF 17 DD BE EA 00 8A 00 00 5C 55 3F 1E 5F FB FF FF BA 78 BE 9E C1 8D 00 43 90 D0 3E 6D A0 8F 00 00 B2 98 3F 6D 0B F8 41 26 72 1C 41 5D C7 00 67 26] from host [10.200.2.88:5300] by command [5A 03 00 01 00 24 19 3A]
2023-06-18 00:00:04.486: ExecutionforChilledWaterFlowMeter time : 79331

2023-06-18 00:00:05.162: ExecutionforChilledWaterFlowMeter started
2023-06-18 00:00:05.164: Try to read data from host [10.200.2.88:5300] by the command [5B 03 00 01 00 24 18 EB].
2023-06-18 00:00:05.248: ExecutionforChilledWaterFlowMeter time : 60085

2023-06-18 00:00:06.273: Try to read data from host [10.200.2.88:5300] by the command [5D 03 00 01 00 24 18 8D].
2023-06-18 00:00:06.274: Try to read data from host [10.200.2.88:5300] by the command [5D 03 00 01 00 24 18 8D].
2023-06-18 00:00:13.037: Arrived data length:[77], Data(Hex):[5B 03 48 42 61 03 12 BE 4E 68 EE 3E 93 18 F2 44 B6 D2 2B 00 0A 94 0F 3F 26 C8 AA FF FF 9D A0 BE CE 00 E7 00 00 AA FA 3F 0E F2 A3 FF FF 47 24 BF 5B 9A D5 00 0A 29 A7 3E 7D 0E 45 00 00 B5 32 3E D3 5D FC 41 1F 01 04 41 2D 72 00 DD 97] from host [10.200.2.88:5300] by command [5B 03 00 01 00 24 18 EB]
2023-06-18 00:00:14.340: SocketException: [TimedOut:A connection attempt failed because the connected party did not properly respond after a period of time, or established connection failed because connected host has failed to respond] 
2023-06-18 00:00:14.386: SocketException: [TimedOut:A connection attempt failed because the connected party did not properly respond after a period of time, or established connection failed because connected host has failed to respond] 
2023-06-18 00:00:15.055: Try to read data from host [10.200.2.88:5300] by the command [5A 03 00 01 00 24 19 3A].
2023-06-18 00:00:16.438: Arrived data length:[77], Data(Hex):[5A 03 48 43 EB 72 7C C0 D6 E0 32 3F 47 CB 28 44 B6 7F 26 00 44 A3 E1 3E A3 42 69 FF FF 17 DD BE EA 00 8A 00 00 5C 55 3F 1E 5F FB FF FF C2 BC BE AA C1 8E 00 43 B5 ED 3F 5C A0 8F 00 00 B6 B9 3F 73 22 A8 41 27 73 E0 41 5D E4 00 BD D8] from host [10.200.2.88:5300] by command [5A 03 00 01 00 24 19 3A]
2023-06-18 00:00:16.946: Try to read data from host [10.200.2.88:5300] by the command [5E 03 00 01 00 24 18 BE].
2023-06-18 00:00:16.991: Try to read data from host [10.200.2.88:5300] by the command [5E 03 00 01 00 24 18 BE].
2023-06-18 00:00:17.264: Arrived data length:[21], Data(Hex):[5E 03 48 44 32 79 80 C0 E2 C4 4B 3F 97 81 9A 44 B7 10 66 00 FF] from host [10.200.2.88:5300] by command [5E 03 00 01 00 24 18 BE]
2023-06-18 00:00:17.284: Arrived data length:[21], Data(Hex):[5E 03 48 44 32 79 80 C0 E2 C4 4B 3F 97 81 9A 44 B7 10 66 00 FF] from host [10.200.2.88:5300] by command [5E 03 00 01 00 24 18 BE]
2023-06-18 00:00:17.484: Exception Error Message:Exception has been thrown by the target of an invocation. for remote host [10.200.2.88:5300]
2023-06-18 00:00:17.484: 2023-06-18 00:00:17.484 >>> App Server: NSCM1654
Exception Source: System.Collections.Hashtable ProcessToParserReceivedData(Model.LNMeterCategory, System.Collections.Hashtable)
Message: Exception has been thrown by the target of an invocation.
Source: LNMeterDataServiceSimulator
StackTrace:    at ServiceMgr.LNSvrMgr.ProcessToParserReceivedData(LNMeterCategory lNMeterCategory, Hashtable orgReceivedDecData) in C:\00work\02sc-cfd-git\DMN-B17-FLEXPMxxxxx-LNMeterDataService\00DataService\SourceCode\LNMeterDataServiceSimulator\LNMeterDataServiceSimulator\ServiceMgr\LNSvrMgr.cs:line 65
   at ServiceMgr.LNSvrMgr.ToReadDatafromHostforChilledWaterFlowMeter(LNMeterCategory lNMeterCategory, LNChilledWaterFlowMeter lNChilledWaterFlowMeter) in C:\00work\02sc-cfd-git\DMN-B17-FLEXPMxxxxx-LNMeterDataService\00DataService\SourceCode\LNMeterDataServiceSimulator\LNMeterDataServiceSimulator\ServiceMgr\LNSvrMgr.cs:line 599
Inner Exception:Index was outside the bounds of the array.
2023-06-18 00:00:17.574: Exception Error Message:Exception has been thrown by the target of an invocation. for remote host [10.200.2.88:5300]
2023-06-18 00:00:17.574: 2023-06-18 00:00:17.574 >>> App Server: NSCM1654
Exception Source: System.Collections.Hashtable ProcessToParserReceivedData(Model.LNMeterCategory, System.Collections.Hashtable)
Message: Exception has been thrown by the target of an invocation.
Source: LNMeterDataServiceSimulator
StackTrace:    at ServiceMgr.LNSvrMgr.ProcessToParserReceivedData(LNMeterCategory lNMeterCategory, Hashtable orgReceivedDecData) in C:\00work\02sc-cfd-git\DMN-B17-FLEXPMxxxxx-LNMeterDataService\00DataService\SourceCode\LNMeterDataServiceSimulator\LNMeterDataServiceSimulator\ServiceMgr\LNSvrMgr.cs:line 65
   at ServiceMgr.LNSvrMgr.ToReadDatafromHostforChilledWaterFlowMeter(LNMeterCategory lNMeterCategory, LNChilledWaterFlowMeter lNChilledWaterFlowMeter) in C:\00work\02sc-cfd-git\DMN-B17-FLEXPMxxxxx-LNMeterDataService\00DataService\SourceCode\LNMeterDataServiceSimulator\LNMeterDataServiceSimulator\ServiceMgr\LNSvrMgr.cs:line 599
Inner Exception:Index was outside the bounds of the array.
2023-06-18 00:00:18.448: Try to read data from host [10.200.2.88:5300] by the command [5D 03 00 01 00 24 18 8D].
2023-06-18 00:00:18.842: Arrived data length:[61], Data(Hex):[5D 03 48 43 EE 39 22 C0 A8 6D 9B 3F 4A 43 AC 44 B5 E9 12 00 49 A9 EE 3D BD BD 5E FF FE AC 42 BF 55 00 78 00 00 1D 56 3F 78 56 E0 FF FF 58 5D BF 5B A6 6F 00 48 1F 22 3E 84 A9 99 00 00] from host [10.200.2.88:5300] by command [5D 03 00 01 00 24 18 8D]
2023-06-18 00:00:19.000: Exception Error Message:Exception has been thrown by the target of an invocation. for remote host [10.200.2.88:5300]
2023-06-18 00:00:19.001: 2023-06-18 00:00:19.000 >>> App Server: NSCM1654
Exception Source: System.Collections.Hashtable ProcessToParserReceivedData(Model.LNMeterCategory, System.Collections.Hashtable)
Message: Exception has been thrown by the target of an invocation.
Source: LNMeterDataServiceSimulator
StackTrace:    at ServiceMgr.LNSvrMgr.ProcessToParserReceivedData(LNMeterCategory lNMeterCategory, Hashtable orgReceivedDecData) in C:\00work\02sc-cfd-git\DMN-B17-FLEXPMxxxxx-LNMeterDataService\00DataService\SourceCode\LNMeterDataServiceSimulator\LNMeterDataServiceSimulator\ServiceMgr\LNSvrMgr.cs:line 65
   at ServiceMgr.LNSvrMgr.ToReadDatafromHostforChilledWaterFlowMeter(LNMeterCategory lNMeterCategory, LNChilledWaterFlowMeter lNChilledWaterFlowMeter) in C:\00work\02sc-cfd-git\DMN-B17-FLEXPMxxxxx-LNMeterDataService\00DataService\SourceCode\LNMeterDataServiceSimulator\LNMeterDataServiceSimulator\ServiceMgr\LNSvrMgr.cs:line 599
Inner Exception:Index was outside the bounds of the array.
2023-06-18 00:00:19.502: Try to read data from host [10.200.2.88:5300] by the command [5C 03 00 01 00 24 19 5C].
2023-06-18 00:00:19.577: Try to read data from host [10.200.2.88:5300] by the command [5C 03 00 01 00 24 19 5C].
2023-06-18 00:00:19.889: Arrived data length:[50], Data(Hex):[5C 03 48 43 1B 49 10 BF B0 EF 29 3F A0 56 2E 44 B6 36 57 00 14 CB 54 3F 46 B9 0C FF FF F4 1F BE 58 00 BF 00 00 C6 DA 3E DA DD E0 FF FF CB 36 BD 1A FF] from host [10.200.2.88:5300] by command [5C 03 00 01 00 24 19 5C]
2023-06-18 00:00:19.909: Arrived data length:[50], Data(Hex):[5C 03 48 43 1B 49 10 BF B0 EF 29 3F A0 56 2E 44 B6 36 57 00 14 CB 54 3F 46 B9 0C FF FF F4 1F BE 58 00 BF 00 00 C6 DA 3E DA DD E0 FF FF CB 36 BD 1A FF] from host [10.200.2.88:5300] by command [5C 03 00 01 00 24 19 5C]
2023-06-18 00:00:20.121: Exception Error Message:Exception has been thrown by the target of an invocation. for remote host [10.200.2.88:5300]
2023-06-18 00:00:20.121: 2023-06-18 00:00:20.121 >>> App Server: NSCM1654
Exception Source: System.Collections.Hashtable ProcessToParserReceivedData(Model.LNMeterCategory, System.Collections.Hashtable)
Message: Exception has been thrown by the target of an invocation.
Source: LNMeterDataServiceSimulator
StackTrace:    at ServiceMgr.LNSvrMgr.ProcessToParserReceivedData(LNMeterCategory lNMeterCategory, Hashtable orgReceivedDecData) in C:\00work\02sc-cfd-git\DMN-B17-FLEXPMxxxxx-LNMeterDataService\00DataService\SourceCode\LNMeterDataServiceSimulator\LNMeterDataServiceSimulator\ServiceMgr\LNSvrMgr.cs:line 65
   at ServiceMgr.LNSvrMgr.ToReadDatafromHostforChilledWaterFlowMeter(LNMeterCategory lNMeterCategory, LNChilledWaterFlowMeter lNChilledWaterFlowMeter) in C:\00work\02sc-cfd-git\DMN-B17-FLEXPMxxxxx-LNMeterDataService\00DataService\SourceCode\LNMeterDataServiceSimulator\LNMeterDataServiceSimulator\ServiceMgr\LNSvrMgr.cs:line 599
Inner Exception:Index was outside the bounds of the array.
2023-06-18 00:00:20.209: Exception Error Message:Exception has been thrown by the target of an invocation. for remote host [10.200.2.88:5300]
2023-06-18 00:00:20.210: 2023-06-18 00:00:20.209 >>> App Server: NSCM1654
Exception Source: System.Collections.Hashtable ProcessToParserReceivedData(Model.LNMeterCategory, System.Collections.Hashtable)
Message: Exception has been thrown by the target of an invocation.
Source: LNMeterDataServiceSimulator
StackTrace:    at ServiceMgr.LNSvrMgr.ProcessToParserReceivedData(LNMeterCategory lNMeterCategory, Hashtable orgReceivedDecData) in C:\00work\02sc-cfd-git\DMN-B17-FLEXPMxxxxx-LNMeterDataService\00DataService\SourceCode\LNMeterDataServiceSimulator\LNMeterDataServiceSimulator\ServiceMgr\LNSvrMgr.cs:line 65
   at ServiceMgr.LNSvrMgr.ToReadDatafromHostforChilledWaterFlowMeter(LNMeterCategory lNMeterCategory, LNChilledWaterFlowMeter lNChilledWaterFlowMeter) in C:\00work\02sc-cfd-git\DMN-B17-FLEXPMxxxxx-LNMeterDataService\00DataService\SourceCode\LNMeterDataServiceSimulator\LNMeterDataServiceSimulator\ServiceMgr\LNSvrMgr.cs:line 599
Inner Exception:Index was outside the bounds of the array.
2023-06-18 00:00:20.233: ExecutionforChilledWaterFlowMeter time : 115087

2023-06-18 00:00:21.005: Try to read data from host [10.200.2.88:5300] by the command [5E 03 00 01 00 24 18 BE].
2023-06-18 00:00:22.125: Try to read data from host [10.200.2.88:5300] by the command [5F 03 00 01 00 24 19 6F].
2023-06-18 00:00:22.213: Try to read data from host [10.200.2.88:5300] by the command [5F 03 00 01 00 24 19 6F].
2023-06-18 00:00:22.377: Arrived data length:[31], Data(Hex):[5E 03 48 44 32 0C 15 C0 F8 5F 74 3F 97 83 BE 44 B7 10 67 00 4F 3C F7 3E D1 FF F7 FF FF A0 97] from host [10.200.2.88:5300] by command [5E 03 00 01 00 24 18 BE]
2023-06-18 00:00:22.530: Exception Error Message:Exception has been thrown by the target of an invocation. for remote host [10.200.2.88:5300]
2023-06-18 00:00:22.531: 2023-06-18 00:00:22.531 >>> App Server: NSCM1654
Exception Source: System.Collections.Hashtable ProcessToParserReceivedData(Model.LNMeterCategory, System.Collections.Hashtable)
Message: Exception has been thrown by the target of an invocation.
Source: LNMeterDataServiceSimulator
StackTrace:    at ServiceMgr.LNSvrMgr.ProcessToParserReceivedData(LNMeterCategory lNMeterCategory, Hashtable orgReceivedDecData) in C:\00work\02sc-cfd-git\DMN-B17-FLEXPMxxxxx-LNMeterDataService\00DataService\SourceCode\LNMeterDataServiceSimulator\LNMeterDataServiceSimulator\ServiceMgr\LNSvrMgr.cs:line 65
   at ServiceMgr.LNSvrMgr.ToReadDatafromHostforChilledWaterFlowMeter(LNMeterCategory lNMeterCategory, LNChilledWaterFlowMeter lNChilledWaterFlowMeter) in C:\00work\02sc-cfd-git\DMN-B17-FLEXPMxxxxx-LNMeterDataService\00DataService\SourceCode\LNMeterDataServiceSimulator\LNMeterDataServiceSimulator\ServiceMgr\LNSvrMgr.cs:line 599
Inner Exception:Index was outside the bounds of the array.
2023-06-18 00:00:22.597: Arrived data length:[29], Data(Hex):[5F 03 48 41 E3 19 24 BF 06 37 FB 3E F8 0F 88 44 AA 08 3E 00 02 5B E7 3E FA 00 00 00 F0] from host [10.200.2.88:5300] by command [5F 03 00 01 00 24 19 6F]
2023-06-18 00:00:22.614: Arrived data length:[29], Data(Hex):[5F 03 48 41 E3 19 24 BF 06 37 FB 3E F8 0F 88 44 AA 08 3E 00 02 5B E7 3E FA 00 00 00 F0] from host [10.200.2.88:5300] by command [5F 03 00 01 00 24 19 6F]
2023-06-18 00:00:22.815: Exception Error Message:Exception has been thrown by the target of an invocation. for remote host [10.200.2.88:5300]
2023-06-18 00:00:22.815: 2023-06-18 00:00:22.815 >>> App Server: NSCM1654
Exception Source: System.Collections.Hashtable ProcessToParserReceivedData(Model.LNMeterCategory, System.Collections.Hashtable)
Message: Exception has been thrown by the target of an invocation.
Source: LNMeterDataServiceSimulator
StackTrace:    at ServiceMgr.LNSvrMgr.ProcessToParserReceivedData(LNMeterCategory lNMeterCategory, Hashtable orgReceivedDecData) in C:\00work\02sc-cfd-git\DMN-B17-FLEXPMxxxxx-LNMeterDataService\00DataService\SourceCode\LNMeterDataServiceSimulator\LNMeterDataServiceSimulator\ServiceMgr\LNSvrMgr.cs:line 65
   at ServiceMgr.LNSvrMgr.ToReadDatafromHostforChilledWaterFlowMeter(LNMeterCategory lNMeterCategory, LNChilledWaterFlowMeter lNChilledWaterFlowMeter) in C:\00work\02sc-cfd-git\DMN-B17-FLEXPMxxxxx-LNMeterDataService\00DataService\SourceCode\LNMeterDataServiceSimulator\LNMeterDataServiceSimulator\ServiceMgr\LNSvrMgr.cs:line 599
Inner Exception:Index was outside the bounds of the array.
2023-06-18 00:00:22.902: Exception Error Message:Exception has been thrown by the target of an invocation. for remote host [10.200.2.88:5300]
2023-06-18 00:00:22.902: 2023-06-18 00:00:22.902 >>> App Server: NSCM1654
Exception Source: System.Collections.Hashtable ProcessToParserReceivedData(Model.LNMeterCategory, System.Collections.Hashtable)
Message: Exception has been thrown by the target of an invocation.
Source: LNMeterDataServiceSimulator
StackTrace:    at ServiceMgr.LNSvrMgr.ProcessToParserReceivedData(LNMeterCategory lNMeterCategory, Hashtable orgReceivedDecData) in C:\00work\02sc-cfd-git\DMN-B17-FLEXPMxxxxx-LNMeterDataService\00DataService\SourceCode\LNMeterDataServiceSimulator\LNMeterDataServiceSimulator\ServiceMgr\LNSvrMgr.cs:line 65
   at ServiceMgr.LNSvrMgr.ToReadDatafromHostforChilledWaterFlowMeter(LNMeterCategory lNMeterCategory, LNChilledWaterFlowMeter lNChilledWaterFlowMeter) in C:\00work\02sc-cfd-git\DMN-B17-FLEXPMxxxxx-LNMeterDataService\00DataService\SourceCode\LNMeterDataServiceSimulator\LNMeterDataServiceSimulator\ServiceMgr\LNSvrMgr.cs:line 599
Inner Exception:Index was outside the bounds of the array.
2023-06-18 00:00:24.534: Try to read data from host [10.200.2.88:5300] by the command [5C 03 00 01 00 24 19 5C].
2023-06-18 00:00:24.816: ExecutionforChilledWaterFlowMeter time : 39654

2023-06-18 00:00:24.903: ExecutionforChilledWaterFlowMeter time : 59744

2023-06-18 00:00:25.168: ExecutionforChilledWaterFlowMeter started
2023-06-18 00:00:25.169: Try to read data from host [10.200.2.88:5300] by the command [5B 03 00 01 00 24 18 EB].
2023-06-18 00:00:45.168: ExecutionforChilledWaterFlowMeter started
2023-06-18 00:00:45.170: Try to read data from host [10.200.2.88:5300] by the command [5B 03 00 01 00 24 18 EB].
2023-06-18 00:00:45.658: 2023-06-18 00:00:45.658 >>> App Server: NSCM1654
Exception Source: Boolean Connect()
Message: A connection attempt failed because the connected party did not properly respond after a period of time, or established connection failed because connected host has failed to respond 10.200.2.88:5300
Source: LNMeterInfrastructure
StackTrace:    at TCPIP.LNTcpClient.Connect() in C:\00work\02sc-cfd-git\DMN-B17-FLEXPMxxxxx-LNMeterDataService\SourceCode\LNMeterInfrastructure\LNMeterInfrastructure\TCPIP\LNTcpClient.cs:line 109
   at TCPIP.LNTcpClient.FireMeterClient() in C:\00work\02sc-cfd-git\DMN-B17-FLEXPMxxxxx-LNMeterDataService\SourceCode\LNMeterInfrastructure\LNMeterInfrastructure\TCPIP\LNTcpClient.cs:line 269
2023-06-18 00:00:46.295: 2023-06-18 00:00:46.295 >>> App Server: NSCM1654
Exception Source: Boolean Connect()
Message: A connection attempt failed because the connected party did not properly respond after a period of time, or established connection failed because connected host has failed to respond 10.200.2.88:5300
Source: LNMeterInfrastructure
StackTrace:    at TCPIP.LNTcpClient.Connect() in C:\00work\02sc-cfd-git\DMN-B17-FLEXPMxxxxx-LNMeterDataService\SourceCode\LNMeterInfrastructure\LNMeterInfrastructure\TCPIP\LNTcpClient.cs:line 109
   at TCPIP.LNTcpClient.FireMeterClient() in C:\00work\02sc-cfd-git\DMN-B17-FLEXPMxxxxx-LNMeterDataService\SourceCode\LNMeterInfrastructure\LNMeterInfrastructure\TCPIP\LNTcpClient.cs:line 269
2023-06-18 00:01:05.292: ExecutionforChilledWaterFlowMeter started
2023-06-18 00:01:05.296: Try to read data from host [10.200.2.88:5300] by the command [5B 03 00 01 00 24 18 EB].
2023-06-18 00:01:05.735: Arrived data length:[77], Data(Hex):[5B 03 48 42 5E BA 81 BE 20 A3 96 3E 91 1A B5 44 B6 D2 2C 00 0A 39 49 3E EC C8 AA FF FF 9D A0 BE CE 00 E7 00 00 AA FA 3F 0E F2 A3 FF FF F5 7F BF 5B 9A D6 00 0A 2F B8 3D 6D 0E 45 00 00 11 E3 3E D5 41 10 41 20 05 E4 41 2B E4 00 DF 85] from host [10.200.2.88:5300] by command [5B 03 00 01 00 24 18 EB]
2023-06-18 00:01:06.322: 2023-06-18 00:01:06.322 >>> App Server: NSCM1654
Exception Source: Boolean Connect()
Message: A connection attempt failed because the connected party did not properly respond after a period of time, or established connection failed because connected host has failed to respond 10.200.2.88:5300
Source: LNMeterInfrastructure
StackTrace:    at TCPIP.LNTcpClient.Connect() in C:\00work\02sc-cfd-git\DMN-B17-FLEXPMxxxxx-LNMeterDataService\SourceCode\LNMeterInfrastructure\LNMeterInfrastructure\TCPIP\LNTcpClient.cs:line 109
   at TCPIP.LNTcpClient.FireMeterClient() in C:\00work\02sc-cfd-git\DMN-B17-FLEXPMxxxxx-LNMeterDataService\SourceCode\LNMeterInfrastructure\LNMeterInfrastructure\TCPIP\LNTcpClient.cs:line 269
2023-06-18 00:01:06.828: Re-connect to the remote host [10.200.2.88:5300] for the 0 times
2023-06-18 00:01:07.456: Re-connect to the remote host [10.200.2.88:5300] for the 0 times
2023-06-18 00:01:07.797: Try to read data from host [10.200.2.88:5300] by the command [5A 03 00 01 00 24 19 3A].
2023-06-18 00:01:08.273: Arrived data length:[77], Data(Hex):[5A 03 48 43 E7 20 2D C0 CD BE 60 3F 44 C5 49 44 B6 7F 2D 00 44 BC 00 3C 4C 42 69 FF FF 17 DD BE EA 00 8A 00 00 5C 55 3F 1E 5F FB FF FF 31 79 BE DA C1 95 00 43 16 EC 3F 0E A0 90 00 00 E1 5E 3D 36 F4 14 41 27 BC C4 41 5C 8F 00 A1 E7] from host [10.200.2.88:5300] by command [5A 03 00 01 00 24 19 3A]
2023-06-18 00:01:08.350: Try to read data from host [10.200.2.88:5300] by the command [5A 03 00 01 00 24 19 3A].
2023-06-18 00:01:08.855: Try to read data from host [10.200.2.88:5300] by the command [5F 03 00 01 00 24 19 6F].
2023-06-18 00:01:09.267: Arrived data length:[41], Data(Hex):[5F 03 48 41 E0 5F CC BF 00 E3 6C 3E F4 FF B4 44 A9 08 3E 00 02 CA F3 3F 5A 00 00 00 00 A7 24 BA B5 00 6B 00 00 99 B3 3F FF] from host [10.200.2.88:5300] by command [5A 03 00 01 00 24 19 3A]
2023-06-18 00:01:09.311: Arrived data length:[41], Data(Hex):[5F 03 48 41 E0 5F CC BF 00 E3 6C 3E F4 FF B4 44 A9 08 3E 00 02 CA F3 3F 5A 00 00 00 00 A7 24 BA B5 00 6B 00 00 99 B3 3F FF] from host [10.200.2.88:5300] by command [5F 03 00 01 00 24 19 6F]
2023-06-18 00:01:09.537: Exception Error Message:Exception has been thrown by the target of an invocation. for remote host [10.200.2.88:5300]
2023-06-18 00:01:09.538: 2023-06-18 00:01:09.538 >>> App Server: NSCM1654
Exception Source: System.Collections.Hashtable ProcessToParserReceivedData(Model.LNMeterCategory, System.Collections.Hashtable)
Message: Exception has been thrown by the target of an invocation.
Source: LNMeterDataServiceSimulator
StackTrace:    at ServiceMgr.LNSvrMgr.ProcessToParserReceivedData(LNMeterCategory lNMeterCategory, Hashtable orgReceivedDecData) in C:\00work\02sc-cfd-git\DMN-B17-FLEXPMxxxxx-LNMeterDataService\00DataService\SourceCode\LNMeterDataServiceSimulator\LNMeterDataServiceSimulator\ServiceMgr\LNSvrMgr.cs:line 65
   at ServiceMgr.LNSvrMgr.ToReadDatafromHostforChilledWaterFlowMeter(LNMeterCategory lNMeterCategory, LNChilledWaterFlowMeter lNChilledWaterFlowMeter) in C:\00work\02sc-cfd-git\DMN-B17-FLEXPMxxxxx-LNMeterDataService\00DataService\SourceCode\LNMeterDataServiceSimulator\LNMeterDataServiceSimulator\ServiceMgr\LNSvrMgr.cs:line 599
Inner Exception:Index was outside the bounds of the array.
2023-06-18 00:01:09.538: Try to read data from host [10.200.2.88:5300] by the command [5A 03 00 01 00 24 19 3A].
2023-06-18 00:01:09.646: Exception Error Message:Exception has been thrown by the target of an invocation. for remote host [10.200.2.88:5300]
2023-06-18 00:01:09.647: 2023-06-18 00:01:09.647 >>> App Server: NSCM1654
Exception Source: System.Collections.Hashtable ProcessToParserReceivedData(Model.LNMeterCategory, System.Collections.Hashtable)
Message: Exception has been thrown by the target of an invocation.
Source: LNMeterDataServiceSimulator
StackTrace:    at ServiceMgr.LNSvrMgr.ProcessToParserReceivedData(LNMeterCategory lNMeterCategory, Hashtable orgReceivedDecData) in C:\00work\02sc-cfd-git\DMN-B17-FLEXPMxxxxx-LNMeterDataService\00DataService\SourceCode\LNMeterDataServiceSimulator\LNMeterDataServiceSimulator\ServiceMgr\LNSvrMgr.cs:line 65
   at ServiceMgr.LNSvrMgr.ToReadDatafromHostforChilledWaterFlowMeter(LNMeterCategory lNMeterCategory, LNChilledWaterFlowMeter lNChilledWaterFlowMeter) in C:\00work\02sc-cfd-git\DMN-B17-FLEXPMxxxxx-LNMeterDataService\00DataService\SourceCode\LNMeterDataServiceSimulator\LNMeterDataServiceSimulator\ServiceMgr\LNSvrMgr.cs:line 599
Inner Exception:Index was outside the bounds of the array.
2023-06-18 00:01:10.074: Arrived data length:[77], Data(Hex):[5A 03 48 43 E8 5D 80 C0 CC F8 B2 3F 44 C4 92 44 B6 7F 2D 00 44 5A 00 3E 8A 42 69 FF FF 17 DD BE EA 00 8A 00 00 5C 55 3F 1E 5F FB FF FF 03 64 BE DC C1 95 00 43 10 FD 3F 50 A0 90 00 00 70 AF 3D 45 F2 BC 41 27 79 BC 41 5C 00 00 19 BF] from host [10.200.2.88:5300] by command [5A 03 00 01 00 24 19 3A]
2023-06-18 00:01:10.285: Try to read data from host [10.200.2.88:5300] by the command [5D 03 00 01 00 24 18 8D].
2023-06-18 00:01:10.766: Arrived data length:[77], Data(Hex):[5D 03 48 43 ED 8B AD C0 A9 47 70 3F 49 44 31 44 B5 E9 18 00 49 46 0F 3F 79 BD 5E FF FE AC 42 BF 55 00 78 00 00 1D 56 3F 78 56 E0 FF FF F2 FA BF 6E A6 76 00 48 81 94 3E 0E A9 99 00 00 0C 9A 3F 67 4B 08 41 26 EE F0 41 50 AB 00 E9 A4] from host [10.200.2.88:5300] by command [5D 03 00 01 00 24 18 8D]
2023-06-18 00:01:11.541: Try to read data from host [10.200.2.88:5300] by the command [5D 03 00 01 00 24 18 8D].
2023-06-18 00:01:11.649: ExecutionforChilledWaterFlowMeter time : 66486

2023-06-18 00:01:12.023: Arrived data length:[77], Data(Hex):[5D 03 48 43 EC 55 C7 C0 A9 BA A4 3F 48 43 ED 44 B5 E9 19 00 49 95 9A 3D D7 BD 5E FF FE AC 42 BF 55 00 78 00 00 1D 56 3F 78 56 E0 FF FF 53 C0 BF 6F A6 76 00 48 9A 14 3E 8A A9 99 00 00 6D 60 3F 67 2A 78 41 26 DE A8 41 50 AB 00 84 4E] from host [10.200.2.88:5300] by command [5D 03 00 01 00 24 18 8D]
2023-06-18 00:01:12.085: Try to read data from host [10.200.2.88:5300] by the command [5D 03 00 01 00 24 18 8D].
2023-06-18 00:01:12.506: Arrived data length:[77], Data(Hex):[5D 03 48 43 EB A9 05 C0 A9 36 6A 3F 48 44 41 44 B5 E9 19 00 49 E9 BE 3E 2E BD 5E FF FE AC 42 BF 55 00 78 00 00 1D 56 3F 78 56 E0 FF FF 84 02 BF 6F A6 76 00 48 29 8C 3E AC A9 99 00 00 9D A2 3F 67 DA 50 41 25 BF AC 41 50 39 00 D7 1E] from host [10.200.2.88:5300] by command [5D 03 00 01 00 24 18 8D]
2023-06-18 00:01:12.796: Try to read data from host [10.200.2.88:5300] by the command [5E 03 00 01 00 24 18 BE].
2023-06-18 00:01:13.293: Arrived data length:[77], Data(Hex):[5E 03 48 44 33 34 AF C1 02 E6 69 3F 97 83 76 44 B7 10 71 00 4F 71 49 3E DF FF F7 FF FF A0 97 BF 72 01 78 00 00 9C 27 3D 10 26 AA FF FF BE 17 BF 29 10 67 00 4F 20 49 3E FA DA CE 00 00 D2 4F 3F 32 97 64 41 29 FB C0 41 54 C7 00 90 3C] from host [10.200.2.88:5300] by command [5E 03 00 01 00 24 18 BE]
2023-06-18 00:01:14.052: Try to read data from host [10.200.2.88:5300] by the command [5E 03 00 01 00 24 18 BE].
2023-06-18 00:01:14.453: Arrived data length:[77], Data(Hex):[5E 03 48 44 31 63 33 C1 01 80 AD 3F 96 86 1C 44 B7 10 71 00 4F B3 BA 3F 3B FF F7 FF FF A0 97 BF 72 01 78 00 00 9C 27 3D 10 26 AA FF FF 98 9A BF 2A 10 67 00 4F 0B 3A 3F 49 DA CE 00 00 AC D2 3F 33 F9 80 41 29 7E AC 41 55 56 00 36 FA] from host [10.200.2.88:5300] by command [5E 03 00 01 00 24 18 BE]
2023-06-18 00:01:14.549: Try to read data from host [10.200.2.88:5300] by the command [5E 03 00 01 00 24 18 BE].
2023-06-18 00:01:14.953: Arrived data length:[77], Data(Hex):[5E 03 48 44 31 CF 79 C0 FE 2D 4E 3F 96 85 60 44 B7 10 71 00 4F E0 A4 3F 54 FF F7 FF FF A0 97 BF 72 01 78 00 00 9C 27 3D 10 26 AA FF FF E1 15 BF 2A 10 67 00 4F 38 24 3F 62 DA CE 00 00 F5 4D 3F 33 4C 98 41 2A 3E EC 41 55 C7 00 30 B6] from host [10.200.2.88:5300] by command [5E 03 00 01 00 24 18 BE]
2023-06-18 00:01:15.303: Try to read data from host [10.200.2.88:5300] by the command [5C 03 00 01 00 24 19 5C].
2023-06-18 00:01:15.766: Arrived data length:[77], Data(Hex):[5C 03 48 43 1C A1 3D BF 9B 6A 68 3F A2 4D 8A 44 B6 36 5A 00 14 A0 C4 3E 36 B9 0C FF FF F4 1F BE 58 00 BF 00 00 C6 DA 3E DA DD E0 FF FF 6F F9 BD 6E EF 65 00 13 64 FE 3F 77 22 DF 00 00 9F 73 3E F8 C8 94 41 26 68 E4 41 44 72 00 14 69] from host [10.200.2.88:5300] by command [5C 03 00 01 00 24 19 5C]
2023-06-18 00:01:16.462: Try to read data from host [10.200.2.88:5300] by the command [5C 03 00 01 00 24 19 5C].
2023-06-18 00:01:16.891: Arrived data length:[77], Data(Hex):[5C 03 48 43 1C 22 0B BF 9A 43 EA 3F A2 49 C4 44 B6 36 5A 00 14 20 F1 3E 63 B9 0C FF FF F4 1F BE 58 00 BF 00 00 C6 DA 3E DA DD E0 FF FF CB D3 BD 6F EF 66 00 13 42 80 3C 21 22 DF 00 00 CA EE 3E F8 A6 50 41 26 04 90 41 44 E4 00 A8 25] from host [10.200.2.88:5300] by command [5C 03 00 01 00 24 19 5C]
2023-06-18 00:01:16.984: Try to read data from host [10.200.2.88:5300] by the command [5C 03 00 01 00 24 19 5C].
2023-06-18 00:01:17.775: Try to read data from host [10.200.2.88:5300] by the command [5F 03 00 01 00 24 19 6F].
2023-06-18 00:01:18.276: Arrived data length:[77], Data(Hex):[5F 03 48 41 DF 9B B8 BE FB D6 E1 3E F3 00 81 44 AA 08 3E 00 02 A0 83 3F 6C 00 00 00 00 A7 24 BA B5 00 6B 00 00 99 B3 3F 4F FB 9E FF FF 7B 8E BF 5B 08 3E 00 02 A3 7E 3F 6B 04 CE 00 00 FA 24 3F 29 A2 64 41 28 DA F4 41 6B 00 00 9A 2A] from host [10.200.2.88:5300] by command [5F 03 00 01 00 24 19 6F]
2023-06-18 00:01:18.631: Arrived data length:[77], Data(Hex):[5D 03 48 43 EA F8 C7 C0 AB 17 3D 3F 47 41 FD 44 B5 E9 19 00 49 B6 94 3F 73 BD 5E FF FE AC 42 BF 55 00 78 00 00 1D 56 3F 78 56 E0 FF FF CA E7 BF 71 A6 77 00 48 87 54 3D F0 A9 99 00 00 E4 87 3F 69 F7 8C 41 24 B1 0C 41 50 AB 00 A7 66] from host [10.200.2.88:5300] by command [5C 03 00 01 00 24 19 5C]
2023-06-18 00:01:18.899: Try to read data from host [10.200.2.88:5300] by the command [5F 03 00 01 00 24 19 6F].
2023-06-18 00:01:19.911: Arrived data length:[77], Data(Hex):[5E 03 48 44 32 CC E2 C0 F6 C9 65 3F 97 83 CB 44 B7 10 72 00 4F D4 1D 3F 51 FF F7 FF FF A0 97 BF 72 01 78 00 00 9C 27 3D 10 26 AA FF FF B2 BA BF 2D 10 68 00 4F 2B 9D 3F 5F DA CE 00 00 C6 F2 3F 36 BD B4 41 2A E5 7C 41 53 39 00 BC 0F] from host [10.200.2.88:5300] by command [5F 03 00 01 00 24 19 6F]
2023-06-18 00:01:20.285: ExecutionforChilledWaterFlowMeter time : 14991

2023-06-18 00:01:20.693: Try to read data from host [10.200.2.88:5300] by the command [5F 03 00 01 00 24 19 6F].
2023-06-18 00:01:21.176: Arrived data length:[77], Data(Hex):[5F 03 48 41 E0 63 54 BE FF B9 59 3E F4 FF 7D 44 A9 08 3E 00 02 9A D0 3F 71 00 00 00 00 A7 24 BA B5 00 6B 00 00 99 B3 3F 4F FB 9E FF FF 92 2B BF 5B 08 3E 00 02 9D CB 3F 70 04 CE 00 00 10 C1 3F 2A 73 14 41 28 6F 0C 41 6C E4 00 08 EC] from host [10.200.2.88:5300] by command [5F 03 00 01 00 24 19 6F]
2023-06-18 00:01:21.968: ExecutionforChilledWaterFlowMeter time : 36798

2023-06-18 00:01:23.204: ExecutionforChilledWaterFlowMeter time : 58035

2023-06-18 00:01:25.182: ExecutionforChilledWaterFlowMeter started
2023-06-18 00:01:25.183: Try to read data from host [10.200.2.88:5300] by the command [5B 03 00 01 00 24 18 EB].
2023-06-18 00:01:32.549: Arrived data length:[77], Data(Hex):[5B 03 48 42 5E C0 76 BE 2F 78 A8 3E 91 19 E2 44 B6 D2 2C 00 0A 95 13 3F 61 C8 AA FF FF 9D A0 BE CE 00 E7 00 00 AA FA 3F 0E F2 A3 FF FF 46 57 BF 5C 9A D6 00 0A 96 D0 3E F4 0E 45 00 00 B3 9B 3E D5 A0 88 41 1F 6A 7C 41 2B 39 00 D3 8F] from host [10.200.2.88:5300] by command [5B 03 00 01 00 24 18 EB]
2023-06-18 00:01:34.587: Try to read data from host [10.200.2.88:5300] by the command [5A 03 00 01 00 24 19 3A].
2023-06-18 00:01:34.965: Arrived data length:[77], Data(Hex):[5A 03 48 43 E9 34 23 C0 C8 C5 36 3F 45 C2 53 44 B6 7F 30 00 44 B8 F7 3F 03 42 69 FF FF 17 DD BE EA 00 8A 00 00 5C 55 3F 1E 5F FB FF FF 2D 31 BE F2 C1 99 00 43 CF 20 3D 69 A0 90 00 00 5F 8F 3D BB 06 C4 41 29 46 FC 41 5C 8F 00 FA 13] from host [10.200.2.88:5300] by command [5A 03 00 01 00 24 19 3A]
2023-06-18 00:01:37.033: Try to read data from host [10.200.2.88:5300] by the command [5D 03 00 01 00 24 18 8D].
2023-06-18 00:01:37.467: Arrived data length:[77], Data(Hex):[5D 03 48 43 EC DC 6A C0 A6 CA 27 3F 48 43 21 44 B5 E9 1C 00 49 29 27 3E E1 BD 5E FF FE AC 42 BF 55 00 78 00 00 1D 56 3F 78 56 E0 FF FF DB 4B BF 78 A6 79 00 48 EE EC 3F 1A A9 99 00 00 F4 EB 3F 70 4B 08 41 26 5C 38 41 50 E4 00 F8 0D] from host [10.200.2.88:5300] by command [5D 03 00 01 00 24 18 8D]
2023-06-18 00:01:39.477: Try to read data from host [10.200.2.88:5300] by the command [5E 03 00 01 00 24 18 BE].
2023-06-18 00:01:39.880: Arrived data length:[71], Data(Hex):[5E 03 48 44 31 08 43 C1 09 F9 0A 3F 96 83 9A 44 B7 10 76 00 4F 3C 20 3F 4A FF F7 FF FF A0 97 BF 72 01 78 00 00 9C 27 3D 10 26 AA FF FF 3F EA BF 39 10 6C 00 4F 93 A0 3F 57 DA CE 00 00 54 22 3F 42 02 D4 41 29 F5 68] from host [10.200.2.88:5300] by command [5E 03 00 01 00 24 18 BE]
2023-06-18 00:01:40.064: Exception Error Message:Exception has been thrown by the target of an invocation. for remote host [10.200.2.88:5300]
2023-06-18 00:01:40.065: 2023-06-18 00:01:40.064 >>> App Server: NSCM1654
Exception Source: System.Collections.Hashtable ProcessToParserReceivedData(Model.LNMeterCategory, System.Collections.Hashtable)
Message: Exception has been thrown by the target of an invocation.
Source: LNMeterDataServiceSimulator
StackTrace:    at ServiceMgr.LNSvrMgr.ProcessToParserReceivedData(LNMeterCategory lNMeterCategory, Hashtable orgReceivedDecData) in C:\00work\02sc-cfd-git\DMN-B17-FLEXPMxxxxx-LNMeterDataService\00DataService\SourceCode\LNMeterDataServiceSimulator\LNMeterDataServiceSimulator\ServiceMgr\LNSvrMgr.cs:line 65
   at ServiceMgr.LNSvrMgr.ToReadDatafromHostforChilledWaterFlowMeter(LNMeterCategory lNMeterCategory, LNChilledWaterFlowMeter lNChilledWaterFlowMeter) in C:\00work\02sc-cfd-git\DMN-B17-FLEXPMxxxxx-LNMeterDataService\00DataService\SourceCode\LNMeterDataServiceSimulator\LNMeterDataServiceSimulator\ServiceMgr\LNSvrMgr.cs:line 599
Inner Exception:Index was outside the bounds of the array.
2023-06-18 00:01:42.068: Try to read data from host [10.200.2.88:5300] by the command [5C 03 00 01 00 24 19 5C].
2023-06-18 00:01:42.449: Arrived data length:[71], Data(Hex):[DF C0 A9 C6 94 3F 48 42 D2 44 B5 E9 1D 00 49 FB 8A 3D C5 BD 5E FF FE AC 42 BF 55 00 78 00 00 1D 56 3F 78 56 E0 FF FF B9 B4 BF 7A A6 7A 00 48 33 94 3E 86 A9 99 00 00 D3 54 3F 72 EB E4 41 25 A0 C4 41 50 C7 00 61 EC] from host [10.200.2.88:5300] by command [5C 03 00 01 00 24 19 5C]
2023-06-18 00:01:42.641: Exception Error Message:Exception has been thrown by the target of an invocation. for remote host [10.200.2.88:5300]
2023-06-18 00:01:42.642: 2023-06-18 00:01:42.642 >>> App Server: NSCM1654
Exception Source: System.Collections.Hashtable ProcessToParserReceivedData(Model.LNMeterCategory, System.Collections.Hashtable)
Message: Exception has been thrown by the target of an invocation.
Source: LNMeterDataServiceSimulator
StackTrace:    at ServiceMgr.LNSvrMgr.ProcessToParserReceivedData(LNMeterCategory lNMeterCategory, Hashtable orgReceivedDecData) in C:\00work\02sc-cfd-git\DMN-B17-FLEXPMxxxxx-LNMeterDataService\00DataService\SourceCode\LNMeterDataServiceSimulator\LNMeterDataServiceSimulator\ServiceMgr\LNSvrMgr.cs:line 65
   at ServiceMgr.LNSvrMgr.ToReadDatafromHostforChilledWaterFlowMeter(LNMeterCategory lNMeterCategory, LNChilledWaterFlowMeter lNChilledWaterFlowMeter) in C:\00work\02sc-cfd-git\DMN-B17-FLEXPMxxxxx-LNMeterDataService\00DataService\SourceCode\LNMeterDataServiceSimulator\LNMeterDataServiceSimulator\ServiceMgr\LNSvrMgr.cs:line 599
Inner Exception:Index was outside the bounds of the array.
2023-06-18 00:01:44.654: Try to read data from host [10.200.2.88:5300] by the command [5F 03 00 01 00 24 19 6F].
2023-06-18 00:01:44.934: Arrived data length:[26], Data(Hex):[5E 03 48 44 32 53 72 C1 0C A5 EB 3F 97 84 31 44 B7 10 77 00 4F FA C7 3F 47 FF] from host [10.200.2.88:5300] by command [5F 03 00 01 00 24 19 6F]
2023-06-18 00:01:45.146: Exception Error Message:Exception has been thrown by the target of an invocation. for remote host [10.200.2.88:5300]
2023-06-18 00:01:45.147: 2023-06-18 00:01:45.147 >>> App Server: NSCM1654
Exception Source: System.Collections.Hashtable ProcessToParserReceivedData(Model.LNMeterCategory, System.Collections.Hashtable)
Message: Exception has been thrown by the target of an invocation.
Source: LNMeterDataServiceSimulator
StackTrace:    at ServiceMgr.LNSvrMgr.ProcessToParserReceivedData(LNMeterCategory lNMeterCategory, Hashtable orgReceivedDecData) in C:\00work\02sc-cfd-git\DMN-B17-FLEXPMxxxxx-LNMeterDataService\00DataService\SourceCode\LNMeterDataServiceSimulator\LNMeterDataServiceSimulator\ServiceMgr\LNSvrMgr.cs:line 65
   at ServiceMgr.LNSvrMgr.ToReadDatafromHostforChilledWaterFlowMeter(LNMeterCategory lNMeterCategory, LNChilledWaterFlowMeter lNChilledWaterFlowMeter) in C:\00work\02sc-cfd-git\DMN-B17-FLEXPMxxxxx-LNMeterDataService\00DataService\SourceCode\LNMeterDataServiceSimulator\LNMeterDataServiceSimulator\ServiceMgr\LNSvrMgr.cs:line 599
Inner Exception:Index was outside the bounds of the array.
2023-06-18 00:01:45.204: ExecutionforChilledWaterFlowMeter started
2023-06-18 00:01:45.208: Try to read data from host [10.200.2.88:5300] by the command [5B 03 00 01 00 24 18 EB].
2023-06-18 00:01:45.610: Arrived data length:[77], Data(Hex):[5B 03 48 42 5F CD B6 BE 16 24 03 3E 92 1A 38 44 B6 D2 2D 00 0A 08 C4 3D A9 C8 AA FF FF 9D A0 BE CE 00 E7 00 00 AA FA 3F 0E F2 A3 FF FF 6D AA BF 5C 9A D6 00 0A D7 6D 3F 2D 0E 45 00 00 02 45 3E D6 78 64 41 20 8A 1C 41 2A C8 00 2A E2] from host [10.200.2.88:5300] by command [5B 03 00 01 00 24 18 EB]
2023-06-18 00:07:12.079: ExecutionforElectricityMeter started
2023-06-18 00:07:12.096: Try to read data from host [10.200.2.83:5300] by the command [01 03 00 01 00 1F 55 C2].
2023-06-18 00:07:12.442: Arrived data length:[67], Data(Hex):[01 03 3E 00 00 00 00 00 00 00 00 00 00 00 00 00 00 00 00 00 00 00 00 00 00 00 00 28 65 28 54 28 5C 00 00 00 00 00 00 01 87 03 E8 01 B2 00 32 13 87 00 0B 5C 67 00 00 00 01 00 06 35 61 00 00 00 10 41 4E] from host [10.200.2.83:5300] by command [01 03 00 01 00 1F 55 C2]
2023-06-18 00:07:14.541: Try to read data from host [10.200.2.83:5300] by the command [02 03 00 01 00 1F 55 F1].
2023-06-18 00:07:14.944: Arrived data length:[67], Data(Hex):[02 03 3E 00 00 00 00 00 00 00 00 00 00 00 00 00 00 00 00 00 00 00 00 00 00 00 00 28 67 28 63 28 65 00 00 00 00 00 00 01 5B 03 E8 01 F4 00 32 13 88 00 18 96 E9 00 00 00 0C 00 0D 4A 96 00 00 00 1D 36 82] from host [10.200.2.83:5300] by command [02 03 00 01 00 1F 55 F1]
2023-06-18 00:07:16.988: Try to read data from host [10.200.2.83:5300] by the command [03 03 00 01 00 1F 54 20].
2023-06-18 00:07:18.099: SocketException: [TimedOut:A connection attempt failed because the connected party did not properly respond after a period of time, or established connection failed because connected host has failed to respond] 
2023-06-18 00:07:18.703: Read empty data from remote host [10.200.2.83:5300] by the command [03 03 00 01 00 1F 54 20]
2023-06-18 00:07:38.153: Exception Error Message:Exception has been thrown by the target of an invocation. for remote host [10.200.2.83:5300]
2023-06-18 00:07:38.160: 2023-06-18 00:07:38.154 >>> App Server: NSCM1654
Exception Source: System.Collections.Hashtable ProcessToParserReceivedData(Model.LNMeterCategory, System.Collections.Hashtable)
Message: Exception has been thrown by the target of an invocation.
Source: LNMeterDataServiceSimulator
StackTrace:    at ServiceMgr.LNSvrMgr.ProcessToParserReceivedData(LNMeterCategory lNMeterCategory, Hashtable orgReceivedDecData) in C:\00work\02sc-cfd-git\DMN-B17-FLEXPMxxxxx-LNMeterDataService\00DataService\SourceCode\LNMeterDataServiceSimulator\LNMeterDataServiceSimulator\ServiceMgr\LNSvrMgr.cs:line 65
   at ServiceMgr.LNSvrMgr.ToReadDatafromHostforElectricityMeter(LNMeterCategory lNMeterCategory, LNElectricityMeter lNElectricityMeter) in C:\00work\02sc-cfd-git\DMN-B17-FLEXPMxxxxx-LNMeterDataService\00DataService\SourceCode\LNMeterDataServiceSimulator\LNMeterDataServiceSimulator\ServiceMgr\LNSvrMgr.cs:line 460
Inner Exception:Object reference not set to an instance of an object.
2023-06-18 00:07:40.162: Try to read data from host [10.200.2.83:5300] by the command [04 03 00 01 00 1F 55 97].
2023-06-18 00:07:40.507: Arrived data length:[67], Data(Hex):[04 03 3E 01 3F 00 00 02 3D 03 7D 01 E3 00 00 00 23 01 BF 02 43 00 00 02 3F 03 E8 28 60 28 56 28 5B 02 2F 02 2D 02 2B 02 27 03 E8 03 E6 03 7E 13 8B 00 13 68 91 00 00 00 02 00 09 CA CA 00 00 00 11 E7 B9] from host [10.200.2.83:5300] by command [04 03 00 01 00 1F 55 97]
2023-06-18 00:07:42.565: Try to read data from host [10.200.2.83:5300] by the command [05 03 00 01 00 1F 54 46].
2023-06-18 00:07:42.912: Arrived data length:[67], Data(Hex):[05 03 3E 00 00 00 00 00 00 00 00 00 00 00 00 00 00 00 00 00 00 00 00 00 00 00 00 28 67 28 5A 28 60 00 00 00 00 00 00 01 90 03 E8 01 E0 00 2B 13 8B 00 16 96 D8 00 00 00 04 00 11 87 CE 00 00 00 15 1A 52] from host [10.200.2.83:5300] by command [05 03 00 01 00 1F 54 46]
2023-06-18 00:07:44.970: Try to read data from host [10.200.2.83:5300] by the command [06 03 00 01 00 1F 54 75].
2023-06-18 00:07:45.494: Arrived data length:[67], Data(Hex):[06 03 3E 00 52 00 00 00 E4 01 37 00 DB 00 00 00 27 01 02 00 EA 00 00 00 E7 01 95 28 60 28 53 28 59 00 E2 00 E2 00 DF 01 60 03 E8 03 D9 03 00 13 8A 00 18 4D 2A 00 00 00 10 00 12 42 65 00 00 00 20 50 D1] from host [10.200.2.83:5300] by command [06 03 00 01 00 1F 54 75]
2023-06-18 00:07:47.505: Try to read data from host [10.200.2.83:5300] by the command [07 03 00 01 00 1F 55 A4].
2023-06-18 00:07:47.859: Arrived data length:[67], Data(Hex):[07 03 3E 00 00 00 00 00 00 00 00 00 00 00 00 00 00 00 00 00 00 00 00 00 00 00 00 28 5D 28 57 28 5A 00 00 00 00 00 00 01 90 03 E8 01 B8 00 2B 13 8A 00 0F F4 EE 00 00 00 09 00 0B F6 99 00 00 00 17 A8 F7] from host [10.200.2.83:5300] by command [07 03 00 01 00 1F 55 A4]
2023-06-18 00:07:49.921: ExecutionforElectricityMeter time : 37841

2023-06-18 00:07:49.924: ExecutionforElectricityMeter started
2023-06-18 00:07:49.927: Try to read data from host [10.200.2.84:5300] by the command [08 03 00 01 00 1F 55 5B].
2023-06-18 00:07:50.297: Arrived data length:[67], Data(Hex):[08 03 3E 0C 63 0B EA 0B FC 24 4C 05 92 05 BD 05 A5 10 F5 0D 94 0D 39 0D 3F 28 11 08 EB 08 E8 08 E8 3B 89 3A 35 3A 4D 03 90 03 84 03 88 03 8A 13 8A 00 9B AE 36 00 00 00 00 00 26 1A E4 00 00 DD 1B 16 6B] from host [10.200.2.84:5300] by command [08 03 00 01 00 1F 55 5B]
2023-06-18 00:07:52.309: Try to read data from host [10.200.2.84:5300] by the command [13 03 00 01 00 1F 56 B0].
2023-06-18 00:07:52.651: Arrived data length:[67], Data(Hex):[13 03 3E 00 AF 00 B1 00 B0 02 11 00 87 00 8B 00 8C 01 9F 00 DD 00 E1 00 E1 02 A1 08 E3 08 DB 08 DF 03 C6 03 DB 03 DC 03 18 03 11 03 0F 03 12 13 8A 00 09 3A 34 00 00 00 00 00 07 55 5E 00 00 00 22 1B 37] from host [10.200.2.84:5300] by command [13 03 00 01 00 1F 56 B0]
2023-06-18 00:07:54.685: Try to read data from host [10.200.2.84:5300] by the command [14 03 00 01 00 1F 57 07].
2023-06-18 00:07:55.026: Arrived data length:[67], Data(Hex):[14 03 3E 00 A2 00 82 00 7A 01 9F 00 4D 00 69 00 4B 01 03 00 B4 00 A7 00 8F 01 E9 08 E2 08 DC 08 E0 03 1B 02 E4 02 7E 03 84 03 09 03 52 03 4F 13 8A 00 0A EF 9C 00 00 00 00 00 05 4D 1C 00 00 02 97 F9 5F] from host [10.200.2.84:5300] by command [14 03 00 01 00 1F 57 07]
2023-06-18 00:07:57.037: Try to read data from host [10.200.2.84:5300] by the command [15 03 00 01 00 1F 56 D6].
2023-06-18 00:07:57.382: Arrived data length:[67], Data(Hex):[15 03 3E 00 51 00 4D 00 4A 00 E9 00 25 00 30 00 34 00 8C 00 58 00 5C 00 5B 01 11 08 E4 08 DD 08 E0 01 90 01 A2 01 99 03 8C 03 4C 03 2E 03 59 13 8A 00 05 B8 80 00 00 00 01 00 02 87 F8 00 00 00 01 8E CA] from host [10.200.2.84:5300] by command [15 03 00 01 00 1F 56 D6]
2023-06-18 00:07:59.393: Try to read data from host [10.200.2.84:5300] by the command [16 03 00 01 00 1F 56 E5].
2023-06-18 00:07:59.741: Arrived data length:[67], Data(Hex):[16 03 3E 00 21 00 1D 00 15 00 55 00 05 00 07 00 06 00 13 00 22 00 1E 00 16 00 57 08 E2 08 DB 08 DF 00 99 00 85 00 65 03 D9 03 C8 03 BD 03 CD 13 8B 00 04 2B ED 00 00 00 01 00 00 00 0C 00 00 D7 CB 5E 1E] from host [10.200.2.84:5300] by command [16 03 00 01 00 1F 56 E5]
2023-06-18 00:08:01.788: Try to read data from host [10.200.2.84:5300] by the command [17 03 00 01 00 1F 57 34].
2023-06-18 00:08:02.140: Arrived data length:[67], Data(Hex):[17 03 3E 00 7F 00 9A 00 B3 01 CD 00 1C 00 1F 00 23 00 5F 00 82 00 9D 00 B7 01 D7 08 E1 08 DD 08 DE 02 3C 02 B3 03 24 03 D0 03 D3 03 D4 03 D3 13 8A 00 07 7A 34 00 00 00 00 00 00 00 0D 00 01 96 EC C6 BF] from host [10.200.2.84:5300] by command [17 03 00 01 00 1F 57 34]
2023-06-18 00:08:33.547: Try to read data from host [10.200.2.84:5300] by the command [18 03 00 01 00 1F 57 CB].
2023-06-18 00:08:33.900: Arrived data length:[67], Data(Hex):[18 03 3E 01 2F 01 1E 01 1E 03 6B 00 62 00 4D 00 55 01 04 01 3E 01 28 01 2A 03 91 08 DC 08 D9 08 DB 05 6F 05 12 05 1A 03 B7 03 C5 03 BE 03 BE 13 86 00 0E 6A 25 00 00 00 00 00 04 31 85 00 00 00 01 F8 41] from host [10.200.2.84:5300] by command [18 03 00 01 00 1F 57 CB]
2023-06-18 00:08:39.232: Try to read data from host [10.200.2.84:5300] by the command [0F 03 00 01 00 1F 54 EC].
2023-06-18 00:08:39.780: Arrived data length:[67], Data(Hex):[0F 03 3E 04 2A 04 48 04 2C 0C 9F 02 B8 02 C7 02 D8 08 59 04 F9 05 1A 05 0D 0F 21 08 E0 08 D9 08 DF 15 E3 16 83 16 39 03 45 03 46 03 3A 03 42 13 85 00 2A D7 BD 00 00 00 00 00 1B 05 40 00 00 02 6D 6A A7] from host [10.200.2.84:5300] by command [0F 03 00 01 00 1F 54 EC]
2023-06-18 00:08:42.055: Try to read data from host [10.200.2.84:5300] by the command [10 03 00 01 00 1F 56 83].
2023-06-18 00:08:42.414: Arrived data length:[67], Data(Hex):[10 03 3E 03 6E 03 AF 03 8D 0A AC 01 65 01 67 01 9D 04 6A 03 B4 03 F2 03 E7 0B 8D 08 E0 08 D9 08 DF 10 58 11 7B 11 45 03 9E 03 A6 03 8E 03 9C 13 85 00 29 57 77 00 00 00 00 00 0E 9F 21 00 00 00 0B 3E FF] from host [10.200.2.84:5300] by command [10 03 00 01 00 1F 56 83]
2023-06-18 00:08:44.576: Try to read data from host [10.200.2.84:5300] by the command [19 03 00 01 00 1F 56 1A].
2023-06-18 00:08:45.644: SocketException: [TimedOut:A connection attempt failed because the connected party did not properly respond after a period of time, or established connection failed because connected host has failed to respond] 
2023-06-18 00:08:46.246: Read empty data from remote host [10.200.2.84:5300] by the command [19 03 00 01 00 1F 56 1A]
2023-06-18 00:08:49.307: Exception Error Message:Exception has been thrown by the target of an invocation. for remote host [10.200.2.84:5300]
2023-06-18 00:08:49.308: 2023-06-18 00:08:49.308 >>> App Server: NSCM1654
Exception Source: System.Collections.Hashtable ProcessToParserReceivedData(Model.LNMeterCategory, System.Collections.Hashtable)
Message: Exception has been thrown by the target of an invocation.
Source: LNMeterDataServiceSimulator
StackTrace:    at ServiceMgr.LNSvrMgr.ProcessToParserReceivedData(LNMeterCategory lNMeterCategory, Hashtable orgReceivedDecData) in C:\00work\02sc-cfd-git\DMN-B17-FLEXPMxxxxx-LNMeterDataService\00DataService\SourceCode\LNMeterDataServiceSimulator\LNMeterDataServiceSimulator\ServiceMgr\LNSvrMgr.cs:line 65
   at ServiceMgr.LNSvrMgr.ToReadDatafromHostforElectricityMeter(LNMeterCategory lNMeterCategory, LNElectricityMeter lNElectricityMeter) in C:\00work\02sc-cfd-git\DMN-B17-FLEXPMxxxxx-LNMeterDataService\00DataService\SourceCode\LNMeterDataServiceSimulator\LNMeterDataServiceSimulator\ServiceMgr\LNSvrMgr.cs:line 460
Inner Exception:Object reference not set to an instance of an object.
2023-06-18 00:08:51.312: Try to read data from host [10.200.2.84:5300] by the command [1A 03 00 01 00 1F 56 29].
2023-06-18 00:08:51.804: Arrived data length:[67], Data(Hex):[1A 03 3E 02 69 02 03 01 E5 06 52 00 9A 00 C7 00 82 01 E3 02 7D 02 28 01 F7 06 99 08 EA 08 E5 08 E7 0A D6 09 4C 08 B5 03 C9 03 A4 03 C5 03 BE 13 84 00 17 67 95 00 00 00 00 00 07 0C 16 00 00 04 83 25 FB] from host [10.200.2.84:5300] by command [1A 03 00 01 00 1F 56 29]
2023-06-18 00:08:53.862: Try to read data from host [10.200.2.84:5300] by the command [1B 03 00 01 00 1F 57 F8].
2023-06-18 00:08:54.231: Arrived data length:[67], Data(Hex):[1B 03 3E 00 02 00 01 00 00 00 04 00 00 00 00 00 00 00 01 00 02 00 01 00 00 00 04 08 E9 08 E4 08 E7 00 0A 00 06 00 01 03 E4 03 40 03 A8 03 C0 13 84 00 03 2C C7 00 00 00 01 00 00 00 0F 00 00 A2 36 80 E9] from host [10.200.2.84:5300] by command [1B 03 00 01 00 1F 57 F8]
2023-06-18 00:08:56.266: Try to read data from host [10.200.2.84:5300] by the command [1C 03 00 01 00 1F 56 4F].
2023-06-18 00:08:56.637: Arrived data length:[67], Data(Hex):[1C 03 3E 00 4A 00 37 00 22 00 A5 00 0B 00 09 00 06 00 1B 00 4B 00 38 00 23 00 A7 08 E8 08 E3 08 E6 01 49 00 F7 00 9B 03 DC 03 D8 03 D7 03 DA 13 84 00 04 89 A6 00 00 00 01 00 00 00 0D 00 00 CF 26 BD 83] from host [10.200.2.84:5300] by command [1C 03 00 01 00 1F 56 4F]
2023-06-18 00:08:58.678: Try to read data from host [10.200.2.84:5300] by the command [1D 03 00 01 00 1F 57 9E].
2023-06-18 00:08:59.052: Arrived data length:[67], Data(Hex):[1D 03 3E 01 44 01 41 01 45 03 CB 01 C2 01 C7 01 C8 05 53 02 2B 02 2D 02 30 06 89 08 E6 08 E2 08 E5 09 70 09 7C 09 8E 02 48 02 40 02 44 02 44 13 85 00 0E D4 B4 00 00 00 00 00 15 20 EF 00 00 00 14 73 3B] from host [10.200.2.84:5300] by command [1D 03 00 01 00 1F 57 9E]
2023-06-18 00:09:01.064: Try to read data from host [10.200.2.84:5300] by the command [1E 03 00 01 00 1F 57 AD].
2023-06-18 00:09:01.544: Arrived data length:[67], Data(Hex):[1E 03 3E 00 D8 00 DD 00 D6 02 8D 01 16 01 1D 01 1A 03 4D 01 60 01 69 01 62 04 2C 08 E4 08 E2 08 E1 06 00 06 28 06 0D 02 66 02 65 02 5D 02 63 13 85 00 08 EB D1 00 00 00 01 00 0A B8 70 00 00 00 29 D1 80] from host [10.200.2.84:5300] by command [1E 03 00 01 00 1F 57 AD]
2023-06-18 00:09:03.573: Try to read data from host [10.200.2.84:5300] by the command [1F 03 00 01 00 1F 56 7C].
2023-06-18 00:09:03.953: Arrived data length:[67], Data(Hex):[1F 03 3E 00 09 00 0F 00 13 00 2C 00 04 00 00 00 00 00 04 00 0A 00 0F 00 13 00 2C 08 E5 08 E0 08 E4 00 30 00 47 00 61 03 87 03 E7 03 E8 03 E2 13 85 00 01 8D 67 00 00 00 00 00 00 00 59 00 00 4A E3 22 B4] from host [10.200.2.84:5300] by command [1F 03 00 01 00 1F 56 7C]
2023-06-18 00:09:05.985: ExecutionforElectricityMeter time : 76059

2023-06-18 00:09:05.989: ExecutionforElectricityMeter started
2023-06-18 00:09:05.992: Try to read data from host [10.200.2.85:5300] by the command [09 03 00 01 00 1F 54 8A].
2023-06-18 00:09:06.331: Arrived data length:[67], Data(Hex):[09 03 3E 0C 5A 0C 20 0B 7D 23 F8 05 20 05 85 05 5E 10 05 0D 60 0D 53 0C AE 27 60 08 EC 08 E9 08 E9 3A 8D 3A 79 37 93 03 9B 03 8E 03 89 03 91 13 86 00 98 BA 01 00 00 00 00 00 1F EC 36 00 01 43 1F C3 26] from host [10.200.2.85:5300] by command [09 03 00 01 00 1F 54 8A]
2023-06-18 00:09:08.373: Try to read data from host [10.200.2.85:5300] by the command [21 03 00 01 00 1F 52 A2].
2023-06-18 00:09:08.715: Arrived data length:[67], Data(Hex):[21 03 3E 00 08 00 0A 00 09 00 1C 00 05 00 05 00 05 00 12 00 0A 00 0C 00 0A 00 22 08 E7 08 E7 08 E7 00 2D 00 36 00 30 03 24 03 69 03 62 03 53 13 86 00 02 9B 87 00 00 00 00 00 00 A5 3F 00 00 00 0C BF EB] from host [10.200.2.85:5300] by command [21 03 00 01 00 1F 52 A2]
2023-06-18 00:09:10.764: Try to read data from host [10.200.2.85:5300] by the command [22 03 00 01 00 1F 52 91].
2023-06-18 00:09:11.104: Arrived data length:[67], Data(Hex):[22 03 3E 00 07 00 0A 00 07 00 1A 00 05 00 06 00 05 00 12 00 09 00 0C 00 09 00 20 08 EA 08 E8 08 E9 00 28 00 35 00 28 03 27 03 4A 03 12 03 2E 13 87 00 02 89 99 00 00 00 00 00 01 DD 43 00 00 00 03 5E 0B] from host [10.200.2.85:5300] by command [22 03 00 01 00 1F 52 91]
2023-06-18 00:09:13.138: Try to read data from host [10.200.2.85:5300] by the command [23 03 00 01 00 1F 53 40].
2023-06-18 00:09:13.482: Arrived data length:[67], Data(Hex):[23 03 3E 00 A9 00 93 00 7B 01 B7 00 31 00 24 00 27 00 7E 00 B0 00 97 00 81 01 C9 08 E8 08 E9 08 E9 03 39 02 BD 02 46 03 BE 03 CB 03 B6 03 C1 13 87 00 07 72 13 00 00 00 00 00 01 48 44 00 00 01 60 E2 D9] from host [10.200.2.85:5300] by command [23 03 00 01 00 1F 53 40]
2023-06-18 00:09:15.528: Try to read data from host [10.200.2.85:5300] by the command [24 03 00 01 00 1F 52 F7].
2023-06-18 00:09:15.872: Arrived data length:[67], Data(Hex):[24 03 3E 00 42 00 3F 00 2D 00 B1 00 03 00 00 00 02 00 00 00 42 00 3F 00 2D 00 B1 08 E7 08 E7 08 E9 01 47 01 43 00 F0 03 E6 03 E8 03 E5 03 E8 13 88 00 05 AF 39 00 00 00 00 00 00 2F 93 00 00 26 15 23 FF] from host [10.200.2.85:5300] by command [24 03 00 01 00 1F 52 F7]
2023-06-18 00:09:17.884: Try to read data from host [10.200.2.85:5300] by the command [0D 03 00 01 00 1F 55 0E].
2023-06-18 00:09:18.952: SocketException: [TimedOut:A connection attempt failed because the connected party did not properly respond after a period of time, or established connection failed because connected host has failed to respond] 
2023-06-18 00:09:19.554: Read empty data from remote host [10.200.2.85:5300] by the command [0D 03 00 01 00 1F 55 0E]
2023-06-18 00:09:21.809: Exception Error Message:Exception has been thrown by the target of an invocation. for remote host [10.200.2.85:5300]
2023-06-18 00:09:21.810: 2023-06-18 00:09:21.810 >>> App Server: NSCM1654
Exception Source: System.Collections.Hashtable ProcessToParserReceivedData(Model.LNMeterCategory, System.Collections.Hashtable)
Message: Exception has been thrown by the target of an invocation.
Source: LNMeterDataServiceSimulator
StackTrace:    at ServiceMgr.LNSvrMgr.ProcessToParserReceivedData(LNMeterCategory lNMeterCategory, Hashtable orgReceivedDecData) in C:\00work\02sc-cfd-git\DMN-B17-FLEXPMxxxxx-LNMeterDataService\00DataService\SourceCode\LNMeterDataServiceSimulator\LNMeterDataServiceSimulator\ServiceMgr\LNSvrMgr.cs:line 65
   at ServiceMgr.LNSvrMgr.ToReadDatafromHostforElectricityMeter(LNMeterCategory lNMeterCategory, LNElectricityMeter lNElectricityMeter) in C:\00work\02sc-cfd-git\DMN-B17-FLEXPMxxxxx-LNMeterDataService\00DataService\SourceCode\LNMeterDataServiceSimulator\LNMeterDataServiceSimulator\ServiceMgr\LNSvrMgr.cs:line 460
Inner Exception:Object reference not set to an instance of an object.
2023-06-18 00:09:23.813: Try to read data from host [10.200.2.85:5300] by the command [25 03 00 01 00 1F 53 26].
2023-06-18 00:09:24.163: Arrived data length:[67], Data(Hex):[25 03 3E 00 35 00 36 00 35 00 A2 00 33 00 34 00 35 00 9D 00 4A 00 4B 00 4C 00 E2 08 F5 08 F5 08 F5 01 51 01 57 01 59 02 D1 02 D4 02 C4 02 CE 13 8B 00 01 E6 9D 00 00 00 00 00 00 A3 4E 00 00 00 01 24 9F] from host [10.200.2.85:5300] by command [25 03 00 01 00 1F 53 26]
2023-06-18 00:09:26.224: Try to read data from host [10.200.2.85:5300] by the command [26 03 00 01 00 1F 53 15].
2023-06-18 00:09:27.297: SocketException: [TimedOut:A connection attempt failed because the connected party did not properly respond after a period of time, or established connection failed because connected host has failed to respond] 
2023-06-18 00:09:27.900: Read empty data from remote host [10.200.2.85:5300] by the command [26 03 00 01 00 1F 53 15]
2023-06-18 00:10:28.070: Exception Error Message:Exception has been thrown by the target of an invocation. for remote host [10.200.2.85:5300]
2023-06-18 00:10:28.071: 2023-06-18 00:10:28.071 >>> App Server: NSCM1654
Exception Source: System.Collections.Hashtable ProcessToParserReceivedData(Model.LNMeterCategory, System.Collections.Hashtable)
Message: Exception has been thrown by the target of an invocation.
Source: LNMeterDataServiceSimulator
StackTrace:    at ServiceMgr.LNSvrMgr.ProcessToParserReceivedData(LNMeterCategory lNMeterCategory, Hashtable orgReceivedDecData) in C:\00work\02sc-cfd-git\DMN-B17-FLEXPMxxxxx-LNMeterDataService\00DataService\SourceCode\LNMeterDataServiceSimulator\LNMeterDataServiceSimulator\ServiceMgr\LNSvrMgr.cs:line 65
   at ServiceMgr.LNSvrMgr.ToReadDatafromHostforElectricityMeter(LNMeterCategory lNMeterCategory, LNElectricityMeter lNElectricityMeter) in C:\00work\02sc-cfd-git\DMN-B17-FLEXPMxxxxx-LNMeterDataService\00DataService\SourceCode\LNMeterDataServiceSimulator\LNMeterDataServiceSimulator\ServiceMgr\LNSvrMgr.cs:line 460
Inner Exception:Object reference not set to an instance of an object.
2023-06-18 00:10:30.074: Try to read data from host [10.200.2.85:5300] by the command [63 03 20 01 00 5E 96 70].
2023-06-18 00:10:30.651: Arrived data length:[193], Data(Hex):[63 03 BC 45 14 C0 00 45 1B 00 00 45 12 40 00 45 E2 40 00 00 00 00 00 43 0C 00 00 43 48 00 00 43 B4 00 00 45 25 00 00 45 28 C0 00 45 23 C0 00 45 E2 40 00 00 00 08 F5 00 00 08 F4 00 00 08 F5 00 00 2D 28 00 00 2E 40 00 00 2C B0 00 00 0F 84 00 00 0F 85 00 00 0F 82 00 00 08 F5 00 00 08 F3 00 00 08 F4 00 00 28 DC 00 00 2A 80 00 00 28 78 4A 8A FB 60 00 00 00 00 48 82 F0 00 48 82 F0 00 4A 8A FB 60 00 00 00 00 00 00 00 00 00 00 00 00 00 00 00 00 00 00 00 00 00 00 00 00 00 00 00 00 48 82 F0 00 00 00 00 00 00 00 00 00 00 00 00 00 48 82 F0 00 00 00 00 00 00 00 00 00 00 00 00 00 F5 81] from host [10.200.2.85:5300] by command [63 03 20 01 00 5E 96 70]
2023-06-18 00:10:32.709: Try to read data from host [10.200.2.85:5300] by the command [27 03 00 01 00 1F 52 C4].
2023-06-18 00:10:33.782: SocketException: [TimedOut:A connection attempt failed because the connected party did not properly respond after a period of time, or established connection failed because connected host has failed to respond] 
2023-06-18 00:10:34.384: Read empty data from remote host [10.200.2.85:5300] by the command [27 03 00 01 00 1F 52 C4]
2023-06-18 00:10:43.309: Exception Error Message:Exception has been thrown by the target of an invocation. for remote host [10.200.2.85:5300]
2023-06-18 00:10:43.309: 2023-06-18 00:10:43.309 >>> App Server: NSCM1654
Exception Source: System.Collections.Hashtable ProcessToParserReceivedData(Model.LNMeterCategory, System.Collections.Hashtable)
Message: Exception has been thrown by the target of an invocation.
Source: LNMeterDataServiceSimulator
StackTrace:    at ServiceMgr.LNSvrMgr.ProcessToParserReceivedData(LNMeterCategory lNMeterCategory, Hashtable orgReceivedDecData) in C:\00work\02sc-cfd-git\DMN-B17-FLEXPMxxxxx-LNMeterDataService\00DataService\SourceCode\LNMeterDataServiceSimulator\LNMeterDataServiceSimulator\ServiceMgr\LNSvrMgr.cs:line 65
   at ServiceMgr.LNSvrMgr.ToReadDatafromHostforElectricityMeter(LNMeterCategory lNMeterCategory, LNElectricityMeter lNElectricityMeter) in C:\00work\02sc-cfd-git\DMN-B17-FLEXPMxxxxx-LNMeterDataService\00DataService\SourceCode\LNMeterDataServiceSimulator\LNMeterDataServiceSimulator\ServiceMgr\LNSvrMgr.cs:line 460
Inner Exception:Object reference not set to an instance of an object.
2023-06-18 00:10:45.313: Try to read data from host [10.200.2.85:5300] by the command [28 03 00 01 00 1F 52 3B].
2023-06-18 00:10:46.381: SocketException: [TimedOut:A connection attempt failed because the connected party did not properly respond after a period of time, or established connection failed because connected host has failed to respond] 
2023-06-18 00:10:46.983: Read empty data from remote host [10.200.2.85:5300] by the command [28 03 00 01 00 1F 52 3B]
2023-06-18 00:11:04.961: Exception Error Message:Exception has been thrown by the target of an invocation. for remote host [10.200.2.85:5300]
2023-06-18 00:11:04.962: 2023-06-18 00:11:04.962 >>> App Server: NSCM1654
Exception Source: System.Collections.Hashtable ProcessToParserReceivedData(Model.LNMeterCategory, System.Collections.Hashtable)
Message: Exception has been thrown by the target of an invocation.
Source: LNMeterDataServiceSimulator
StackTrace:    at ServiceMgr.LNSvrMgr.ProcessToParserReceivedData(LNMeterCategory lNMeterCategory, Hashtable orgReceivedDecData) in C:\00work\02sc-cfd-git\DMN-B17-FLEXPMxxxxx-LNMeterDataService\00DataService\SourceCode\LNMeterDataServiceSimulator\LNMeterDataServiceSimulator\ServiceMgr\LNSvrMgr.cs:line 65
   at ServiceMgr.LNSvrMgr.ToReadDatafromHostforElectricityMeter(LNMeterCategory lNMeterCategory, LNElectricityMeter lNElectricityMeter) in C:\00work\02sc-cfd-git\DMN-B17-FLEXPMxxxxx-LNMeterDataService\00DataService\SourceCode\LNMeterDataServiceSimulator\LNMeterDataServiceSimulator\ServiceMgr\LNSvrMgr.cs:line 460
Inner Exception:Object reference not set to an instance of an object.
2023-06-18 00:11:06.967: Try to read data from host [10.200.2.85:5300] by the command [0E 03 00 01 00 1F 55 3D].
2023-06-18 00:11:07.333: Arrived data length:[67], Data(Hex):[0E 03 3E 00 AF 00 B0 00 AD 02 0D 00 BB 00 BD 00 BE 02 36 01 01 01 02 01 01 03 05 08 EC 08 E6 08 E9 04 63 04 6E 04 66 02 AB 02 AA 02 A2 02 A8 13 8B 00 05 3C F4 00 00 00 00 00 03 6D 14 00 00 00 00 A4 05] from host [10.200.2.85:5300] by command [0E 03 00 01 00 1F 55 3D]
2023-06-18 00:11:11.670: Try to read data from host [10.200.2.85:5300] by the command [29 03 00 01 00 1F 53 EA].
2023-06-18 00:11:12.048: Arrived data length:[67], Data(Hex):[29 03 3E 00 BF 00 BB 00 B6 02 32 00 EF 00 FA 00 F3 02 DE 01 32 01 39 01 30 03 9D 08 EC 08 E7 08 EC 06 C7 06 E3 06 B5 02 71 02 58 02 56 02 60 13 8B 00 07 5E 61 00 00 00 00 00 06 4A 06 00 00 00 00 FB 24] from host [10.200.2.85:5300] by command [29 03 00 01 00 1F 53 EA]
2023-06-18 00:11:16.019: Try to read data from host [10.200.2.85:5300] by the command [2A 03 00 01 00 1F 53 D9].
2023-06-18 00:11:16.391: Arrived data length:[67], Data(Hex):[2A 03 3E 00 01 00 00 00 00 00 01 00 00 00 00 00 00 00 00 00 01 00 00 00 00 00 01 08 EB 08 E9 08 EB 00 09 00 04 00 03 03 2B 03 E8 03 78 03 77 13 8A 00 04 39 5E 00 00 00 00 00 01 2F 62 00 00 00 00 CF 60] from host [10.200.2.85:5300] by command [2A 03 00 01 00 1F 53 D9]
2023-06-18 00:14:25.911: ExecutionforElectricityMeter started
2023-06-18 00:14:25.925: Try to read data from host [10.200.2.83:5300] by the command [01 03 00 01 00 1F 55 C2].
2023-06-18 00:14:27.157: SocketException: [TimedOut:A connection attempt failed because the connected party did not properly respond after a period of time, or established connection failed because connected host has failed to respond] 
2023-06-18 00:14:27.762: Read empty data from remote host [10.200.2.83:5300] by the command [01 03 00 01 00 1F 55 C2]
2023-06-18 00:14:27.762: Received empty data from remote host [10.200.2.83:5300]
2023-06-18 00:14:29.765: Try to read data from host [10.200.2.83:5300] by the command [02 03 00 01 00 1F 55 F1].
2023-06-18 00:14:30.864: SocketException: [TimedOut:A connection attempt failed because the connected party did not properly respond after a period of time, or established connection failed because connected host has failed to respond] 
2023-06-18 00:14:31.465: Read empty data from remote host [10.200.2.83:5300] by the command [02 03 00 01 00 1F 55 F1]
2023-06-18 00:14:31.466: Received empty data from remote host [10.200.2.83:5300]
2023-06-18 00:14:33.469: Try to read data from host [10.200.2.83:5300] by the command [03 03 00 01 00 1F 54 20].
2023-06-18 00:14:34.579: SocketException: [TimedOut:A connection attempt failed because the connected party did not properly respond after a period of time, or established connection failed because connected host has failed to respond] 
2023-06-18 00:14:35.182: Read empty data from remote host [10.200.2.83:5300] by the command [03 03 00 01 00 1F 54 20]
2023-06-18 00:14:35.182: Received empty data from remote host [10.200.2.83:5300]
2023-06-18 00:14:37.186: Try to read data from host [10.200.2.83:5300] by the command [04 03 00 01 00 1F 55 97].
2023-06-18 00:14:37.535: Arrived data length:[67], Data(Hex):[04 03 3E 01 3E 00 00 02 3C 03 7B 01 E1 00 00 00 22 01 BE 02 40 00 00 02 3C 03 E3 28 4F 28 47 28 4B 02 2E 02 2D 02 2A 02 28 03 E8 03 E6 03 7E 13 84 00 13 68 F8 00 00 00 02 00 09 CA FD 00 00 00 11 4E 44] from host [10.200.2.83:5300] by command [04 03 00 01 00 1F 55 97]
2023-06-18 00:14:39.612: Try to read data from host [10.200.2.83:5300] by the command [05 03 00 01 00 1F 54 46].
2023-06-18 00:14:39.962: Arrived data length:[67], Data(Hex):[05 03 3E 00 00 00 00 00 00 00 00 00 00 00 00 00 00 00 00 00 00 00 00 00 00 00 00 28 52 28 45 28 4B 00 00 00 00 00 00 01 80 03 E8 01 A7 00 2B 13 84 00 16 96 D8 00 00 00 04 00 11 87 CE 00 00 00 15 63 D8] from host [10.200.2.83:5300] by command [05 03 00 01 00 1F 54 46]
2023-06-18 00:14:41.996: Try to read data from host [10.200.2.83:5300] by the command [06 03 00 01 00 1F 54 75].
2023-06-18 00:14:43.100: SocketException: [TimedOut:A connection attempt failed because the connected party did not properly respond after a period of time, or established connection failed because connected host has failed to respond] 
2023-06-18 00:14:43.702: Read empty data from remote host [10.200.2.83:5300] by the command [06 03 00 01 00 1F 54 75]
2023-06-18 00:14:43.702: Received empty data from remote host [10.200.2.83:5300]
2023-06-18 00:14:45.706: Try to read data from host [10.200.2.83:5300] by the command [07 03 00 01 00 1F 55 A4].
2023-06-18 00:14:46.061: Arrived data length:[67], Data(Hex):[07 03 3E 00 00 00 00 00 00 00 00 00 00 00 00 00 00 00 00 00 00 00 00 00 00 00 00 28 54 28 4F 28 51 00 00 00 00 00 00 01 90 03 E8 01 B8 00 2B 13 84 00 0F F4 EE 00 00 00 09 00 0B F6 99 00 00 00 17 52 04] from host [10.200.2.83:5300] by command [07 03 00 01 00 1F 55 A4]
2023-06-18 00:14:48.117: ExecutionforElectricityMeter time : 22205

2023-06-18 00:14:48.120: ExecutionforElectricityMeter started
2023-06-18 00:14:48.122: Try to read data from host [10.200.2.84:5300] by the command [08 03 00 01 00 1F 55 5B].
2023-06-18 00:14:48.634: Arrived data length:[67], Data(Hex):[08 03 3E 0C 00 0B 6D 0B 7B 22 EC 05 78 05 92 05 86 10 92 0D 31 0C B6 0C BF 26 A7 08 E8 08 E6 08 E7 39 EF 38 0F 38 49 03 8D 03 83 03 85 03 88 13 84 00 9B AE A1 00 00 00 00 00 26 1B 0E 00 00 DD 1B F5 7B] from host [10.200.2.84:5300] by command [08 03 00 01 00 1F 55 5B]
2023-06-18 00:14:50.664: Try to read data from host [10.200.2.84:5300] by the command [13 03 00 01 00 1F 56 B0].
2023-06-18 00:14:51.005: Arrived data length:[67], Data(Hex):[13 03 3E 00 AE 00 B0 00 B0 02 10 00 86 00 8B 00 8C 01 9E 00 DC 00 E1 00 E1 02 9F 08 E0 08 D9 08 DC 03 C4 03 D9 03 DA 03 18 03 11 03 0E 03 12 13 84 00 09 3A 3A 00 00 00 00 00 07 55 63 00 00 00 22 CC 98] from host [10.200.2.84:5300] by command [13 03 00 01 00 1F 56 B0]
2023-06-18 00:14:53.072: Try to read data from host [10.200.2.84:5300] by the command [14 03 00 01 00 1F 57 07].
2023-06-18 00:14:53.416: Arrived data length:[67], Data(Hex):[14 03 3E 00 A1 00 82 00 7A 01 9F 00 4D 00 69 00 4C 01 03 00 B3 00 A8 00 90 01 EA 08 DD 08 D8 08 DC 03 1B 02 E6 02 7E 03 85 03 0A 03 51 03 4F 13 84 00 0A EF A1 00 00 00 00 00 05 4D 1F 00 00 02 97 FA 53] from host [10.200.2.84:5300] by command [14 03 00 01 00 1F 57 07]
2023-06-18 00:14:55.428: Try to read data from host [10.200.2.84:5300] by the command [15 03 00 01 00 1F 56 D6].
2023-06-18 00:14:55.825: Arrived data length:[67], Data(Hex):[15 03 3E 00 56 00 52 00 4F 00 F8 00 24 00 31 00 35 00 8C 00 5E 00 60 00 5F 01 1D 08 E1 08 DA 08 DD 01 AA 01 B7 01 B0 03 96 03 59 03 3E 03 66 13 84 00 05 B8 83 00 00 00 01 00 02 87 F9 00 00 00 01 60 49] from host [10.200.2.84:5300] by command [15 03 00 01 00 1F 56 D6]
2023-06-18 00:14:57.841: Try to read data from host [10.200.2.84:5300] by the command [16 03 00 01 00 1F 56 E5].
2023-06-18 00:14:58.188: Arrived data length:[67], Data(Hex):[16 03 3E 00 21 00 1D 00 15 00 55 00 05 00 07 00 06 00 13 00 22 00 1E 00 16 00 57 08 DF 08 D8 08 DC 00 9A 00 86 00 65 03 DA 03 C9 03 BE 03 CE 13 84 00 04 2B EE 00 00 00 01 00 00 00 0C 00 00 D7 CB F9 1F] from host [10.200.2.84:5300] by command [16 03 00 01 00 1F 56 E5]
2023-06-18 00:15:00.248: Try to read data from host [10.200.2.84:5300] by the command [17 03 00 01 00 1F 57 34].
2023-06-18 00:15:00.591: Arrived data length:[67], Data(Hex):[17 03 3E 00 7D 00 9A 00 B3 01 CC 00 1B 00 1E 00 23 00 5D 00 81 00 9D 00 B7 01 D6 08 DD 08 DA 08 DB 02 36 02 B5 03 25 03 D1 03 D4 03 D5 03 D3 13 84 00 07 7A 3A 00 00 00 00 00 00 00 0D 00 01 96 ED 4B E6] from host [10.200.2.84:5300] by command [17 03 00 01 00 1F 57 34]
2023-06-18 00:15:02.638: Try to read data from host [10.200.2.84:5300] by the command [18 03 00 01 00 1F 57 CB].
2023-06-18 00:15:02.983: Arrived data length:[67], Data(Hex):[18 03 3E 01 2F 01 1D 01 1E 03 6B 00 62 00 4D 00 54 01 04 01 3E 01 28 01 2A 03 91 08 DA 08 D6 08 D8 05 70 05 11 05 1D 03 B7 03 C5 03 BF 03 BE 13 84 00 0E 6A 2E 00 00 00 00 00 04 31 88 00 00 00 01 3E 75] from host [10.200.2.84:5300] by command [18 03 00 01 00 1F 57 CB]
2023-06-18 00:15:04.994: Try to read data from host [10.200.2.84:5300] by the command [0F 03 00 01 00 1F 54 EC].
2023-06-18 00:15:06.110: SocketException: [TimedOut:A connection attempt failed because the connected party did not properly respond after a period of time, or established connection failed because connected host has failed to respond] 
2023-06-18 00:15:06.713: Read empty data from remote host [10.200.2.84:5300] by the command [0F 03 00 01 00 1F 54 EC]
2023-06-18 00:15:06.713: Received empty data from remote host [10.200.2.84:5300]
2023-06-18 00:15:08.717: Try to read data from host [10.200.2.84:5300] by the command [10 03 00 01 00 1F 56 83].
2023-06-18 00:15:09.830: SocketException: [TimedOut:A connection attempt failed because the connected party did not properly respond after a period of time, or established connection failed because connected host has failed to respond] 
2023-06-18 00:15:10.433: Read empty data from remote host [10.200.2.84:5300] by the command [10 03 00 01 00 1F 56 83]
2023-06-18 00:15:10.433: Received empty data from remote host [10.200.2.84:5300]
2023-06-18 00:15:12.563: Try to read data from host [10.200.2.84:5300] by the command [19 03 00 01 00 1F 56 1A].
2023-06-18 00:15:13.674: SocketException: [TimedOut:A connection attempt failed because the connected party did not properly respond after a period of time, or established connection failed because connected host has failed to respond] 
2023-06-18 00:15:14.277: Read empty data from remote host [10.200.2.84:5300] by the command [19 03 00 01 00 1F 56 1A]
2023-06-18 00:15:14.278: Received empty data from remote host [10.200.2.84:5300]
2023-06-18 00:15:16.351: Try to read data from host [10.200.2.84:5300] by the command [1A 03 00 01 00 1F 56 29].
2023-06-18 00:15:16.707: Arrived data length:[67], Data(Hex):[1A 03 3E 02 22 01 B1 01 A0 05 75 00 9D 00 B9 00 75 01 CD 02 39 01 D7 01 B0 05 BF 08 E8 08 E3 08 E5 0A 11 08 5E 07 C1 03 C0 03 97 03 C2 03 B5 13 85 00 17 67 A6 00 00 00 00 00 07 0C 1C 00 00 04 83 7F 0C] from host [10.200.2.84:5300] by command [1A 03 00 01 00 1F 56 29]
2023-06-18 00:15:18.882: Try to read data from host [10.200.2.84:5300] by the command [1B 03 00 01 00 1F 57 F8].
2023-06-18 00:15:19.241: Arrived data length:[67], Data(Hex):[1B 03 3E 00 02 00 01 00 00 00 04 00 00 00 00 00 00 00 01 00 02 00 01 00 00 00 04 08 E8 08 E1 08 E4 00 0A 00 06 00 01 03 E4 03 3B 03 A6 03 B9 13 84 00 03 2C C7 00 00 00 01 00 00 00 0F 00 00 A2 36 8B 64] from host [10.200.2.84:5300] by command [1B 03 00 01 00 1F 57 F8]
2023-06-18 00:15:21.301: Try to read data from host [10.200.2.84:5300] by the command [1C 03 00 01 00 1F 56 4F].
2023-06-18 00:15:21.663: Arrived data length:[67], Data(Hex):[1C 03 3E 00 4A 00 37 00 22 00 A5 00 0B 00 09 00 06 00 1B 00 4B 00 38 00 23 00 A7 08 E6 08 E0 08 E2 01 4A 00 F7 00 9B 03 DC 03 D8 03 D7 03 DA 13 84 00 04 89 A8 00 00 00 01 00 00 00 0D 00 00 CF 26 7F AD] from host [10.200.2.84:5300] by command [1C 03 00 01 00 1F 56 4F]
2023-06-18 00:15:23.676: Try to read data from host [10.200.2.84:5300] by the command [1D 03 00 01 00 1F 57 9E].
2023-06-18 00:15:24.048: Arrived data length:[67], Data(Hex):[1D 03 3E 01 44 01 41 01 45 03 CB 01 C0 01 C4 01 C5 05 4B 02 29 02 2B 02 2E 06 84 08 E3 08 DF 08 E2 09 6C 09 76 09 86 02 4A 02 42 02 46 02 46 13 84 00 0E D4 BF 00 00 00 00 00 15 20 FE 00 00 00 14 71 D7] from host [10.200.2.84:5300] by command [1D 03 00 01 00 1F 57 9E]
2023-06-18 00:15:26.061: Try to read data from host [10.200.2.84:5300] by the command [1E 03 00 01 00 1F 57 AD].
2023-06-18 00:15:26.428: Arrived data length:[67], Data(Hex):[1E 03 3E 00 D6 00 DC 00 D7 02 8A 01 16 01 1C 01 19 03 4C 01 5F 01 67 01 62 04 29 08 E3 08 E1 08 E0 05 FE 06 25 06 0C 02 62 02 65 02 5F 02 62 13 84 00 08 EB D8 00 00 00 01 00 0A B8 7A 00 00 00 29 27 94] from host [10.200.2.84:5300] by command [1E 03 00 01 00 1F 57 AD]
2023-06-18 00:15:28.452: Try to read data from host [10.200.2.84:5300] by the command [1F 03 00 01 00 1F 56 7C].
2023-06-18 00:15:28.822: Arrived data length:[67], Data(Hex):[1F 03 3E 00 09 00 10 00 13 00 2D 00 04 00 00 00 00 00 03 00 0A 00 10 00 14 00 2D 08 E4 08 DF 08 E2 00 30 00 4A 00 63 03 87 03 E8 03 E7 03 E4 13 84 00 01 8D 68 00 00 00 00 00 00 00 59 00 00 4A E3 70 19] from host [10.200.2.84:5300] by command [1F 03 00 01 00 1F 56 7C]
2023-06-18 00:15:30.844: ExecutionforElectricityMeter time : 42723

2023-06-18 00:15:30.847: ExecutionforElectricityMeter started
2023-06-18 00:15:30.850: Try to read data from host [10.200.2.85:5300] by the command [09 03 00 01 00 1F 54 8A].
2023-06-18 00:15:31.188: Arrived data length:[67], Data(Hex):[09 03 3E 0C 37 0C 0D 0B 6E 23 B5 05 1B 05 79 05 5B 0F F2 0D 3E 0D 3D 0C A1 27 1C 08 EA 08 E6 08 E6 3A 06 3A 37 37 86 03 9A 03 8E 03 89 03 91 13 84 00 98 BA 61 00 00 00 00 00 1F EC 58 00 01 43 1F E3 7B] from host [10.200.2.85:5300] by command [09 03 00 01 00 1F 54 8A]
2023-06-18 00:15:33.197: Try to read data from host [10.200.2.85:5300] by the command [21 03 00 01 00 1F 52 A2].
2023-06-18 00:15:33.539: Arrived data length:[67], Data(Hex):[21 03 3E 00 08 00 0A 00 09 00 1C 00 05 00 05 00 05 00 12 00 0A 00 0C 00 0A 00 21 08 E5 08 E3 08 E4 00 2D 00 34 00 30 03 1E 03 68 03 60 03 4F 13 84 00 02 9B 88 00 00 00 00 00 00 A5 3F 00 00 00 0C 6C 78] from host [10.200.2.85:5300] by command [21 03 00 01 00 1F 52 A2]
2023-06-18 00:15:35.587: Try to read data from host [10.200.2.85:5300] by the command [22 03 00 01 00 1F 52 91].
2023-06-18 00:15:36.685: SocketException: [TimedOut:A connection attempt failed because the connected party did not properly respond after a period of time, or established connection failed because connected host has failed to respond] 
2023-06-18 00:15:37.288: Read empty data from remote host [10.200.2.85:5300] by the command [22 03 00 01 00 1F 52 91]
2023-06-18 00:15:37.288: Received empty data from remote host [10.200.2.85:5300]
2023-06-18 00:15:39.293: Try to read data from host [10.200.2.85:5300] by the command [23 03 00 01 00 1F 53 40].
2023-06-18 00:15:39.640: Arrived data length:[67], Data(Hex):[23 03 3E 00 A6 00 92 00 77 01 B0 00 32 00 22 00 26 00 7C 00 AD 00 96 00 7D 01 C1 08 E7 08 E7 08 E7 03 1C 02 AE 02 30 03 BB 03 CD 03 B8 03 C1 13 84 00 07 72 18 00 00 00 00 00 01 48 45 00 00 01 60 0A F2] from host [10.200.2.85:5300] by command [23 03 00 01 00 1F 53 40]
2023-06-18 00:15:41.686: Try to read data from host [10.200.2.85:5300] by the command [24 03 00 01 00 1F 52 F7].
2023-06-18 00:15:42.783: SocketException: [TimedOut:A connection attempt failed because the connected party did not properly respond after a period of time, or established connection failed because connected host has failed to respond] 
2023-06-18 00:15:43.385: Read empty data from remote host [10.200.2.85:5300] by the command [24 03 00 01 00 1F 52 F7]
2023-06-18 00:15:43.385: Received empty data from remote host [10.200.2.85:5300]
2023-06-18 00:15:45.388: Try to read data from host [10.200.2.85:5300] by the command [0D 03 00 01 00 1F 55 0E].
2023-06-18 00:15:46.485: SocketException: [TimedOut:A connection attempt failed because the connected party did not properly respond after a period of time, or established connection failed because connected host has failed to respond] 
2023-06-18 00:15:47.088: Read empty data from remote host [10.200.2.85:5300] by the command [0D 03 00 01 00 1F 55 0E]
2023-06-18 00:15:47.090: Received empty data from remote host [10.200.2.85:5300]
2023-06-18 00:15:49.092: Try to read data from host [10.200.2.85:5300] by the command [25 03 00 01 00 1F 53 26].
2023-06-18 00:15:49.449: Arrived data length:[67], Data(Hex):[25 03 3E 00 35 00 36 00 35 00 A1 00 32 00 33 00 34 00 9B 00 49 00 4B 00 4A 00 E0 08 E7 08 E6 08 E6 01 51 01 58 01 58 02 D7 02 D4 02 C8 02 D1 13 85 00 01 E6 9E 00 00 00 00 00 00 A3 4F 00 00 00 01 D5 75] from host [10.200.2.85:5300] by command [25 03 00 01 00 1F 53 26]
2023-06-18 00:15:58.163: Try to read data from host [10.200.2.85:5300] by the command [26 03 00 01 00 1F 53 15].
2023-06-18 00:15:58.522: Arrived data length:[67], Data(Hex):[26 03 3E 00 02 00 03 00 07 00 0D 00 02 00 01 00 00 00 04 00 03 00 03 00 07 00 0E 08 F4 08 F1 08 F3 00 0F 00 12 00 22 02 C3 03 BC 03 E1 03 B8 13 85 00 00 AD F5 00 00 00 00 00 00 10 B0 00 00 00 0D 1A 55] from host [10.200.2.85:5300] by command [26 03 00 01 00 1F 53 15]
2023-06-18 00:16:00.575: Try to read data from host [10.200.2.85:5300] by the command [63 03 20 01 00 5E 96 70].
2023-06-18 00:16:01.120: Arrived data length:[193], Data(Hex):[63 03 BC 45 18 80 00 45 1C 40 00 45 17 40 00 45 E6 A0 00 00 00 00 00 43 0C 00 00 43 48 00 00 43 B4 00 00 45 28 C0 00 45 2B 40 00 45 26 40 00 45 E7 40 00 00 00 08 F6 00 00 08 F5 00 00 08 F7 00 00 2E 18 00 00 2F 30 00 00 2E 04 00 00 0F 84 00 00 0F 86 00 00 0F 85 00 00 08 F5 00 00 08 F4 00 00 08 F6 00 00 2A 1C 00 00 2B 70 00 00 29 E0 4A 8A FC 00 00 00 00 00 48 82 F0 00 48 82 F0 00 4A 8A FC 00 00 00 00 00 00 00 00 00 00 00 00 00 00 00 00 00 00 00 00 00 00 00 00 00 00 00 00 00 48 82 F0 00 00 00 00 00 00 00 00 00 00 00 00 00 48 82 F0 00 00 00 00 00 00 00 00 00 00 00 00 00 1E 3A] from host [10.200.2.85:5300] by command [63 03 20 01 00 5E 96 70]
2023-06-18 00:16:03.169: Try to read data from host [10.200.2.85:5300] by the command [27 03 00 01 00 1F 52 C4].
2023-06-18 00:16:04.271: SocketException: [TimedOut:A connection attempt failed because the connected party did not properly respond after a period of time, or established connection failed because connected host has failed to respond] 
2023-06-18 00:16:13.148: Read empty data from remote host [10.200.2.85:5300] by the command [27 03 00 01 00 1F 52 C4]
2023-06-18 00:16:13.148: Received empty data from remote host [10.200.2.85:5300]
2023-06-18 00:16:15.154: Try to read data from host [10.200.2.85:5300] by the command [28 03 00 01 00 1F 52 3B].
2023-06-18 00:16:15.498: Arrived data length:[67], Data(Hex):[28 03 3E 00 00 00 02 00 00 00 03 00 00 00 00 00 01 00 01 00 00 00 02 00 01 00 03 08 F9 08 F7 08 F9 00 03 00 0A 00 09 02 DF 03 E6 01 E9 03 8D 13 88 00 00 24 7A 00 00 00 00 00 00 06 27 00 00 00 14 CC B3] from host [10.200.2.85:5300] by command [28 03 00 01 00 1F 52 3B]
2023-06-18 00:16:17.534: Try to read data from host [10.200.2.85:5300] by the command [0E 03 00 01 00 1F 55 3D].
2023-06-18 00:16:17.884: Arrived data length:[67], Data(Hex):[0E 03 3E 00 AF 00 B1 00 AF 02 10 00 C3 00 C2 00 C6 02 4C 01 06 01 07 01 08 03 16 08 FF 08 F9 08 FF 04 72 04 78 04 7D 02 9B 02 A1 02 97 02 9B 13 88 00 05 3C F9 00 00 00 00 00 03 6D 19 00 00 00 00 C0 99] from host [10.200.2.85:5300] by command [0E 03 00 01 00 1F 55 3D]
2023-06-18 00:16:20.158: Try to read data from host [10.200.2.85:5300] by the command [29 03 00 01 00 1F 53 EA].
2023-06-18 00:16:20.507: Arrived data length:[67], Data(Hex):[29 03 3E 00 C8 00 C0 00 B9 02 44 00 F9 01 07 00 FD 02 FF 01 40 01 47 01 3A 03 C1 08 FF 08 FB 09 02 06 F5 07 0C 06 CF 02 73 02 4E 02 50 02 5B 13 89 00 07 5E 66 00 00 00 00 00 06 4A 0C 00 00 00 00 58 0B] from host [10.200.2.85:5300] by command [29 03 00 01 00 1F 53 EA]
2023-06-18 00:16:22.653: Try to read data from host [10.200.2.85:5300] by the command [2A 03 00 01 00 1F 53 D9].
2023-06-18 00:16:23.151: Arrived data length:[67], Data(Hex):[2A 03 3E 00 01 00 00 00 00 00 01 00 00 00 00 00 00 00 00 00 01 00 00 00 00 00 01 09 00 08 FD 09 01 00 09 00 03 00 03 02 F1 03 E8 03 7E 03 60 13 89 00 04 39 5E 00 00 00 00 00 01 2F 62 00 00 00 00 10 D6] from host [10.200.2.85:5300] by command [2A 03 00 01 00 1F 53 D9]
2023-06-18 00:16:25.198: Try to read data from host [10.200.2.85:5300] by the command [20 03 00 01 00 1F 53 73].
2023-06-18 00:16:26.293: SocketException: [TimedOut:A connection attempt failed because the connected party did not properly respond after a period of time, or established connection failed because connected host has failed to respond] 
2023-06-18 00:16:26.895: Read empty data from remote host [10.200.2.85:5300] by the command [20 03 00 01 00 1F 53 73]
2023-06-18 00:16:26.896: Received empty data from remote host [10.200.2.85:5300]
2023-06-18 00:16:28.898: ExecutionforElectricityMeter time : 58050

2023-06-18 00:16:28.901: ExecutionforElectricityMeter started
2023-06-18 00:16:28.903: Try to read data from host [10.200.2.89:5300] by the command [0A 03 00 01 00 1F 54 B9].
2023-06-18 00:16:29.240: Arrived data length:[67], Data(Hex):[0A 03 3E 08 1B 08 24 08 49 18 8C 00 AC 00 B9 00 96 01 FE 08 23 08 2D 08 50 18 A0 09 08 09 05 09 06 23 80 23 B3 24 28 03 E4 03 E4 03 E5 03 E4 13 89 00 53 5B 4B 00 00 3E 43 00 0B AF 34 00 00 A3 4A 1E 1A] from host [10.200.2.89:5300] by command [0A 03 00 01 00 1F 54 B9]
2023-06-18 00:16:31.288: Try to read data from host [10.200.2.89:5300] by the command [3A 03 00 01 00 1F 51 49].
2023-06-18 00:16:31.628: Arrived data length:[67], Data(Hex):[3A 03 3E 00 85 00 88 00 6F 01 7D 00 58 00 4D 00 53 00 FA 00 9F 00 9D 00 8B 01 C8 09 06 09 01 09 05 02 B3 02 A6 02 59 03 41 03 64 03 1E 03 44 13 88 00 02 86 84 00 00 00 00 00 01 6D F3 00 00 00 17 FF B1] from host [10.200.2.89:5300] by command [3A 03 00 01 00 1F 51 49]
2023-06-18 00:16:33.639: Try to read data from host [10.200.2.89:5300] by the command [3B 03 00 01 00 1F 50 98].
2023-06-18 00:16:33.981: Arrived data length:[67], Data(Hex):[3B 03 3E 00 79 00 AF 00 BE 01 E7 00 00 00 00 00 03 00 02 00 79 00 AF 00 BE 01 E7 09 07 09 03 09 06 02 14 02 E2 03 3A 03 E8 03 E8 03 E7 03 E8 13 88 00 07 A6 5F 00 00 00 02 00 00 21 D7 00 00 1D 06 6F CE] from host [10.200.2.89:5300] by command [3B 03 00 01 00 1F 50 98]
2023-06-18 00:16:36.035: Try to read data from host [10.200.2.89:5300] by the command [2C 03 00 01 00 1F 53 BF].
2023-06-18 00:16:36.432: Arrived data length:[67], Data(Hex):[2C 03 3E 00 0D 00 19 00 1A 00 42 00 09 00 03 00 0D 00 1A 00 11 00 1A 00 1D 00 47 09 04 08 FF 09 04 00 49 00 71 00 80 03 32 03 DF 03 81 03 A1 13 88 00 01 E8 E0 00 00 00 00 00 01 8E 83 00 00 01 E1 8C 1A] from host [10.200.2.89:5300] by command [2C 03 00 01 00 1F 53 BF]
