2023-06-19 00:45:28.379: ExecutionforChilledWaterFlowMeter started
2023-06-19 00:45:28.389: Try to read data from host [10.200.2.88:5300] by the command [5B 03 00 01 00 24 18 EB].
2023-06-19 00:45:28.867: Arrived data length:[77], Data(Hex):[5B 03 48 40 F5 0F 43 3E 03 D0 16 3D 20 4B 5B 44 B9 D4 3F 00 0A AE BB 3F 72 C8 8B FF FF 2E 29 BF 3D 00 E9 00 00 52 51 3E 9D F2 A1 FF FF 2E DD BD 4C 9C CA 00 0A 19 5E 3E 56 0E 48 00 00 A6 9A 3E B6 72 43 41 B0 7E 70 41 90 AB 00 E1 E3] from host [10.200.2.88:5300] by command [5B 03 00 01 00 24 18 EB]
2023-06-19 00:45:31.914: Try to read data from host [10.200.2.88:5300] by the command [5A 03 00 01 00 24 19 3A].
2023-06-19 00:45:32.328: Arrived data length:[77], Data(Hex):[5A 03 48 00 00 00 00 00 00 00 00 00 00 AC D6 44 B8 8C 55 00 44 2F 14 3E F3 41 33 FF FF 38 20 BE DA 00 8A 00 00 84 E0 3F 54 5F CE FF FF 9F 6F BF 4A CD 88 00 43 B5 F0 3D 46 A0 BD 00 00 1D EF 3F 1F 79 2E 41 8E 4E 25 41 92 1D 00 3F B0] from host [10.200.2.88:5300] by command [5A 03 00 01 00 24 19 3A]
2023-06-19 00:45:35.727: Try to read data from host [10.200.2.88:5300] by the command [5D 03 00 01 00 24 18 8D].
2023-06-19 00:45:36.042: Arrived data length:[19], Data(Hex):[5D 03 48 C1 E3 06 22 BD 15 9F 55 BD 40 3D 00 44 B7 F6 CE] from host [10.200.2.88:5300] by command [5D 03 00 01 00 24 18 8D]
2023-06-19 00:45:36.042: Try to re-read [EmptyDataCounter=1] data due to [Read data [5D 03 48 C1 E3 06 22 BD 15 9F 55 BD 40 3D 00 44 B7 F6 CE] is not enough from remote host [10.200.2.88:5300] by the command [5D 03 00 01 00 24 18 8D]]
2023-06-19 00:45:36.444: Arrived data length:[77], Data(Hex):[5D 03 48 C1 E3 06 22 BD 15 9F 55 BD 40 3D 00 44 B7 F6 CE 00 49 56 6C 3D F4 BA 9F FF FE C2 50 BF 66 00 79 00 00 A2 DA 3F 35 56 B7 FF FF D3 3A BF 51 B1 6D 00 48 30 EE BF 48 A9 C3 00 00 77 BB 3F 07 16 67 41 90 A2 1E 41 8D 55 00 C3 69] from host [10.200.2.88:5300] by command [5D 03 00 01 00 24 18 8D]
2023-06-19 00:45:39.457: Try to read data from host [10.200.2.88:5300] by the command [5E 03 00 01 00 24 18 BE].
2023-06-19 00:46:11.396: ExecutionforElectricityMeter started
2023-06-19 00:46:11.396: ExecutionforElectricityMeter time : 0

2023-06-19 00:46:11.399: ExecutionforElectricityMeter started
2023-06-19 00:46:11.400: ExecutionforElectricityMeter time : 0

2023-06-19 00:46:11.403: ExecutionforElectricityMeter started
2023-06-19 00:46:11.411: Try to read data from host [10.200.2.85:5300] by the command [63 03 00 01 00 1F 5D 80].
2023-06-19 00:46:11.806: Arrived data length:[67], Data(Hex):[63 03 3E 00 12 00 12 00 12 00 37 00 01 00 01 00 02 00 04 00 16 00 16 00 16 00 38 09 2A 09 2B 09 2A 00 5E 00 5E 00 5F 03 3D 03 4C 03 44 03 E4 13 86 00 00 B2 76 00 00 00 00 00 00 0A 84 00 00 0A 84 88 0D] from host [10.200.2.85:5300] by command [63 03 00 01 00 1F 5D 80]
2023-06-19 00:47:29.818: Exception Error Message:Exception has been thrown by the target of an invocation. for remote host [10.200.2.85:5300]
2023-06-19 00:47:29.835: 2023-06-19 00:47:29.821 >>> App Server: NSCM1654
Exception Source: System.Collections.Hashtable ProcessToParserReceivedData(Model.LNMeterCategory, System.Collections.Hashtable)
Message: Exception has been thrown by the target of an invocation.
Source: LNMeterDataServiceSimulator
StackTrace:    at ServiceMgr.LNSvrMgr.ProcessToParserReceivedData(LNMeterCategory lNMeterCategory, Hashtable orgReceivedDecData) in C:\00work\02sc-cfd-git\DMN-B17-FLEXPMxxxxx-LNMeterDataService\00DataService\SourceCode\LNMeterDataServiceSimulator\LNMeterDataServiceSimulator\ServiceMgr\LNSvrMgr.cs:line 65
   at ServiceMgr.LNSvrMgr.ToReadDatafromHostforElectricityMeter(LNMeterCategory lNMeterCategory, LNElectricityMeter lNElectricityMeter) in C:\00work\02sc-cfd-git\DMN-B17-FLEXPMxxxxx-LNMeterDataService\00DataService\SourceCode\LNMeterDataServiceSimulator\LNMeterDataServiceSimulator\ServiceMgr\LNSvrMgr.cs:line 444
Inner Exception:Object reference not set to an instance of an object.
2023-06-19 00:47:32.837: ExecutionforElectricityMeter time : 81432

2023-06-19 00:47:32.961: ExecutionforElectricityMeter started
2023-06-19 00:47:32.961: ExecutionforElectricityMeter time : 0

2023-06-19 00:47:32.965: ExecutionforElectricityMeter started
2023-06-19 00:47:32.965: ExecutionforElectricityMeter time : 0

2023-06-19 00:47:35.424: ExecutionforElectricityMeter started
2023-06-19 00:47:35.424: ExecutionforElectricityMeter time : 0

2023-06-19 00:47:35.428: ExecutionforElectricityMeter started
2023-06-19 00:47:35.429: ExecutionforElectricityMeter time : 0

2023-06-19 00:47:35.432: ExecutionforElectricityMeter started
2023-06-19 00:47:35.438: Try to read data from host [10.200.2.85:5300] by the command [63 03 00 01 00 1F 5D 80].
2023-06-19 00:47:35.828: Arrived data length:[67], Data(Hex):[63 03 3E 00 10 00 10 00 10 00 31 00 01 00 01 00 01 00 04 00 14 00 13 00 14 00 32 09 29 09 29 09 2A 00 56 00 54 00 57 03 2E 03 32 03 37 03 E3 13 87 00 00 B2 76 00 00 00 00 00 00 0A 84 00 00 0A 84 B4 19] from host [10.200.2.85:5300] by command [63 03 00 01 00 1F 5D 80]
2023-06-19 00:47:58.701: ExecutionforElectricityMeter time : 23268

2023-06-19 00:47:58.706: ExecutionforElectricityMeter started
2023-06-19 00:47:58.706: ExecutionforElectricityMeter time : 0

2023-06-19 00:47:58.708: ExecutionforElectricityMeter started
2023-06-19 00:47:58.709: ExecutionforElectricityMeter time : 0

2023-06-19 00:48:08.436: ExecutionforElectricityMeter started
2023-06-19 00:48:08.436: ExecutionforElectricityMeter time : 0

2023-06-19 00:48:08.438: ExecutionforElectricityMeter started
2023-06-19 00:48:08.438: ExecutionforElectricityMeter time : 0

2023-06-19 00:48:08.440: ExecutionforElectricityMeter started
2023-06-19 00:48:08.443: Try to read data from host [10.200.2.85:5300] by the command [63 03 00 01 00 1F 5D 80].
2023-06-19 00:48:08.839: Arrived data length:[67], Data(Hex):[63 03 3E 00 10 00 10 00 11 00 32 00 01 00 01 00 01 00 04 00 14 00 14 00 14 00 32 09 2A 09 2B 09 2B 00 57 00 55 00 58 03 2F 03 32 03 37 03 E3 13 88 00 00 B2 76 00 00 00 00 00 00 0A 84 00 00 0A 84 19 73] from host [10.200.2.85:5300] by command [63 03 00 01 00 1F 5D 80]
2023-06-19 00:49:20.244: ExecutionforElectricityMeter started
2023-06-19 00:49:20.245: ExecutionforElectricityMeter time : 0

2023-06-19 00:49:20.248: ExecutionforElectricityMeter started
2023-06-19 00:49:20.248: ExecutionforElectricityMeter time : 0

2023-06-19 00:49:20.251: ExecutionforElectricityMeter started
2023-06-19 00:49:20.261: Try to read data from host [10.200.2.85:5300] by the command [63 03 00 01 00 1F 5D 80].
2023-06-19 00:49:48.392: Arrived data length:[67], Data(Hex):[63 03 3E 00 10 00 10 00 11 00 32 00 01 00 01 00 01 00 04 00 14 00 14 00 14 00 32 09 2B 09 2B 09 2B 00 57 00 55 00 58 03 2F 03 31 03 37 03 E3 13 8A 00 00 B2 76 00 00 00 00 00 00 0A 84 00 00 0A 84 F0 66] from host [10.200.2.85:5300] by command [63 03 00 01 00 1F 5D 80]
2023-06-19 00:51:37.807: ExecutionforElectricityMeter started
2023-06-19 00:51:37.807: ExecutionforElectricityMeter time : 0

2023-06-19 00:51:37.810: ExecutionforElectricityMeter started
2023-06-19 00:51:37.810: ExecutionforElectricityMeter time : 0

2023-06-19 00:51:37.811: ExecutionforElectricityMeter started
2023-06-19 00:52:03.625: Try to read data from host [10.200.2.85:5300] by the command [63 03 20 01 00 5E 96 70].
2023-06-19 00:52:06.156: Arrived data length:[193], Data(Hex):[63 03 BC 44 CF 80 00 44 CA 80 00 44 D2 00 00 45 9C E0 00 42 F0 00 00 43 0C 00 00 43 20 00 00 43 E6 00 00 45 00 C0 00 44 FA 00 00 45 00 C0 00 45 9D 80 00 00 00 09 2B 00 00 09 2B 00 00 09 2B 00 00 22 4C 00 00 21 70 00 00 22 74 00 00 0F E1 00 00 0F DF 00 00 0F E2 00 00 09 2B 00 00 09 2B 00 00 09 2B 00 00 1C 20 00 00 1B 6C 00 00 1C 98 4A 8B 6C A8 00 00 00 00 48 83 7C 00 48 83 7C 00 4A 8B 6C A8 00 00 00 00 00 00 00 00 00 00 00 00 00 00 00 00 00 00 00 00 00 00 00 00 00 00 00 00 48 83 7C 00 00 00 00 00 00 00 00 00 00 00 00 00 48 83 7C 00 00 00 00 00 00 00 00 00 00 00 00 00 D9 15] from host [10.200.2.85:5300] by command [63 03 20 01 00 5E 96 70]
2023-06-19 00:52:38.310: ExecutionforElectricityMeter time : 60497

2023-06-19 00:52:38.318: ExecutionforElectricityMeter started
2023-06-19 00:52:38.318: ExecutionforElectricityMeter time : 0

2023-06-19 00:52:38.322: ExecutionforElectricityMeter started
2023-06-19 00:52:38.322: ExecutionforElectricityMeter time : 0

