2023-06-19 15:16:06.575: ExecutionforElectricityMeter started
2023-06-19 15:16:10.139: Try to read data from host [10.200.2.83:5300] by the command [01 03 00 01 00 1F 55 C2].
2023-06-19 15:16:16.306: Arrived data length:[67], Data(Hex):[01 03 3E 00 00 00 00 00 00 00 00 00 00 00 00 00 00 00 00 00 00 00 00 00 00 00 00 28 8A 28 77 28 80 00 00 00 00 00 00 01 87 03 E8 01 B2 00 00 13 84 00 0B 5C 67 00 00 00 01 00 06 35 61 00 00 00 10 D7 14] from host [10.200.2.83:5300] by command [01 03 00 01 00 1F 55 C2]
2023-06-19 15:16:27.665: Try to read data from host [10.200.2.83:5300] by the command [02 03 00 01 00 1F 55 F1].
2023-06-19 15:16:27.972: Arrived data length:[67], Data(Hex):[02 03 3E 00 00 00 00 00 00 00 00 00 00 00 00 00 00 00 00 00 00 00 00 00 00 00 00 28 8F 28 86 28 8A 00 00 00 00 00 00 01 5B 03 E8 01 B2 00 2F 13 85 00 18 96 E9 00 00 00 0C 00 0D 4A 96 00 00 00 1D BB ED] from host [10.200.2.83:5300] by command [02 03 00 01 00 1F 55 F1]
2023-06-19 15:16:31.016: Try to read data from host [10.200.2.83:5300] by the command [03 03 00 01 00 1F 54 20].
2023-06-19 15:16:31.325: Arrived data length:[67], Data(Hex):[03 03 3E 00 D8 00 00 01 8C 02 65 01 52 00 00 00 13 01 3E 01 91 00 00 01 8D 02 B3 28 8A 28 7E 28 84 01 82 01 7F 01 7E 02 1A 03 E8 03 E6 03 77 13 85 00 22 6A 67 00 00 00 01 00 12 76 CD 00 00 00 38 50 B9] from host [10.200.2.83:5300] by command [03 03 00 01 00 1F 54 20]
2023-06-19 15:16:34.373: Try to read data from host [10.200.2.83:5300] by the command [04 03 00 01 00 1F 55 97].
2023-06-19 15:16:35.000: Arrived data length:[67], Data(Hex):[04 03 3E 01 51 00 00 02 5A 03 AC 01 FB 00 00 00 28 01 D3 02 61 00 00 02 5B 04 1A 28 8D 28 7F 28 86 02 4A 02 46 02 45 02 29 03 E8 03 E5 03 7F 13 86 00 13 A6 1B 00 00 00 02 00 09 E9 A0 00 00 00 12 2F E5] from host [10.200.2.83:5300] by command [04 03 00 01 00 1F 55 97]
2023-06-19 15:16:38.031: Try to read data from host [10.200.2.83:5300] by the command [05 03 00 01 00 1F 54 46].
2023-06-19 15:16:38.343: Arrived data length:[67], Data(Hex):[05 03 3E 00 00 00 00 00 00 00 00 00 00 00 00 00 00 00 00 00 00 00 00 00 00 00 00 28 92 28 7D 28 87 00 00 00 00 00 00 01 A7 03 E8 01 CD 00 00 13 86 00 16 96 D8 00 00 00 04 00 11 87 CE 00 00 00 15 74 B2] from host [10.200.2.83:5300] by command [05 03 00 01 00 1F 54 46]
2023-06-19 15:16:41.757: Try to read data from host [10.200.2.83:5300] by the command [06 03 00 01 00 1F 54 75].
2023-06-19 15:16:42.180: Arrived data length:[67], Data(Hex):[06 03 3E 00 6B 00 00 01 04 01 6F 00 F3 00 00 00 1C 01 10 01 0A 00 00 01 05 01 C9 28 8D 28 7A 28 83 01 00 00 FE 00 FB 01 92 03 E8 03 E2 03 23 13 88 00 18 61 FA 00 00 00 11 00 12 52 D0 00 00 00 21 54 84] from host [10.200.2.83:5300] by command [06 03 00 01 00 1F 54 75]
2023-06-19 15:16:45.461: Try to read data from host [10.200.2.83:5300] by the command [07 03 00 01 00 1F 55 A4].
2023-06-19 15:16:45.779: Arrived data length:[67], Data(Hex):[07 03 3E 00 00 00 00 00 00 00 00 00 00 00 00 00 00 00 00 00 00 00 00 00 00 00 00 28 8C 28 82 28 87 00 00 00 00 00 00 01 90 03 E8 01 B8 00 2B 13 88 00 0F F4 EE 00 00 00 09 00 0B F6 99 00 00 00 17 AC 39] from host [10.200.2.83:5300] by command [07 03 00 01 00 1F 55 A4]
2023-06-19 15:16:48.835: ExecutionforElectricityMeter time : 42259

2023-06-19 15:16:48.839: ExecutionforElectricityMeter started
2023-06-19 15:16:48.842: Try to read data from host [10.200.2.84:5300] by the command [08 03 00 01 00 1F 55 5B].
2023-06-19 15:16:49.147: Arrived data length:[67], Data(Hex):[08 03 3E 0F 7E 0E D5 0F 09 2D 60 02 3D 02 57 02 32 06 C8 0F A7 0F 05 0F 32 2D E0 09 08 09 03 09 08 43 A3 41 46 41 DA 03 DD 03 DB 03 DD 03 DD 13 89 00 9C 05 27 00 00 00 00 00 26 33 57 00 00 DF 99 3A 69] from host [10.200.2.84:5300] by command [08 03 00 01 00 1F 55 5B]
2023-06-19 15:16:52.178: Try to read data from host [10.200.2.84:5300] by the command [13 03 00 01 00 1F 56 B0].
2023-06-19 15:16:52.485: Arrived data length:[67], Data(Hex):[13 03 3E 00 AD 00 AF 00 AF 02 0D 00 89 00 8C 00 8E 01 A4 00 DC 00 E1 00 E2 02 A0 08 F0 08 E6 08 EF 03 BE 03 D4 03 D8 03 10 03 0C 03 08 03 0C 13 89 00 09 3D F4 00 00 00 00 00 07 58 81 00 00 00 22 E3 04] from host [10.200.2.84:5300] by command [13 03 00 01 00 1F 56 B0]
2023-06-19 15:17:08.853: Try to read data from host [10.200.2.84:5300] by the command [14 03 00 01 00 1F 57 07].
2023-06-19 15:17:09.155: Arrived data length:[67], Data(Hex):[14 03 3E 01 25 00 F1 00 D3 02 EB 00 75 00 AB 00 70 01 91 01 3B 01 28 00 EF 03 50 08 DA 08 D2 08 DA 05 85 05 25 04 35 03 A0 03 2F 03 73 03 71 13 8B 00 0A F7 0A 00 00 00 00 00 05 51 F6 00 00 02 97 D7 96] from host [10.200.2.84:5300] by command [14 03 00 01 00 1F 57 07]
2023-06-19 15:17:50.302: Try to read data from host [10.200.2.84:5300] by the command [15 03 00 01 00 1F 56 D6].
2023-06-19 15:17:51.421: SocketException: [TimedOut:A connection attempt failed because the connected party did not properly respond after a period of time, or established connection failed because connected host has failed to respond] 
2023-06-19 15:17:52.023: Try to re-read [EmptyDataCounter=1] data due to [Read empty data from remote host [10.200.2.84:5300] by the command [15 03 00 01 00 1F 56 D6]]
2023-06-19 15:17:52.396: Arrived data length:[67], Data(Hex):[15 03 3E 00 A1 00 AA 00 BA 02 06 00 30 00 3A 00 40 00 AC 00 A8 00 B4 00 C5 02 22 08 DB 08 D0 08 D8 02 ED 03 2A 03 84 03 BC 03 B1 03 B0 03 B4 13 84 00 05 BD 40 00 00 00 01 00 02 8A 67 00 00 00 01 49 11] from host [10.200.2.84:5300] by command [15 03 00 01 00 1F 56 D6]
2023-06-19 15:17:56.327: Try to read data from host [10.200.2.84:5300] by the command [16 03 00 01 00 1F 56 E5].
2023-06-19 15:17:56.645: Arrived data length:[67], Data(Hex):[16 03 3E 00 7C 00 B1 00 7B 01 A9 00 16 00 1C 00 18 00 4C 00 7E 00 B3 00 7D 01 B0 08 D9 08 CF 08 D8 02 2F 03 24 02 2D 03 D8 03 DB 03 D3 03 D8 13 84 00 04 2D A1 00 00 00 01 00 00 00 0C 00 00 D8 27 90 06] from host [10.200.2.84:5300] by command [16 03 00 01 00 1F 56 E5]
2023-06-19 15:17:59.672: Try to read data from host [10.200.2.84:5300] by the command [17 03 00 01 00 1F 57 34].
2023-06-19 15:17:59.996: Arrived data length:[67], Data(Hex):[17 03 3E 00 A2 00 E0 01 03 02 86 00 25 00 28 00 2F 00 7D 00 A7 00 E3 01 07 02 92 08 D7 08 D0 08 D6 02 E0 03 F0 04 88 03 CE 03 D7 03 D7 03 D5 13 84 00 07 7D 9B 00 00 00 00 00 00 00 0D 00 01 97 A6 FB D0] from host [10.200.2.84:5300] by command [17 03 00 01 00 1F 57 34]
2023-06-19 15:18:03.031: Try to read data from host [10.200.2.84:5300] by the command [18 03 00 01 00 1F 57 CB].
2023-06-19 15:18:03.362: Arrived data length:[67], Data(Hex):[18 03 3E 01 24 01 11 01 12 03 48 00 59 00 45 00 4B 00 EA 01 31 01 1A 01 1C 03 68 08 D5 08 CD 08 D5 05 3A 04 DA 04 DF 03 BB 03 C9 03 C4 03 C3 13 84 00 0E 77 99 00 00 00 00 00 04 35 D6 00 00 00 01 DB 67] from host [10.200.2.84:5300] by command [18 03 00 01 00 1F 57 CB]
2023-06-19 15:18:06.373: Try to read data from host [10.200.2.84:5300] by the command [0F 03 00 01 00 1F 54 EC].
2023-06-19 15:18:06.790: Arrived data length:[67], Data(Hex):[0F 03 3E 04 55 04 73 04 58 0D 21 02 C4 02 D2 02 E3 08 7A 05 24 05 44 05 37 0F A1 08 DB 08 D0 08 DB 16 AD 17 59 16 FD 03 4A 03 4C 03 40 03 48 13 84 00 2A EE 37 00 00 00 00 00 1B 14 15 00 00 02 6D 15 3C] from host [10.200.2.84:5300] by command [0F 03 00 01 00 1F 54 EC]
2023-06-19 15:18:09.801: Try to read data from host [10.200.2.84:5300] by the command [10 03 00 01 00 1F 56 83].
2023-06-19 15:18:10.145: Arrived data length:[67], Data(Hex):[10 03 3E 03 EE 04 2F 04 11 0C 2F 01 B8 01 B6 01 ED 05 5C 04 4A 04 85 04 82 0D 57 08 D9 08 CF 08 DA 12 FE 14 1A 13 F1 03 94 03 9D 03 87 03 93 13 84 00 29 6D D9 00 00 00 00 00 0E A8 07 00 00 00 0B 8C 4F] from host [10.200.2.84:5300] by command [10 03 00 01 00 1F 56 83]
2023-06-19 15:18:13.161: Try to read data from host [10.200.2.84:5300] by the command [19 03 00 01 00 1F 56 1A].
2023-06-19 15:18:13.510: Arrived data length:[67], Data(Hex):[19 03 3E 01 DD 01 9B 01 C7 05 41 00 52 00 70 00 4A 01 0D 01 E4 01 AB 01 CD 05 5B 08 E5 08 DC 08 E1 08 8A 07 36 07 ED 03 D9 03 C4 03 DA 03 D4 13 84 00 0F 12 6C 00 00 00 00 00 01 CE 1E 00 00 02 73 1B 4C] from host [10.200.2.84:5300] by command [19 03 00 01 00 1F 56 1A]
2023-06-19 15:18:16.520: Try to read data from host [10.200.2.84:5300] by the command [1A 03 00 01 00 1F 56 29].
2023-06-19 15:18:16.877: Arrived data length:[67], Data(Hex):[1A 03 3E 02 9D 02 08 01 F6 06 9D 00 B4 00 F6 00 90 02 3B 02 B5 02 3F 02 0B 06 FB 08 E6 08 DF 08 E3 0C 00 0A 0A 09 2C 03 C5 03 87 03 C0 03 B3 13 85 00 17 78 1A 00 00 00 00 00 07 12 42 00 00 04 83 4A 9B] from host [10.200.2.84:5300] by command [1A 03 00 01 00 1F 56 29]
2023-06-19 15:18:19.919: Try to read data from host [10.200.2.84:5300] by the command [1B 03 00 01 00 1F 57 F8].
2023-06-19 15:18:20.279: Arrived data length:[67], Data(Hex):[1B 03 3E 00 02 00 01 00 00 00 04 00 00 00 00 00 00 00 01 00 02 00 01 00 00 00 04 08 E4 08 DC 08 E1 00 0A 00 07 00 01 03 E8 03 45 03 92 03 C0 13 85 00 03 2C DE 00 00 00 01 00 00 00 0F 00 00 A2 3D 18 E8] from host [10.200.2.84:5300] by command [1B 03 00 01 00 1F 57 F8]
2023-06-19 15:18:23.316: Try to read data from host [10.200.2.84:5300] by the command [1C 03 00 01 00 1F 56 4F].
2023-06-19 15:18:23.684: Arrived data length:[67], Data(Hex):[1C 03 3E 00 C1 00 CC 00 9A 02 29 00 20 00 25 00 1C 00 62 00 C4 00 CF 00 9D 02 32 08 E3 08 DB 08 DF 03 5D 03 92 02 B3 03 DA 03 D7 03 D7 03 D8 13 86 00 04 8C 26 00 00 00 01 00 00 00 0D 00 00 CF 93 1E CF] from host [10.200.2.84:5300] by command [1C 03 00 01 00 1F 56 4F]
2023-06-19 15:18:26.732: Try to read data from host [10.200.2.84:5300] by the command [1D 03 00 01 00 1F 57 9E].
2023-06-19 15:18:27.111: Arrived data length:[67], Data(Hex):[1D 03 3E 01 F4 01 E3 01 D7 05 B0 02 8E 02 95 02 94 07 B8 03 37 03 33 03 2B 09 97 08 DF 08 D9 08 DE 0E 06 0E 00 0D DF 02 5F 02 4E 02 45 02 51 13 87 00 0E DD CE 00 00 00 00 00 15 2D C6 00 00 00 14 EE D3] from host [10.200.2.84:5300] by command [1D 03 00 01 00 1F 57 9E]
2023-06-19 15:18:30.170: Try to read data from host [10.200.2.84:5300] by the command [1E 03 00 01 00 1F 57 AD].
2023-06-19 15:18:30.552: Arrived data length:[67], Data(Hex):[1E 03 3E 00 D3 00 D7 00 D1 02 7C 01 14 01 19 01 17 03 44 01 5C 01 62 01 5C 04 1B 08 DE 08 DB 08 DC 05 F3 06 0F 05 F7 02 60 02 5F 02 58 02 5D 13 87 00 08 F0 A4 00 00 00 01 00 0A BE CA 00 00 00 29 77 6B] from host [10.200.2.84:5300] by command [1E 03 00 01 00 1F 57 AD]
2023-06-19 15:18:33.596: Try to read data from host [10.200.2.84:5300] by the command [1F 03 00 01 00 1F 56 7C].
2023-06-19 15:18:34.684: SocketException: [TimedOut:A connection attempt failed because the connected party did not properly respond after a period of time, or established connection failed because connected host has failed to respond] 
2023-06-19 15:18:35.286: Try to re-read [EmptyDataCounter=1] data due to [Read empty data from remote host [10.200.2.84:5300] by the command [1F 03 00 01 00 1F 56 7C]]
2023-06-19 15:18:35.677: Arrived data length:[67], Data(Hex):[1F 03 3E 00 6F 00 3D 00 54 01 00 00 10 00 07 00 09 00 21 00 70 00 3D 00 54 01 02 08 DE 08 D9 08 DE 02 32 01 2B 01 77 03 DD 03 E1 03 E1 03 DF 13 87 00 01 8E C3 00 00 00 00 00 00 00 59 00 00 4B 06 AF A4] from host [10.200.2.84:5300] by command [1F 03 00 01 00 1F 56 7C]
2023-06-19 15:18:38.697: ExecutionforElectricityMeter time : 109857

2023-06-19 15:18:38.701: ExecutionforElectricityMeter started
2023-06-19 15:18:38.703: Try to read data from host [10.200.2.85:5300] by the command [09 03 00 01 00 1F 54 8A].
2023-06-19 15:18:39.005: Arrived data length:[67], Data(Hex):[09 03 3E 0F 36 0F 09 0E 44 2C 85 05 C4 06 40 06 1A 12 20 10 44 10 48 0F 84 30 11 08 E8 08 E1 08 E2 47 4C 47 A1 44 37 03 A7 03 9B 03 97 03 9E 13 87 00 99 0F AE 00 00 00 00 00 20 02 50 00 01 47 96 6F CE] from host [10.200.2.85:5300] by command [09 03 00 01 00 1F 54 8A]
2023-06-19 15:18:42.052: Try to read data from host [10.200.2.85:5300] by the command [21 03 00 01 00 1F 52 A2].
2023-06-19 15:18:42.356: Arrived data length:[67], Data(Hex):[21 03 3E 00 08 00 0A 00 09 00 1D 00 05 00 05 00 05 00 11 00 0A 00 0C 00 0A 00 22 08 E1 08 DF 08 E0 00 2D 00 36 00 32 03 26 03 6C 03 76 03 5C 13 87 00 02 9B DA 00 00 00 00 00 00 A5 72 00 00 00 0C F4 58] from host [10.200.2.85:5300] by command [21 03 00 01 00 1F 52 A2]
2023-06-19 15:18:45.406: Try to read data from host [10.200.2.85:5300] by the command [22 03 00 01 00 1F 52 91].
2023-06-19 15:18:45.721: Arrived data length:[67], Data(Hex):[22 03 3E 00 07 00 0A 00 07 00 1A 00 05 00 06 00 05 00 12 00 09 00 0C 00 09 00 20 08 E3 08 DF 08 E1 00 28 00 35 00 28 03 2A 03 4C 03 1A 03 32 13 87 00 02 8A 01 00 00 00 00 00 01 DD 91 00 00 00 03 45 91] from host [10.200.2.85:5300] by command [22 03 00 01 00 1F 52 91]
2023-06-19 15:18:48.774: Try to read data from host [10.200.2.85:5300] by the command [23 03 00 01 00 1F 53 40].
2023-06-19 15:18:49.078: Arrived data length:[67], Data(Hex):[23 03 3E 01 57 00 D7 00 EC 03 1A 00 45 00 35 00 46 00 C1 01 5E 00 DD 00 F6 03 32 08 E4 08 E2 08 E3 06 44 04 03 04 6A 03 D4 03 CA 03 BE 03 CB 13 88 00 07 78 4C 00 00 00 00 00 01 49 FD 00 00 01 60 A9 C5] from host [10.200.2.85:5300] by command [23 03 00 01 00 1F 53 40]
2023-06-19 15:18:52.226: Try to read data from host [10.200.2.85:5300] by the command [24 03 00 01 00 1F 52 F7].
2023-06-19 15:18:52.527: Arrived data length:[67], Data(Hex):[24 03 3E 00 97 00 A1 00 8E 01 C7 00 0C 00 10 00 0E 00 2B 00 98 00 A1 00 8E 01 C9 08 E3 08 E0 08 E3 02 ED 03 06 02 C3 03 E4 03 E3 03 E2 03 E3 13 88 00 05 B2 4A 00 00 00 00 00 00 2F BC 00 00 26 16 83 C7] from host [10.200.2.85:5300] by command [24 03 00 01 00 1F 52 F7]
2023-06-19 15:18:55.813: Try to read data from host [10.200.2.85:5300] by the command [0D 03 00 01 00 1F 55 0E].
2023-06-19 15:18:56.118: Arrived data length:[67], Data(Hex):[0D 03 3E 03 F9 04 04 03 F5 0B F3 02 95 02 A3 02 A6 07 E0 04 BE 04 CE 04 C3 0E 50 08 E2 08 E0 08 E3 14 CB 15 1D 14 E7 03 46 03 43 03 3E 03 42 13 87 00 14 EB F0 00 00 00 00 00 10 DE 2A 00 00 00 02 BA 50] from host [10.200.2.85:5300] by command [0D 03 00 01 00 1F 55 0E]
2023-06-19 15:18:59.419: Try to read data from host [10.200.2.85:5300] by the command [25 03 00 01 00 1F 53 26].
2023-06-19 15:18:59.732: Arrived data length:[67], Data(Hex):[25 03 3E 00 35 00 36 00 36 00 A2 00 32 00 32 00 33 00 99 00 49 00 4A 00 4A 00 DF 08 E3 08 E1 08 E2 01 53 01 54 01 57 02 D9 02 D9 02 D5 02 D8 13 88 00 01 E8 AD 00 00 00 00 00 00 A5 67 00 00 00 01 F3 17] from host [10.200.2.85:5300] by command [25 03 00 01 00 1F 53 26]
2023-06-19 15:19:02.795: Try to read data from host [10.200.2.85:5300] by the command [26 03 00 01 00 1F 53 15].
2023-06-19 15:19:03.108: Arrived data length:[67], Data(Hex):[26 03 3E 00 09 00 09 00 0C 00 1F 00 01 00 01 00 00 00 03 00 09 00 09 00 0C 00 1F 08 E4 08 DF 08 E1 00 3D 00 3D 00 46 03 DC 03 E2 03 E6 03 E3 13 88 00 00 AE 5F 00 00 00 00 00 00 10 BF 00 00 00 0D 1D F2] from host [10.200.2.85:5300] by command [26 03 00 01 00 1F 53 15]
2023-06-19 15:19:06.119: Try to read data from host [10.200.2.85:5300] by the command [63 03 20 01 00 5E 96 70].
2023-06-19 15:19:06.651: Arrived data length:[193], Data(Hex):[63 03 BC 45 77 80 00 45 78 C0 00 45 76 40 00 46 39 F0 00 42 70 00 00 43 34 00 00 43 5C 00 00 43 FA 00 00 45 84 80 00 45 84 80 00 45 83 E0 00 46 39 F0 00 00 00 08 E5 00 00 08 E2 00 00 08 E5 00 00 48 F8 00 00 49 0C 00 00 48 6C 00 00 0F 64 00 00 0F 67 00 00 0F 66 00 00 08 E4 00 00 08 E2 00 00 08 E4 00 00 44 5C 00 00 44 D4 00 00 43 E4 4A 8B E7 00 00 00 00 00 48 83 E5 00 48 83 E5 00 4A 8B E7 00 00 00 00 00 00 00 00 00 00 00 00 00 00 00 00 00 00 00 00 00 00 00 00 00 00 00 00 00 48 83 E5 00 00 00 00 00 00 00 00 00 00 00 00 00 48 83 E5 00 00 00 00 00 00 00 00 00 00 00 00 00 E8 2B] from host [10.200.2.85:5300] by command [63 03 20 01 00 5E 96 70]
2023-06-19 15:19:09.676: Try to read data from host [10.200.2.85:5300] by the command [27 03 00 01 00 1F 52 C4].
2023-06-19 15:19:09.999: Arrived data length:[67], Data(Hex):[27 03 3E 00 3C 00 3A 00 2F 00 A6 00 11 00 0A 00 0F 00 2B 00 3F 00 3A 00 32 00 AC 08 E3 08 DD 08 E1 01 1B 01 3B 00 E4 03 C0 03 D8 03 B7 03 C7 13 88 00 02 60 70 00 00 00 00 00 00 BD EC 00 00 0C 34 FC 33] from host [10.200.2.85:5300] by command [27 03 00 01 00 1F 52 C4]
2023-06-19 15:19:13.049: Try to read data from host [10.200.2.85:5300] by the command [28 03 00 01 00 1F 52 3B].
2023-06-19 15:19:13.375: Arrived data length:[67], Data(Hex):[28 03 3E 00 00 00 02 00 01 00 05 00 00 00 00 00 01 00 00 00 00 00 02 00 02 00 05 08 E9 08 E4 08 E5 00 03 00 0E 00 0B 03 54 03 E8 03 57 03 D8 13 89 00 00 24 8F 00 00 00 00 00 00 06 2D 00 00 00 14 7B 7E] from host [10.200.2.85:5300] by command [28 03 00 01 00 1F 52 3B]
2023-06-19 15:19:16.435: Try to read data from host [10.200.2.85:5300] by the command [0E 03 00 01 00 1F 55 3D].
2023-06-19 15:19:16.810: Arrived data length:[67], Data(Hex):[0E 03 3E 00 AB 00 AE 00 AD 02 06 00 BF 00 BD 00 C2 02 3F 01 01 01 01 01 04 03 07 08 F6 08 ED 08 F5 04 5D 04 64 04 6E 02 9A 02 A4 02 99 02 9D 13 88 00 05 42 97 00 00 00 00 00 03 71 8E 00 00 00 00 E4 C1] from host [10.200.2.85:5300] by command [0E 03 00 01 00 1F 55 3D]
2023-06-19 15:19:19.821: Try to read data from host [10.200.2.85:5300] by the command [29 03 00 01 00 1F 53 EA].
2023-06-19 15:19:20.148: Arrived data length:[67], Data(Hex):[29 03 3E 00 E2 00 DB 00 D5 02 92 00 B9 00 C7 00 BD 02 3E 01 24 01 28 01 1D 03 6A 08 F6 08 EE 08 F7 06 91 06 9B 06 60 03 05 02 E4 02 EA 02 F1 13 88 00 07 61 07 00 00 00 00 00 06 4D 64 00 00 00 00 C8 CB] from host [10.200.2.85:5300] by command [29 03 00 01 00 1F 53 EA]
2023-06-19 15:19:23.218: Try to read data from host [10.200.2.85:5300] by the command [2A 03 00 01 00 1F 53 D9].
2023-06-19 15:19:23.661: Arrived data length:[67], Data(Hex):[2A 03 3E 00 B2 00 B2 00 B0 02 16 00 19 00 19 00 19 00 4C 00 B4 00 B4 00 B2 02 1C 08 F6 08 F0 08 F7 03 78 03 71 03 6C 03 DE 03 DD 03 DD 03 DD 13 88 00 04 3A 81 00 00 00 00 00 01 2F 92 00 00 00 00 F7 89] from host [10.200.2.85:5300] by command [2A 03 00 01 00 1F 53 D9]
2023-06-19 15:19:26.729: Try to read data from host [10.200.2.85:5300] by the command [20 03 00 01 00 1F 53 73].
2023-06-19 15:19:27.065: Arrived data length:[67], Data(Hex):[20 03 3E 00 33 00 28 00 1B 00 78 00 07 00 02 00 02 00 07 00 34 00 28 00 1B 00 78 08 F2 08 EE 08 F5 00 F6 00 BD 00 79 03 DC 03 E6 03 E2 03 E6 13 89 00 01 9F 4B 00 00 00 00 00 00 2D 9D 00 00 06 FC ED 9B] from host [10.200.2.85:5300] by command [20 03 00 01 00 1F 53 73]
2023-06-19 15:19:30.075: ExecutionforElectricityMeter time : 51372

2023-06-19 15:19:30.079: ExecutionforElectricityMeter started
2023-06-19 15:19:30.082: Try to read data from host [10.200.2.89:5300] by the command [0A 03 00 01 00 1F 54 B9].
2023-06-19 15:19:30.423: Arrived data length:[67], Data(Hex):[0A 03 3E 06 04 06 53 06 0D 12 68 00 FB 01 0A 00 FF 03 03 06 03 06 3A 06 04 12 45 09 12 09 0F 09 10 1A 9C 1B E2 1A BA 03 DB 03 DA 03 DA 03 DA 13 89 00 53 94 1A 00 00 3E 43 00 0B B6 4A 00 00 A3 AD BF 8D] from host [10.200.2.89:5300] by command [0A 03 00 01 00 1F 54 B9]
2023-06-19 15:19:33.477: Try to read data from host [10.200.2.89:5300] by the command [3A 03 00 01 00 1F 51 49].
2023-06-19 15:19:33.789: Arrived data length:[67], Data(Hex):[3A 03 3E 00 2E 00 28 00 17 00 6E 00 11 00 00 00 10 00 22 00 31 00 28 00 1C 00 73 09 10 09 0B 09 0E 00 D7 00 B2 00 79 03 A7 03 E8 03 36 03 BB 13 89 00 02 89 4E 00 00 00 00 00 01 6F 85 00 00 00 17 CB A3] from host [10.200.2.89:5300] by command [3A 03 00 01 00 1F 51 49]
2023-06-19 15:19:36.838: Try to read data from host [10.200.2.89:5300] by the command [3B 03 00 01 00 1F 50 98].
2023-06-19 15:19:37.147: Arrived data length:[67], Data(Hex):[3B 03 3E 00 7F 00 B1 00 C1 01 F2 00 00 00 00 00 03 00 03 00 7F 00 B1 00 C1 01 F2 09 13 09 0F 09 11 02 2C 02 E8 03 41 03 E8 03 E8 03 E7 03 E8 13 8A 00 07 A9 EA 00 00 00 02 00 00 22 4A 00 00 1D 0A 69 E4] from host [10.200.2.89:5300] by command [3B 03 00 01 00 1F 50 98]
2023-06-19 15:19:40.160: Try to read data from host [10.200.2.89:5300] by the command [2C 03 00 01 00 1F 53 BF].
2023-06-19 15:19:40.482: Arrived data length:[67], Data(Hex):[2C 03 3E 00 72 00 78 00 75 01 61 00 63 00 61 00 5E 01 23 00 97 00 9B 00 97 01 C9 09 0E 09 0A 09 0D 02 89 02 9B 02 8C 02 F3 03 09 03 0C 03 03 13 8A 00 01 E9 DA 00 00 00 00 00 01 8F 14 00 00 01 EA 4B 04] from host [10.200.2.89:5300] by command [2C 03 00 01 00 1F 53 BF]
2023-06-19 15:19:43.515: Try to read data from host [10.200.2.89:5300] by the command [2D 03 00 01 00 1F 52 6E].
2023-06-19 15:19:43.818: Arrived data length:[67], Data(Hex):[2D 03 3E 00 3B 00 3C 00 3C 00 B4 00 01 00 02 00 02 00 06 00 3B 00 3C 00 3C 00 B4 09 10 09 0C 09 0E 01 B3 01 B4 01 B7 03 E7 03 E6 03 E7 03 E7 13 8A 00 03 ED 7C 00 00 00 00 00 01 5E 65 00 00 06 B5 E9 87] from host [10.200.2.89:5300] by command [2D 03 00 01 00 1F 52 6E]
2023-06-19 15:19:46.837: Try to read data from host [10.200.2.89:5300] by the command [3C 03 00 01 00 1F 51 2F].
2023-06-19 15:19:47.138: Arrived data length:[67], Data(Hex):[3C 03 3E 00 EA 00 C7 00 C4 02 77 00 25 00 21 00 22 00 6A 00 ED 00 CA 00 C7 02 80 09 14 09 0E 09 10 04 03 03 49 03 5F 03 DB 03 DA 03 D8 03 DA 13 89 00 06 EF 55 00 00 00 00 00 00 00 11 00 01 33 FC 5C 1F] from host [10.200.2.89:5300] by command [3C 03 00 01 00 1F 51 2F]
2023-06-19 15:19:50.186: Try to read data from host [10.200.2.89:5300] by the command [3D 03 00 01 00 1F 50 FE].
2023-06-19 15:19:50.679: Arrived data length:[67], Data(Hex):[3D 03 3E 00 E9 00 F3 00 C4 02 A2 00 29 00 2E 00 23 00 7B 00 ED 00 F8 00 C7 02 AD 09 10 09 0D 09 10 03 FA 04 2B 03 5A 03 D8 03 D6 03 D7 03 D7 13 88 00 06 05 43 00 00 00 00 00 00 00 15 00 01 2C 4C 98 2D] from host [10.200.2.89:5300] by command [3D 03 00 01 00 1F 50 FE]
2023-06-19 15:19:53.691: Try to read data from host [10.200.2.89:5300] by the command [3E 03 00 01 00 1F 50 CD].
2023-06-19 15:19:54.007: Arrived data length:[67], Data(Hex):[3E 03 3E 00 87 00 A4 00 BA 01 E7 00 B4 00 AA 00 AF 02 0E 00 E1 00 EC 01 00 02 CD 09 10 09 0C 09 0E 03 CA 03 FC 04 4E 02 58 02 B8 02 D7 02 A7 13 87 00 03 C1 F8 00 00 00 00 00 03 0B 31 00 00 05 B9 4D 1D] from host [10.200.2.89:5300] by command [3E 03 00 01 00 1F 50 CD]
2023-06-19 15:19:57.065: Try to read data from host [10.200.2.89:5300] by the command [3F 03 00 01 00 1F 51 1C].
2023-06-19 15:19:57.396: Arrived data length:[67], Data(Hex):[3F 03 3E 00 DB 00 DB 00 DF 02 96 00 42 00 4B 00 42 00 D1 00 E4 00 E7 00 E9 02 B6 09 11 09 0A 09 0E 04 5B 04 62 04 66 03 BB 03 B1 03 BE 03 B9 13 87 00 0A DB 6B 00 00 00 01 00 02 A6 36 00 00 0C 0D 18 AF] from host [10.200.2.89:5300] by command [3F 03 00 01 00 1F 51 1C]
2023-06-19 15:20:00.551: Try to read data from host [10.200.2.89:5300] by the command [40 03 00 01 00 1F 5A D3].
2023-06-19 15:20:00.998: Arrived data length:[67], Data(Hex):[40 03 3E 00 31 00 47 00 67 00 E1 00 0F 00 09 00 02 00 1B 00 34 00 48 00 67 00 E2 09 14 09 0A 09 0F 00 F1 01 65 01 F6 03 B9 03 DF 03 E7 03 E0 13 86 00 01 D1 C2 00 00 00 00 00 00 31 E7 00 00 2F C6 6D 56] from host [10.200.2.89:5300] by command [40 03 00 01 00 1F 5A D3]
2023-06-19 15:20:04.299: Try to read data from host [10.200.2.89:5300] by the command [41 03 00 01 00 1F 5B 02].
2023-06-19 15:20:04.619: Arrived data length:[67], Data(Hex):[41 03 3E 00 3A 00 06 00 2E 00 70 00 10 00 31 00 3B 00 06 00 3C 00 31 00 4B 00 70 09 14 09 0E 09 0A 01 0C 00 DA 01 56 03 C0 00 8C 02 66 03 E6 13 86 00 01 3B 9A 00 00 14 1B 00 00 5D E7 00 00 04 ED DC E6] from host [10.200.2.89:5300] by command [41 03 00 01 00 1F 5B 02]
2023-06-19 15:20:07.699: Try to read data from host [10.200.2.89:5300] by the command [0C 03 00 01 00 1F 54 DF].
2023-06-19 15:20:08.134: Arrived data length:[67], Data(Hex):[0C 03 3E 00 03 00 00 00 00 00 02 00 03 00 04 00 00 00 08 00 05 00 04 00 00 00 08 09 12 09 0C 09 0E 00 00 00 00 00 00 02 F4 00 CF 01 F4 01 4F 13 85 00 1D 60 A7 00 00 00 00 00 03 0B 71 00 00 00 00 00 43] from host [10.200.2.89:5300] by command [0C 03 00 01 00 1F 54 DF]
2023-06-19 15:20:11.192: Try to read data from host [10.200.2.89:5300] by the command [42 03 00 01 00 1F 5B 31].
2023-06-19 15:20:11.518: Arrived data length:[67], Data(Hex):[42 03 3E 00 05 00 08 00 06 00 14 00 01 00 00 00 00 00 03 00 05 00 08 00 06 00 14 09 13 09 0D 09 10 00 1D 00 26 00 1D 03 B0 03 E8 03 D5 03 D9 13 85 00 00 20 CD 00 00 00 00 00 00 05 43 00 00 09 84 6F 7D] from host [10.200.2.89:5300] by command [42 03 00 01 00 1F 5B 31]
2023-06-19 15:20:14.573: Try to read data from host [10.200.2.89:5300] by the command [11 03 00 01 00 1F 57 52].
2023-06-19 15:20:14.899: Arrived data length:[67], Data(Hex):[11 03 3E 01 3F 01 3F 01 3E 03 BD 00 38 00 36 00 36 00 A5 01 43 01 44 01 42 03 CB 09 12 09 0A 09 0F 05 67 05 6B 05 67 03 D9 03 D9 03 D9 03 D9 13 85 00 07 AB 7A 00 00 02 64 00 00 16 86 00 01 50 88 D4 AA] from host [10.200.2.89:5300] by command [11 03 00 01 00 1F 57 52]
2023-06-19 15:20:17.967: ExecutionforElectricityMeter time : 47887

2023-06-19 15:20:17.971: ExecutionforElectricityMeter started
2023-06-19 15:20:17.974: Try to read data from host [10.200.2.90:5300] by the command [0B 03 00 01 00 1F 55 68].
2023-06-19 15:20:18.276: Arrived data length:[67], Data(Hex):[0B 03 3E 06 33 06 2F 06 73 12 D7 01 70 01 56 01 6C 04 36 06 5D 06 54 06 9B 13 4E 09 10 09 0B 09 0C 1B 9E 1B 88 1C B6 03 CE 03 D1 03 D0 03 CF 13 85 00 51 57 06 00 00 2E 6F 00 0C 73 5F 00 00 71 56 6C 7A] from host [10.200.2.90:5300] by command [0B 03 00 01 00 1F 55 68]
2023-06-19 15:20:21.340: Try to read data from host [10.200.2.90:5300] by the command [2B 03 00 01 00 1F 52 08].
2023-06-19 15:20:21.669: Arrived data length:[67], Data(Hex):[2B 03 3E 03 78 03 83 03 65 0A 61 02 8E 02 A5 02 BD 07 F1 04 50 04 66 04 5D 0D 14 09 0E 09 07 09 0B 12 1F 12 A9 12 8A 03 24 03 1E 03 09 03 19 13 85 00 1F 67 EB 00 00 00 01 00 15 FA 21 00 00 00 67 F0 78] from host [10.200.2.90:5300] by command [2B 03 00 01 00 1F 52 08]
2023-06-19 15:20:24.737: Try to read data from host [10.200.2.90:5300] by the command [2E 03 00 01 00 1F 52 5D].
2023-06-19 15:20:25.048: Arrived data length:[67], Data(Hex):[2E 03 3E 00 45 00 45 00 40 00 CB 00 22 00 2E 00 35 00 86 00 4D 00 53 00 53 00 F4 09 11 09 0A 09 0C 01 57 01 73 01 76 03 7C 03 3D 02 FC 03 3E 13 86 00 06 66 FE 00 00 00 00 00 04 AA D3 00 00 00 2A AE EB] from host [10.200.2.90:5300] by command [2E 03 00 01 00 1F 52 5D]
2023-06-19 15:20:28.096: Try to read data from host [10.200.2.90:5300] by the command [2F 03 00 01 00 1F 53 8C].
2023-06-19 15:20:28.408: Arrived data length:[67], Data(Hex):[2F 03 3E 00 A5 00 A7 00 A5 01 F1 00 0D 00 0D 00 10 00 2B 00 A5 00 A7 00 A6 01 F3 09 0F 09 0C 09 0E 02 F8 03 00 02 FE 03 E4 03 E4 03 E3 03 E4 13 87 00 03 54 66 00 00 00 00 00 00 4D C0 00 00 00 48 0F BD] from host [10.200.2.90:5300] by command [2F 03 00 01 00 1F 53 8C]
2023-06-19 15:20:31.441: Try to read data from host [10.200.2.90:5300] by the command [30 03 00 01 00 1F 51 E3].
2023-06-19 15:20:31.904: Arrived data length:[67], Data(Hex):[30 03 3E 00 00 00 00 00 00 00 00 00 00 00 00 00 00 00 00 00 00 00 00 00 00 00 00 00 00 00 00 00 00 01 CC 00 00 00 00 03 E8 03 E8 03 E8 03 E8 13 88 00 02 34 D3 00 00 00 00 00 02 3E 06 00 00 07 7C 9C 93] from host [10.200.2.90:5300] by command [30 03 00 01 00 1F 51 E3]
2023-06-19 15:20:34.959: Try to read data from host [10.200.2.90:5300] by the command [31 03 00 01 00 1F 50 32].
2023-06-19 15:20:35.276: Arrived data length:[67], Data(Hex):[31 03 3E 00 39 00 16 00 14 00 64 00 0E 00 09 00 0C 00 24 00 3A 00 18 00 18 00 6B 09 10 09 07 09 09 01 07 00 77 00 6D 03 C7 03 98 03 5E 03 AA 13 88 00 02 98 AF 00 00 00 00 00 00 B7 E6 00 00 01 6D A7 3E] from host [10.200.2.90:5300] by command [31 03 00 01 00 1F 50 32]
2023-06-19 15:20:38.311: Try to read data from host [10.200.2.90:5300] by the command [32 03 00 01 00 1F 50 01].
2023-06-19 15:20:38.633: Arrived data length:[67], Data(Hex):[32 03 3E 01 D1 01 D0 01 D6 05 78 02 80 02 82 02 77 07 7A 03 16 03 19 03 13 09 44 09 0F 09 0B 09 0D 0D 35 0D 40 0D 30 02 4C 02 4A 02 56 02 4F 13 89 00 0D 34 61 00 00 00 00 00 12 A3 0A 00 00 00 09 83 97] from host [10.200.2.90:5300] by command [32 03 00 01 00 1F 50 01]
2023-06-19 15:20:41.676: Try to read data from host [10.200.2.90:5300] by the command [33 03 00 01 00 1F 51 D0].
2023-06-19 15:20:41.991: Arrived data length:[67], Data(Hex):[33 03 3E 00 00 00 00 00 00 00 00 00 00 00 00 00 00 00 00 00 00 00 00 00 00 00 00 00 00 00 00 00 00 00 00 00 00 00 00 03 E8 03 E8 03 E8 03 E8 13 88 00 00 06 FB 00 00 00 00 00 00 00 19 00 00 00 3C 6D 62] from host [10.200.2.90:5300] by command [33 03 00 01 00 1F 51 D0]
2023-06-19 15:20:45.003: Try to read data from host [10.200.2.90:5300] by the command [34 03 00 01 00 1F 50 67].
2023-06-19 15:20:45.376: Arrived data length:[67], Data(Hex):[34 03 3E 00 37 00 34 00 4C 00 B8 00 08 00 09 00 08 00 1A 00 38 00 35 00 4C 00 BA 09 10 09 08 09 0B 01 0E 01 01 01 7B 03 DC 03 D8 03 E1 03 DD 13 8A 00 03 2A 79 00 00 00 00 00 00 00 0C 00 00 66 AF 60 AA] from host [10.200.2.90:5300] by command [34 03 00 01 00 1F 50 67]
2023-06-19 15:20:48.387: Try to read data from host [10.200.2.90:5300] by the command [35 03 00 01 00 1F 51 B6].
2023-06-19 15:21:00.043: ExecutionforCompressedAirFlow started
2023-06-19 15:21:00.053: Try to read data from host [10.200.2.86:5300] by the command [02 03 00 00 00 0E C4 3D].
2023-06-19 15:21:00.338: Arrived data length:[33], Data(Hex):[02 03 1C 00 00 00 00 35 EA 44 B9 53 11 41 BA 9A DD 3F B3 D9 80 47 D8 5A 98 42 B1 00 00 00 00 59 57] from host [10.200.2.86:5300] by command [02 03 00 00 00 0E C4 3D]
2023-06-19 15:21:03.769: ExecutionforCompressedAirFlow time : 3726

2023-06-19 15:21:03.778: ExecutionforCompressedAirFlow started
2023-06-19 15:21:03.785: Try to read data from host [10.200.2.87:5300] by the command [01 03 00 00 00 0E C4 0E].
2023-06-19 15:21:04.060: Arrived data length:[33], Data(Hex):[01 03 1C 00 00 00 00 97 1D 45 02 60 2C 41 03 64 E3 3F 8D 75 40 48 54 32 F4 42 1A 00 00 00 00 0C 82] from host [10.200.2.87:5300] by command [01 03 00 00 00 0E C4 0E]
2023-06-19 15:21:07.526: ExecutionforCompressedAirFlow time : 3747

2023-06-19 15:23:12.459: ExecutionforCompressedAirFlow started
2023-06-19 15:23:12.479: Try to read data from host [10.200.2.86:5300] by the command [02 03 00 00 00 0E C4 3D].
2023-06-19 15:23:12.768: Arrived data length:[33], Data(Hex):[02 03 1C 00 00 00 00 E1 10 44 CA 19 6B 41 CC DF B7 3F B6 DA 00 47 D8 9F 0B 42 30 00 00 00 00 75 8E] from host [10.200.2.86:5300] by command [02 03 00 00 00 0E C4 3D]
2023-06-19 15:23:15.866: ExecutionforCompressedAirFlow time : 3406

2023-06-19 15:23:15.871: ExecutionforCompressedAirFlow started
2023-06-19 15:23:15.874: Try to read data from host [10.200.2.87:5300] by the command [01 03 00 00 00 0E C4 0E].
2023-06-19 15:23:16.145: Arrived data length:[33], Data(Hex):[01 03 1C 00 00 00 00 63 29 44 FC E7 BD 40 FD 8D 8C 3F 8C 75 80 48 54 F4 B7 41 72 00 00 00 00 0B 7B] from host [10.200.2.87:5300] by command [01 03 00 00 00 0E C4 0E]
2023-06-19 15:23:19.201: ExecutionforCompressedAirFlow time : 3329

2023-06-19 15:25:22.689: ExecutionforCompressedAirFlow started
2023-06-19 15:25:22.694: Try to read data from host [10.200.2.86:5300] by the command [02 03 00 00 00 0E C4 3D].
2023-06-19 15:25:22.981: Arrived data length:[33], Data(Hex):[02 03 1C 00 00 00 00 C1 C2 44 BD E5 E9 41 BE 79 8A 3F B4 DA 00 47 D8 3C A5 42 C3 00 00 00 00 79 8B] from host [10.200.2.86:5300] by command [02 03 00 00 00 0E C4 3D]
2023-06-19 15:25:26.026: ExecutionforCompressedAirFlow time : 3336

2023-06-19 15:25:26.044: ExecutionforCompressedAirFlow started
2023-06-19 15:25:26.047: Try to read data from host [10.200.2.87:5300] by the command [01 03 00 00 00 0E C4 0E].
2023-06-19 15:25:26.328: Arrived data length:[33], Data(Hex):[01 03 1C 00 00 00 00 26 25 45 03 F0 10 41 03 7F E3 3F 8D 75 80 48 54 76 C1 42 B7 00 00 00 00 B8 9D] from host [10.200.2.87:5300] by command [01 03 00 00 00 0E C4 0E]
2023-06-19 15:25:29.362: ExecutionforCompressedAirFlow time : 3316

2023-06-19 15:29:08.584: ExecutionforCompressedAirFlow started
2023-06-19 15:29:08.590: Try to read data from host [10.200.2.86:5300] by the command [02 03 00 00 00 0E C4 3D].
2023-06-19 15:29:08.884: Arrived data length:[33], Data(Hex):[02 03 1C 00 00 00 00 26 39 44 AD 30 CE 41 AE 30 DB 3F B1 DA 80 47 D8 F7 80 42 B6 00 00 00 00 52 77] from host [10.200.2.86:5300] by command [02 03 00 00 00 0E C4 3D]
2023-06-19 15:29:11.931: ExecutionforCompressedAirFlow time : 3346

2023-06-19 15:29:11.936: ExecutionforCompressedAirFlow started
2023-06-19 15:29:11.938: Try to read data from host [10.200.2.87:5300] by the command [01 03 00 00 00 0E C4 0E].
2023-06-19 15:29:12.225: Arrived data length:[33], Data(Hex):[01 03 1C 00 00 00 00 0B 1B 44 E5 6B BE 40 E6 CE 0B 3F 8A 76 00 48 54 5F 97 41 B3 00 00 00 00 76 52] from host [10.200.2.87:5300] by command [01 03 00 00 00 0E C4 0E]
2023-06-19 15:29:15.235: ExecutionforCompressedAirFlow time : 3297

2023-06-19 15:31:34.003: ExecutionforCompressedAirFlow started
2023-06-19 15:31:34.009: Try to read data from host [10.200.2.86:5300] by the command [02 03 00 00 00 0E C4 3D].
2023-06-19 15:31:34.290: Arrived data length:[33], Data(Hex):[02 03 1C 00 00 00 00 30 04 44 B7 4A 0E 41 B8 36 07 3F B3 DB 00 47 D8 4E D9 42 46 00 00 00 00 6C E9] from host [10.200.2.86:5300] by command [02 03 00 00 00 0E C4 3D]
2023-06-19 15:31:37.342: ExecutionforCompressedAirFlow time : 3338

2023-06-19 15:31:37.346: ExecutionforCompressedAirFlow started
2023-06-19 15:31:37.348: Try to read data from host [10.200.2.87:5300] by the command [01 03 00 00 00 0E C4 0E].
2023-06-19 15:31:37.627: Arrived data length:[33], Data(Hex):[01 03 1C 00 00 00 00 70 F6 44 DE C7 6F 40 DF 1C 09 3F 8A 76 00 48 54 A5 52 42 BC 00 00 00 00 5D 9D] from host [10.200.2.87:5300] by command [01 03 00 00 00 0E C4 0E]
2023-06-19 15:31:40.675: ExecutionforCompressedAirFlow time : 3328

