2023-06-21 09:45:27.762: ExecutionforCompressedAirFlow started
2023-06-21 09:45:27.775: Try to read data from host [10.200.2.86:5300] by the command [02 03 00 00 00 0E C4 3D].
2023-06-21 09:45:28.048: Arrived data length:[33], Data(Hex):[02 03 1C 00 00 00 00 EA 0C 41 27 EC 92 3E 28 00 A9 3F 29 BF 00 47 D9 1F D9 42 99 00 00 00 00 33 1A] from host [10.200.2.86:5300] by command [02 03 00 00 00 0E C4 3D]
2023-06-21 09:45:31.116: ExecutionforCompressedAirFlow time : 3353

2023-06-21 09:45:31.122: ExecutionforCompressedAirFlow started
2023-06-21 09:45:31.125: Try to read data from host [10.200.2.87:5300] by the command [01 03 00 00 00 0E C4 0E].
2023-06-21 09:45:31.440: Arrived data length:[33], Data(Hex):[01 03 1C 00 00 00 00 86 49 44 DD DB 59 40 DE 03 09 3F 8A 22 00 48 55 0A AF 42 96 00 00 00 00 D5 C1] from host [10.200.2.87:5300] by command [01 03 00 00 00 0E C4 0E]
2023-06-21 09:45:34.499: ExecutionforCompressedAirFlow time : 3376

2023-06-21 09:48:16.753: ExecutionforElectricityMeter started
2023-06-21 09:48:16.762: Try to read data from host [10.200.2.83:5300] by the command [01 03 00 01 00 1F 55 C2].
2023-06-21 09:48:17.072: Arrived data length:[67], Data(Hex):[01 03 3E 00 00 00 00 00 00 00 00 00 00 00 00 00 00 00 00 00 00 00 00 00 00 00 00 28 8C 28 75 28 80 00 00 00 00 00 00 01 6B 03 E8 01 B2 00 2F 13 85 00 0B 5C 67 00 00 00 01 00 06 35 61 00 00 00 10 E1 0C] from host [10.200.2.83:5300] by command [01 03 00 01 00 1F 55 C2]
2023-06-21 09:48:30.181: Try to read data from host [10.200.2.83:5300] by the command [02 03 00 01 00 1F 55 F1].
2023-06-21 09:48:30.487: Arrived data length:[67], Data(Hex):[02 03 3E 00 00 00 00 00 00 00 00 00 00 00 00 00 00 00 00 00 00 00 00 00 00 00 00 28 94 28 8A 28 8F 00 00 00 00 00 00 01 87 03 E8 01 C6 00 00 13 84 00 18 96 E9 00 00 00 0C 00 0D 4A 96 00 00 00 1D 4F 28] from host [10.200.2.83:5300] by command [02 03 00 01 00 1F 55 F1]
2023-06-21 09:48:33.507: Try to read data from host [10.200.2.83:5300] by the command [03 03 00 01 00 1F 54 20].
2023-06-21 09:48:33.815: Arrived data length:[67], Data(Hex):[03 03 3E 00 00 00 00 00 00 00 00 00 00 00 00 00 00 00 00 00 00 00 00 00 00 00 00 28 8A 28 7E 28 84 00 00 00 00 00 00 01 87 03 E8 01 99 00 00 13 84 00 22 A1 C8 00 00 00 01 00 12 94 CE 00 00 00 39 06 96] from host [10.200.2.83:5300] by command [03 03 00 01 00 1F 54 20]
2023-06-21 09:48:36.852: Try to read data from host [10.200.2.83:5300] by the command [04 03 00 01 00 1F 55 97].
2023-06-21 09:48:37.160: Arrived data length:[67], Data(Hex):[04 03 3E 01 4E 00 00 02 58 03 A7 01 F9 00 00 00 28 01 D1 02 5E 00 00 02 59 04 14 28 8B 28 7D 28 84 02 46 02 42 02 43 02 28 03 E8 03 E5 03 7F 13 84 00 14 40 FF 00 00 00 02 00 0A 36 D9 00 00 00 12 78 E7] from host [10.200.2.83:5300] by command [04 03 00 01 00 1F 55 97]
2023-06-21 09:48:40.222: Try to read data from host [10.200.2.83:5300] by the command [05 03 00 01 00 1F 54 46].
2023-06-21 09:48:40.542: Arrived data length:[67], Data(Hex):[05 03 3E 00 00 00 00 00 00 00 00 00 00 00 00 00 00 00 00 00 00 00 00 00 00 00 00 28 8C 28 79 28 82 00 00 00 00 00 00 01 80 03 E8 01 CD 00 2B 13 84 00 16 96 D8 00 00 00 04 00 11 87 CE 00 00 00 15 EF 54] from host [10.200.2.83:5300] by command [05 03 00 01 00 1F 54 46]
2023-06-21 09:48:43.571: Try to read data from host [10.200.2.83:5300] by the command [06 03 00 01 00 1F 54 75].
2023-06-21 09:48:43.887: Arrived data length:[67], Data(Hex):[06 03 3E 00 54 00 00 00 E9 01 3D 00 E0 00 00 00 26 01 07 00 F0 00 00 00 EC 01 9C 28 8D 28 79 28 83 00 E6 00 E4 00 E3 01 5F 03 E8 03 DA 03 02 13 84 00 18 9B F7 00 00 00 11 00 12 7F DD 00 00 00 21 54 3B] from host [10.200.2.83:5300] by command [06 03 00 01 00 1F 54 75]
2023-06-21 09:48:46.936: Try to read data from host [10.200.2.83:5300] by the command [07 03 00 01 00 1F 55 A4].
2023-06-21 09:48:47.255: Arrived data length:[67], Data(Hex):[07 03 3E 00 00 00 00 00 00 00 00 00 00 00 00 00 00 00 00 00 00 00 00 00 00 00 00 28 84 28 78 28 7E 00 00 00 00 00 00 01 80 03 E8 01 B8 00 2B 13 84 00 0F F4 EE 00 00 00 09 00 0B F6 99 00 00 00 17 1C 51] from host [10.200.2.83:5300] by command [07 03 00 01 00 1F 55 A4]
2023-06-21 09:48:50.316: ExecutionforElectricityMeter time : 33561

2023-06-21 09:48:50.320: ExecutionforElectricityMeter started
2023-06-21 09:48:50.322: Try to read data from host [10.200.2.84:5300] by the command [08 03 00 01 00 1F 55 5B].
2023-06-21 09:48:50.636: Arrived data length:[67], Data(Hex):[08 03 3E 0C 7C 0C 1E 0C 3E 24 D9 00 B1 00 B6 00 9D 02 07 0C 81 0C 23 0C 42 24 E7 08 F0 08 ED 08 F1 36 8B 35 20 35 97 03 E6 03 E6 03 E6 03 E6 13 84 00 9C AA C0 00 00 00 00 00 26 66 77 00 00 DF 99 6E 65] from host [10.200.2.84:5300] by command [08 03 00 01 00 1F 55 5B]
2023-06-21 09:48:53.663: Try to read data from host [10.200.2.84:5300] by the command [13 03 00 01 00 1F 56 B0].
2023-06-21 09:48:53.970: Arrived data length:[67], Data(Hex):[13 03 3E 00 AD 00 AF 00 B0 02 0D 00 89 00 8B 00 8D 01 A3 00 DD 00 E0 00 E2 02 9F 08 EA 08 E1 08 EC 03 C2 03 D2 03 D9 03 10 03 0D 03 0A 03 0D 13 84 00 09 46 AD 00 00 00 00 00 07 5F 88 00 00 00 22 49 9B] from host [10.200.2.84:5300] by command [13 03 00 01 00 1F 56 B0]
2023-06-21 09:48:57.000: Try to read data from host [10.200.2.84:5300] by the command [14 03 00 01 00 1F 57 07].
2023-06-21 09:48:57.305: Arrived data length:[67], Data(Hex):[14 03 3E 00 97 00 9B 00 82 01 B6 00 28 00 39 00 2B 00 8E 00 9C 00 A6 00 89 01 CC 08 E8 08 E2 08 EE 02 EE 03 0F 02 6E 03 C6 03 A9 03 B4 03 B7 13 84 00 0A FF C5 00 00 00 00 00 05 56 47 00 00 02 97 A8 51] from host [10.200.2.84:5300] by command [14 03 00 01 00 1F 57 07]
2023-06-21 09:49:00.314: Try to read data from host [10.200.2.84:5300] by the command [15 03 00 01 00 1F 56 D6].
2023-06-21 09:49:00.627: Arrived data length:[67], Data(Hex):[15 03 3E 00 97 00 B4 00 A1 01 EE 00 39 00 45 00 51 00 D1 00 A1 00 C1 00 B4 02 18 08 EA 08 E2 08 EC 02 C0 03 56 03 16 03 A7 03 A4 03 7A 03 98 13 84 00 05 C3 31 00 00 00 01 00 02 8D 01 00 00 00 01 B1 62] from host [10.200.2.84:5300] by command [15 03 00 01 00 1F 56 D6]
2023-06-21 09:49:03.640: Try to read data from host [10.200.2.84:5300] by the command [16 03 00 01 00 1F 56 E5].
2023-06-21 09:49:03.951: Arrived data length:[67], Data(Hex):[16 03 3E 00 6B 00 91 00 6E 01 6B 00 13 00 15 00 16 00 3F 00 6C 00 92 00 70 01 70 08 E8 08 E1 08 EC 01 DE 02 91 01 F0 03 D8 03 DC 03 D3 03 D9 13 84 00 04 31 59 00 00 00 01 00 00 00 0C 00 00 D8 D9 F3 A3] from host [10.200.2.84:5300] by command [16 03 00 01 00 1F 56 E5]
2023-06-21 09:49:06.983: Try to read data from host [10.200.2.84:5300] by the command [17 03 00 01 00 1F 57 34].
2023-06-21 09:49:07.319: Arrived data length:[67], Data(Hex):[17 03 3E 00 9C 00 E7 00 FF 02 83 00 24 00 2A 00 2E 00 7D 00 A0 00 EB 01 03 02 8F 08 DD 08 D9 08 E1 02 BF 04 0F 04 71 03 CE 03 D7 03 D7 03 D5 13 84 00 07 86 C2 00 00 00 00 00 00 00 0D 00 01 99 78 AE C0] from host [10.200.2.84:5300] by command [17 03 00 01 00 1F 57 34]
2023-06-21 09:49:10.327: Try to read data from host [10.200.2.84:5300] by the command [18 03 00 01 00 1F 57 CB].
2023-06-21 09:49:10.631: Arrived data length:[67], Data(Hex):[18 03 3E 01 11 01 00 00 FF 03 11 00 5B 00 46 00 4D 00 EF 01 20 01 09 01 0B 03 35 08 DC 08 D8 08 E0 04 EC 04 8B 04 8E 03 B4 03 C4 03 BD 03 BC 13 85 00 0E 85 1E 00 00 00 00 00 04 39 F0 00 00 00 01 CF CC] from host [10.200.2.84:5300] by command [18 03 00 01 00 1F 57 CB]
2023-06-21 09:49:13.656: Try to read data from host [10.200.2.84:5300] by the command [0F 03 00 01 00 1F 54 EC].
2023-06-21 09:49:13.961: Arrived data length:[67], Data(Hex):[0F 03 3E 03 1D 03 2F 03 22 09 6F 02 36 02 3B 02 49 06 BA 03 D2 03 E3 03 E0 0B 97 08 E1 08 DA 08 E4 10 D5 11 2E 11 0C 03 2F 03 32 03 28 03 2E 13 85 00 2B 23 90 00 00 00 00 00 1B 37 95 00 00 02 6D C2 2F] from host [10.200.2.84:5300] by command [0F 03 00 01 00 1F 54 EC]
2023-06-21 09:49:16.988: Try to read data from host [10.200.2.84:5300] by the command [10 03 00 01 00 1F 56 83].
2023-06-21 09:49:17.406: Arrived data length:[67], Data(Hex):[10 03 3E 02 A0 02 C6 02 BB 08 21 00 FE 00 F5 01 1A 03 0F 02 CF 02 EF 02 F2 08 B0 08 E0 08 D8 08 E3 0C 8C 0D 20 0D 1E 03 A7 03 B1 03 9F 03 A8 13 85 00 29 9F E3 00 00 00 00 00 0E BD D4 00 00 00 0B 60 37] from host [10.200.2.84:5300] by command [10 03 00 01 00 1F 56 83]
2023-06-21 09:49:20.466: Try to read data from host [10.200.2.84:5300] by the command [19 03 00 01 00 1F 56 1A].
2023-06-21 09:49:20.784: Arrived data length:[67], Data(Hex):[19 03 3E 02 0B 01 99 01 D6 05 7B 00 4F 00 72 00 51 01 13 02 10 01 A9 01 DD 05 96 08 E9 08 E3 08 E8 09 1D 06 E4 08 43 03 DC 03 C2 03 D9 03 D5 13 85 00 0F 23 96 00 00 00 00 00 01 D0 FA 00 00 02 73 04 06] from host [10.200.2.84:5300] by command [19 03 00 01 00 1F 56 1A]
2023-06-21 09:49:23.828: Try to read data from host [10.200.2.84:5300] by the command [1A 03 00 01 00 1F 56 29].
2023-06-21 09:49:24.153: Arrived data length:[67], Data(Hex):[1A 03 3E 02 9F 02 17 02 0F 06 C6 00 CB 00 FF 00 9F 02 6A 02 BD 02 51 02 26 07 31 08 E9 08 E3 08 E7 0C 11 0A C8 0A C4 03 BC 03 86 03 BD 03 B2 13 85 00 17 93 9A 00 00 00 00 00 07 1B 98 00 00 04 83 93 25] from host [10.200.2.84:5300] by command [1A 03 00 01 00 1F 56 29]
2023-06-21 09:49:27.182: Try to read data from host [10.200.2.84:5300] by the command [1B 03 00 01 00 1F 57 F8].
2023-06-21 09:49:27.503: Arrived data length:[67], Data(Hex):[1B 03 3E 00 02 00 01 00 00 00 04 00 00 00 00 00 00 00 01 00 02 00 01 00 00 00 04 08 E6 08 DF 08 E5 00 0A 00 07 00 01 03 E4 03 42 03 A6 03 BD 13 84 00 03 2D 01 00 00 00 01 00 00 00 0F 00 00 A2 46 42 CD] from host [10.200.2.84:5300] by command [1B 03 00 01 00 1F 57 F8]
2023-06-21 09:49:30.855: Try to read data from host [10.200.2.84:5300] by the command [1C 03 00 01 00 1F 56 4F].
2023-06-21 09:49:31.176: Arrived data length:[67], Data(Hex):[1C 03 3E 00 C0 00 CD 00 90 02 1E 00 20 00 24 00 1B 00 60 00 C3 00 D0 00 92 02 27 08 E4 08 DD 08 E3 03 59 03 94 02 83 03 DA 03 D8 03 D6 03 D8 13 84 00 04 92 37 00 00 00 01 00 00 00 0D 00 00 D0 A9 B9 AB] from host [10.200.2.84:5300] by command [1C 03 00 01 00 1F 56 4F]
2023-06-21 09:49:34.498: Try to read data from host [10.200.2.84:5300] by the command [1D 03 00 01 00 1F 57 9E].
2023-06-21 09:49:34.830: Arrived data length:[67], Data(Hex):[1D 03 3E 01 CB 01 C0 01 B8 05 44 02 6B 02 6E 02 70 07 4A 03 03 02 FF 02 FC 08 FE 08 E2 08 DE 08 E4 0D 1F 0D 14 0D 06 02 53 02 48 02 41 02 49 13 84 00 0E EF F4 00 00 00 00 00 15 48 13 00 00 00 14 94 82] from host [10.200.2.84:5300] by command [1D 03 00 01 00 1F 57 9E]
2023-06-21 09:49:37.881: Try to read data from host [10.200.2.84:5300] by the command [1E 03 00 01 00 1F 57 AD].
2023-06-21 09:49:38.213: Arrived data length:[67], Data(Hex):[1E 03 3E 00 D4 00 D6 00 D6 02 81 01 16 01 19 01 1A 03 4A 01 5E 01 61 01 62 04 22 08 E0 08 E0 08 E1 05 FA 06 0A 06 0B 02 5F 02 5C 02 5C 02 5D 13 85 00 08 F8 ED 00 00 00 01 00 0A CA 51 00 00 00 29 AE 20] from host [10.200.2.84:5300] by command [1E 03 00 01 00 1F 57 AD]
2023-06-21 09:49:41.253: Try to read data from host [10.200.2.84:5300] by the command [1F 03 00 01 00 1F 56 7C].
2023-06-21 09:49:41.588: Arrived data length:[67], Data(Hex):[1F 03 3E 00 4F 00 38 00 31 00 B8 00 0D 00 05 00 05 00 19 00 50 00 38 00 31 00 BA 08 E2 08 DD 08 E4 01 A0 01 10 00 E2 03 D9 03 E2 03 E1 03 DE 13 85 00 01 91 20 00 00 00 00 00 00 00 59 00 00 4B 4D 74 8E] from host [10.200.2.84:5300] by command [1F 03 00 01 00 1F 56 7C]
2023-06-21 09:49:44.596: ExecutionforElectricityMeter time : 54274

2023-06-21 09:49:44.601: ExecutionforElectricityMeter started
2023-06-21 09:49:44.603: Try to read data from host [10.200.2.85:5300] by the command [09 03 00 01 00 1F 54 8A].
2023-06-21 09:49:44.915: Arrived data length:[67], Data(Hex):[09 03 3E 0C 6B 0C 32 0B A7 24 46 01 7E 01 B9 01 AF 04 E9 0C 82 0C 51 0B C6 24 9B 08 E9 08 E6 08 E8 36 E8 36 20 33 B0 03 E0 03 DE 03 DD 03 DF 13 85 00 99 B3 43 00 00 00 00 00 20 2F 86 00 01 47 98 55 02] from host [10.200.2.85:5300] by command [09 03 00 01 00 1F 54 8A]
2023-06-21 09:49:47.924: Try to read data from host [10.200.2.85:5300] by the command [21 03 00 01 00 1F 52 A2].
2023-06-21 09:49:48.233: Arrived data length:[67], Data(Hex):[21 03 3E 00 08 00 0A 00 0A 00 1D 00 05 00 05 00 05 00 11 00 0A 00 0C 00 0B 00 22 08 E5 08 E4 08 E7 00 2D 00 36 00 32 03 24 03 6D 03 77 03 5C 13 86 00 02 9C 32 00 00 00 00 00 00 A5 A5 00 00 00 0C 9B 74] from host [10.200.2.85:5300] by command [21 03 00 01 00 1F 52 A2]
2023-06-21 09:49:51.242: Try to read data from host [10.200.2.85:5300] by the command [22 03 00 01 00 1F 52 91].
2023-06-21 09:49:51.552: Arrived data length:[67], Data(Hex):[22 03 3E 00 07 00 0A 00 07 00 1B 00 05 00 06 00 05 00 12 00 09 00 0C 00 09 00 20 08 E6 08 E4 08 E8 00 2B 00 38 00 28 03 2C 03 50 03 1E 03 37 13 86 00 02 8A 73 00 00 00 00 00 01 DD E3 00 00 00 03 A8 D9] from host [10.200.2.85:5300] by command [22 03 00 01 00 1F 52 91]
2023-06-21 09:49:54.600: Try to read data from host [10.200.2.85:5300] by the command [23 03 00 01 00 1F 53 40].
2023-06-21 09:49:54.912: Arrived data length:[67], Data(Hex):[23 03 3E 01 13 00 C5 00 E3 02 BD 00 44 00 2F 00 40 00 B5 01 1B 00 CB 00 ED 02 D4 08 E6 08 E6 08 E9 04 F5 03 90 04 26 03 CA 03 CC 03 C1 03 C8 13 87 00 07 83 0C 00 00 00 00 00 01 4C E8 00 00 01 60 3F 2C] from host [10.200.2.85:5300] by command [23 03 00 01 00 1F 53 40]
2023-06-21 09:49:57.950: Try to read data from host [10.200.2.85:5300] by the command [24 03 00 01 00 1F 52 F7].
2023-06-21 09:49:58.268: Arrived data length:[67], Data(Hex):[24 03 3E 00 B3 00 A7 00 A5 02 01 00 0A 00 0F 00 0F 00 2A 00 B3 00 A8 00 A6 02 02 08 E5 08 E4 08 E7 03 53 02 E3 02 FB 03 E5 03 E3 03 E3 03 E4 13 87 00 05 B7 F4 00 00 00 00 00 00 30 0A 00 00 26 16 65 16] from host [10.200.2.85:5300] by command [24 03 00 01 00 1F 52 F7]
2023-06-21 09:50:01.325: Try to read data from host [10.200.2.85:5300] by the command [0D 03 00 01 00 1F 55 0E].
2023-06-21 09:50:01.648: Arrived data length:[67], Data(Hex):[0D 03 3E 02 39 02 3E 02 3C 06 B4 01 89 01 8A 01 8E 04 A1 02 B4 02 B8 02 B9 08 26 08 E3 08 E3 08 E7 0B D9 0B F1 0B F0 03 37 03 38 03 34 03 36 13 86 00 15 11 C4 00 00 00 00 00 10 F9 FA 00 00 00 02 03 8E] from host [10.200.2.85:5300] by command [0D 03 00 01 00 1F 55 0E]
2023-06-21 09:50:04.656: Try to read data from host [10.200.2.85:5300] by the command [25 03 00 01 00 1F 53 26].
2023-06-21 09:50:05.023: Arrived data length:[67], Data(Hex):[25 03 3E 00 2B 00 2B 00 2B 00 82 00 30 00 30 00 31 00 92 00 41 00 41 00 41 00 C4 08 E5 08 E3 08 E5 01 2B 01 2B 01 2D 02 9C 02 96 02 96 02 98 13 86 00 01 EB 4F 00 00 00 00 00 00 A8 06 00 00 00 01 77 04] from host [10.200.2.85:5300] by command [25 03 00 01 00 1F 53 26]
2023-06-21 09:50:08.052: Try to read data from host [10.200.2.85:5300] by the command [26 03 00 01 00 1F 53 15].
2023-06-21 09:50:08.374: Arrived data length:[67], Data(Hex):[26 03 3E 00 1B 00 1B 00 1F 00 56 00 01 00 00 00 00 00 00 00 1B 00 1B 00 1F 00 56 08 E5 08 E2 08 E6 00 DB 00 D4 00 E4 03 E6 03 E8 03 E7 03 E8 13 85 00 00 AF 0A 00 00 00 00 00 00 10 CB 00 00 00 0D 4A CE] from host [10.200.2.85:5300] by command [26 03 00 01 00 1F 53 15]
2023-06-21 09:50:11.424: Try to read data from host [10.200.2.85:5300] by the command [63 03 20 01 00 5E 96 70].
2023-06-21 09:50:11.981: Arrived data length:[193], Data(Hex):[63 03 BC 45 9B 00 00 45 9A 60 00 45 99 C0 00 46 46 E0 00 43 20 00 00 43 82 00 00 43 8C 00 00 44 34 00 00 45 A6 40 00 45 A5 00 00 45 A4 60 00 46 68 30 00 00 00 08 E6 00 00 08 E5 00 00 08 E8 00 00 5B 2C 00 00 5A A0 00 00 5A 64 00 00 0F 6A 00 00 0F 6D 00 00 0F 6C 00 00 08 E6 00 00 08 E5 00 00 08 E7 00 00 55 64 00 00 55 64 00 00 54 D8 4A 8D 6F A8 00 00 00 00 48 85 13 80 48 85 13 80 4A 8D 6F A8 00 00 00 00 00 00 00 00 00 00 00 00 00 00 00 00 00 00 00 00 00 00 00 00 00 00 00 00 48 85 13 80 00 00 00 00 00 00 00 00 00 00 00 00 48 85 13 80 00 00 00 00 00 00 00 00 00 00 00 00 B2 9C] from host [10.200.2.85:5300] by command [63 03 20 01 00 5E 96 70]
2023-06-21 09:50:14.992: Try to read data from host [10.200.2.85:5300] by the command [27 03 00 01 00 1F 52 C4].
2023-06-21 09:50:15.321: Arrived data length:[67], Data(Hex):[27 03 3E 00 36 00 32 00 29 00 92 00 13 00 0D 00 11 00 31 00 3A 00 33 00 2C 00 9A 08 E3 08 E0 08 E4 01 01 01 0A 00 C7 03 B1 03 C7 03 9A 03 B3 13 84 00 02 62 DB 00 00 00 00 00 00 BE D0 00 00 0C 34 CF D4] from host [10.200.2.85:5300] by command [27 03 00 01 00 1F 52 C4]
2023-06-21 09:50:18.347: Try to read data from host [10.200.2.85:5300] by the command [28 03 00 01 00 1F 52 3B].
2023-06-21 09:50:18.661: Arrived data length:[67], Data(Hex):[28 03 3E 00 00 00 02 00 01 00 05 00 00 00 00 00 01 00 01 00 00 00 02 00 02 00 05 08 E6 08 E3 08 E5 00 03 00 0E 00 0B 03 8C 03 E8 03 4E 03 D4 13 83 00 00 24 B6 00 00 00 00 00 00 06 31 00 00 00 15 9F C2] from host [10.200.2.85:5300] by command [28 03 00 01 00 1F 52 3B]
2023-06-21 09:50:21.717: Try to read data from host [10.200.2.85:5300] by the command [0E 03 00 01 00 1F 55 3D].
2023-06-21 09:50:22.116: Arrived data length:[67], Data(Hex):[0E 03 3E 01 B3 01 B5 01 B3 05 1C 01 08 01 07 01 0B 03 1B 01 FC 01 FE 01 FF 05 FB 08 E6 08 DF 08 E7 08 B4 08 C3 08 C2 03 56 03 58 03 54 03 56 13 84 00 05 4F DA 00 00 00 00 00 03 7C 95 00 00 00 00 A8 F0] from host [10.200.2.85:5300] by command [0E 03 00 01 00 1F 55 3D]
2023-06-21 09:50:25.154: Try to read data from host [10.200.2.85:5300] by the command [29 03 00 01 00 1F 53 EA].
2023-06-21 09:50:25.516: Arrived data length:[67], Data(Hex):[29 03 3E 00 0F 00 0E 00 10 00 2E 00 00 00 00 00 00 00 01 00 0F 00 0E 00 10 00 2E 08 E7 08 E2 08 EB 00 78 00 6D 00 79 03 E5 03 E8 03 E8 03 E7 13 84 00 07 68 E0 00 00 00 00 00 06 54 D5 00 00 00 00 38 0A] from host [10.200.2.85:5300] by command [29 03 00 01 00 1F 53 EA]
2023-06-21 09:50:28.576: Try to read data from host [10.200.2.85:5300] by the command [2A 03 00 01 00 1F 53 D9].
2023-06-21 09:50:28.898: Arrived data length:[67], Data(Hex):[2A 03 3E 00 13 00 10 00 11 00 36 00 02 00 00 00 00 00 03 00 13 00 10 00 11 00 36 08 E6 08 E2 08 E9 00 85 00 76 00 7F 03 DE 03 E6 03 E8 03 E6 13 84 00 04 40 37 00 00 00 00 00 01 30 62 00 00 00 00 18 4A] from host [10.200.2.85:5300] by command [2A 03 00 01 00 1F 53 D9]
2023-06-21 09:50:31.960: Try to read data from host [10.200.2.85:5300] by the command [20 03 00 01 00 1F 53 73].
2023-06-21 09:50:32.284: Arrived data length:[67], Data(Hex):[20 03 3E 00 25 00 28 00 17 00 65 00 06 00 03 00 03 00 0D 00 25 00 28 00 17 00 66 08 DF 08 DC 08 E3 00 AA 00 BF 00 68 03 D7 03 E4 03 DC 03 DE 13 84 00 01 A0 F3 00 00 00 00 00 00 2D B3 00 00 07 14 EA 19] from host [10.200.2.85:5300] by command [20 03 00 01 00 1F 53 73]
2023-06-21 09:50:35.294: ExecutionforElectricityMeter time : 50691

2023-06-21 09:50:35.413: ExecutionforElectricityMeter started
2023-06-21 09:50:35.416: Try to read data from host [10.200.2.89:5300] by the command [0A 03 00 01 00 1F 54 B9].
2023-06-21 09:50:35.732: Arrived data length:[67], Data(Hex):[0A 03 3E 01 21 01 49 01 40 03 AC 00 32 00 4C 00 45 00 C5 01 25 01 52 01 47 03 C1 09 19 09 17 09 18 05 2B 05 EF 05 E5 03 D8 03 CE 03 D1 03 D2 13 84 00 53 E8 B1 00 00 3E 43 00 0B C1 72 00 00 A3 D5 0A BC] from host [10.200.2.89:5300] by command [0A 03 00 01 00 1F 54 B9]
2023-06-21 09:50:39.036: Try to read data from host [10.200.2.89:5300] by the command [3A 03 00 01 00 1F 51 49].
2023-06-21 09:50:39.346: Arrived data length:[67], Data(Hex):[3A 03 3E 00 42 00 39 00 25 00 A2 00 21 00 0D 00 1C 00 4B 00 4A 00 3B 00 2F 00 B2 09 18 09 15 09 18 01 3F 00 FE 00 C9 03 7A 03 CD 03 20 03 8A 13 84 00 02 8E 33 00 00 00 00 00 01 72 08 00 00 00 17 F4 E4] from host [10.200.2.89:5300] by command [3A 03 00 01 00 1F 51 49]
2023-06-21 09:50:42.408: Try to read data from host [10.200.2.89:5300] by the command [3B 03 00 01 00 1F 50 98].
2023-06-21 09:50:42.723: Arrived data length:[67], Data(Hex):[3B 03 3E 00 7D 00 C0 00 C0 01 FF 00 01 00 03 00 03 00 05 00 7D 00 C0 00 C0 01 FF 09 19 09 18 09 1A 02 23 03 20 03 3D 03 E8 03 E7 03 E7 03 E8 13 84 00 07 B2 5B 00 00 00 02 00 00 22 4A 00 00 1D 23 EB 76] from host [10.200.2.89:5300] by command [3B 03 00 01 00 1F 50 98]
2023-06-21 09:50:45.735: Try to read data from host [10.200.2.89:5300] by the command [2C 03 00 01 00 1F 53 BF].
2023-06-21 09:50:46.056: Arrived data length:[67], Data(Hex):[2C 03 3E 00 25 00 33 00 35 00 8F 00 32 00 25 00 2F 00 87 00 3E 00 40 00 47 00 C5 09 17 09 15 09 18 01 0C 01 14 01 35 02 58 03 27 02 ED 02 D6 13 83 00 01 EC 18 00 00 00 00 00 01 90 F4 00 00 01 EA 0E 3D] from host [10.200.2.89:5300] by command [2C 03 00 01 00 1F 53 BF]
2023-06-21 09:50:49.110: Try to read data from host [10.200.2.89:5300] by the command [2D 03 00 01 00 1F 52 6E].
2023-06-21 09:50:49.609: Arrived data length:[67], Data(Hex):[2D 03 3E 00 00 00 00 00 00 00 00 00 00 00 00 00 00 00 00 00 00 00 00 00 00 00 00 09 1A 09 18 09 1A 00 02 00 02 00 01 03 D6 02 C7 03 E8 03 80 13 84 00 03 F2 E0 00 00 00 00 00 01 61 2F 00 00 06 B7 D5 BC] from host [10.200.2.89:5300] by command [2D 03 00 01 00 1F 52 6E]
2023-06-21 09:50:52.619: Try to read data from host [10.200.2.89:5300] by the command [3C 03 00 01 00 1F 51 2F].
2023-06-21 09:50:52.940: Arrived data length:[67], Data(Hex):[3C 03 3E 00 E2 00 C7 00 C7 02 71 00 23 00 21 00 22 00 67 00 E5 00 C9 00 CA 02 7A 09 1C 09 19 09 1B 03 DD 03 44 03 68 03 DC 03 DA 03 D9 03 DA 13 83 00 06 F7 93 00 00 00 00 00 00 00 11 00 01 35 5D EF F6] from host [10.200.2.89:5300] by command [3C 03 00 01 00 1F 51 2F]
2023-06-21 09:50:55.977: Try to read data from host [10.200.2.89:5300] by the command [3D 03 00 01 00 1F 50 FE].
2023-06-21 09:50:56.303: Arrived data length:[67], Data(Hex):[3D 03 3E 00 F3 00 FB 00 BF 02 AE 00 29 00 2F 00 23 00 7D 00 F6 00 FF 00 C3 02 B9 09 18 09 17 09 19 04 1E 04 47 03 43 03 D9 03 D6 03 D6 03 D7 13 83 00 06 10 68 00 00 00 00 00 00 00 15 00 01 2E 58 FF CB] from host [10.200.2.89:5300] by command [3D 03 00 01 00 1F 50 FE]
2023-06-21 09:50:59.332: Try to read data from host [10.200.2.89:5300] by the command [3E 03 00 01 00 1F 50 CD].
2023-06-21 09:50:59.772: Arrived data length:[67], Data(Hex):[3E 03 3E 00 9F 00 BE 00 BD 02 1C 00 B8 00 B0 00 C5 02 2F 00 F4 01 04 01 11 03 09 09 18 09 17 09 17 04 14 04 59 04 93 02 8F 02 DD 02 B4 02 B7 13 83 00 03 C9 C8 00 00 00 00 00 03 14 0C 00 00 05 B9 E4 45] from host [10.200.2.89:5300] by command [3E 03 00 01 00 1F 50 CD]
2023-06-21 09:51:02.829: Try to read data from host [10.200.2.89:5300] by the command [3F 03 00 01 00 1F 51 1C].
2023-06-21 09:51:03.170: Arrived data length:[67], Data(Hex):[3F 03 3E 00 0F 00 13 00 19 00 3D 00 07 00 02 00 05 00 10 00 11 00 13 00 1A 00 3F 09 19 09 15 09 17 00 5A 00 63 00 7D 03 79 03 DB 03 D1 03 C5 13 83 00 0A E3 83 00 00 00 01 00 02 A8 77 00 00 0C 10 45 A4] from host [10.200.2.89:5300] by command [3F 03 00 01 00 1F 51 1C]
2023-06-21 09:51:06.217: Try to read data from host [10.200.2.89:5300] by the command [40 03 00 01 00 1F 5A D3].
2023-06-21 09:51:06.557: Arrived data length:[67], Data(Hex):[40 03 3E 00 31 00 4A 00 6C 00 E8 00 0F 00 09 00 03 00 1D 00 34 00 4B 00 6C 00 EA 09 1C 09 16 09 19 00 F3 01 6C 02 00 03 B7 03 E0 03 E7 03 E0 13 84 00 01 D5 5D 00 00 00 00 00 00 32 5C 00 00 2F C6 F7 35] from host [10.200.2.89:5300] by command [40 03 00 01 00 1F 5A D3]
2023-06-21 09:51:09.611: Try to read data from host [10.200.2.89:5300] by the command [41 03 00 01 00 1F 5B 02].
2023-06-21 09:51:09.950: Arrived data length:[67], Data(Hex):[41 03 3E 00 3A 00 05 00 2F 00 6F 00 0F 00 32 00 3C 00 05 00 3C 00 32 00 4D 00 6F 09 1B 09 18 09 16 01 0A 00 DB 01 59 03 C3 00 68 02 68 03 E6 13 84 00 01 3D 71 00 00 14 1B 00 00 5E 10 00 00 04 F1 6B F1] from host [10.200.2.89:5300] by command [41 03 00 01 00 1F 5B 02]
2023-06-21 09:51:13.003: Try to read data from host [10.200.2.89:5300] by the command [0C 03 00 01 00 1F 54 DF].
2023-06-21 09:51:13.351: Arrived data length:[67], Data(Hex):[0C 03 3E 00 03 00 00 00 00 00 02 00 03 00 04 00 00 00 08 00 05 00 05 00 00 00 09 09 1B 09 17 09 17 00 00 00 00 00 00 02 EE 00 D2 02 9A 01 4B 13 84 00 1D 71 F2 00 00 00 00 00 03 0D 34 00 00 00 00 7E 40] from host [10.200.2.89:5300] by command [0C 03 00 01 00 1F 54 DF]
2023-06-21 09:51:16.382: Try to read data from host [10.200.2.89:5300] by the command [42 03 00 01 00 1F 5B 31].
2023-06-21 09:51:16.730: Arrived data length:[67], Data(Hex):[42 03 3E 00 05 00 0A 00 08 00 18 00 01 00 02 00 01 00 06 00 05 00 0B 00 08 00 19 09 1B 09 18 09 19 00 1D 00 31 00 24 03 B5 03 BE 03 D0 03 C2 13 84 00 00 21 2A 00 00 00 00 00 00 05 5A 00 00 09 84 B7 3E] from host [10.200.2.89:5300] by command [42 03 00 01 00 1F 5B 31]
2023-06-21 09:51:19.766: Try to read data from host [10.200.2.89:5300] by the command [11 03 00 01 00 1F 57 52].
2023-06-21 09:51:20.113: Arrived data length:[67], Data(Hex):[11 03 3E 03 55 03 56 03 54 09 FF 00 4C 00 4B 00 48 00 DF 03 58 03 59 03 57 0A 09 09 1B 09 17 09 18 0E 34 0E 3B 0E 3E 03 E4 03 E4 03 E4 03 E4 13 84 00 07 B5 77 00 00 02 66 00 00 16 9D 00 01 52 0A D8 82] from host [10.200.2.89:5300] by command [11 03 00 01 00 1F 57 52]
2023-06-21 09:51:23.138: ExecutionforElectricityMeter time : 47723

2023-06-21 09:51:23.142: ExecutionforElectricityMeter started
2023-06-21 09:51:23.143: Try to read data from host [10.200.2.90:5300] by the command [0B 03 00 01 00 1F 55 68].
2023-06-21 09:51:23.494: Arrived data length:[67], Data(Hex):[0B 03 3E 01 51 01 4C 01 66 04 05 00 03 00 33 00 21 00 5A 01 51 01 50 01 68 04 09 09 18 09 17 09 16 05 EB 05 F9 06 78 03 E7 03 DC 03 E3 03 E4 13 84 00 51 AC 9D 00 00 2E 6F 00 0C 82 53 00 00 71 6D 52 3C] from host [10.200.2.90:5300] by command [0B 03 00 01 00 1F 55 68]
2023-06-21 09:51:26.526: Try to read data from host [10.200.2.90:5300] by the command [2B 03 00 01 00 1F 52 08].
2023-06-21 09:51:26.923: Arrived data length:[67], Data(Hex):[2B 03 3E 00 96 00 9D 00 97 01 CB 00 66 00 64 00 68 01 34 00 B5 00 B9 00 B7 02 27 09 18 09 14 09 16 03 2B 03 3E 03 36 03 3C 03 49 03 35 03 3E 13 84 00 1F 8D 3E 00 00 00 01 00 16 17 27 00 00 00 67 5D 7A] from host [10.200.2.90:5300] by command [2B 03 00 01 00 1F 52 08]
2023-06-21 09:51:29.976: Try to read data from host [10.200.2.90:5300] by the command [2E 03 00 01 00 1F 52 5D].
2023-06-21 09:51:30.351: Arrived data length:[67], Data(Hex):[2E 03 3E 00 07 00 01 00 04 00 0E 00 00 00 02 00 02 00 06 00 07 00 03 00 05 00 0F 09 1A 09 17 09 18 00 22 00 0E 00 17 03 E0 02 32 03 53 03 85 13 85 00 06 6A 70 00 00 00 00 00 04 AC D4 00 00 00 2A 2A 59] from host [10.200.2.90:5300] by command [2E 03 00 01 00 1F 52 5D]
2023-06-21 09:51:33.400: Try to read data from host [10.200.2.90:5300] by the command [2F 03 00 01 00 1F 53 8C].
2023-06-21 09:51:33.747: Arrived data length:[67], Data(Hex):[2F 03 3E 00 00 00 00 00 00 00 00 00 00 00 00 00 00 00 00 00 00 00 00 00 00 00 01 09 19 09 18 09 18 00 04 00 00 00 00 03 4A 02 AD 03 20 03 3D 13 85 00 03 5C 1A 00 00 00 00 00 00 4E 6A 00 00 00 48 27 61] from host [10.200.2.90:5300] by command [2F 03 00 01 00 1F 53 8C]
2023-06-21 09:51:36.768: Try to read data from host [10.200.2.90:5300] by the command [30 03 00 01 00 1F 51 E3].
2023-06-21 09:51:37.121: Arrived data length:[67], Data(Hex):[30 03 3E 00 00 00 00 00 00 00 00 00 00 00 00 00 00 00 00 00 00 00 00 00 00 00 00 00 00 00 00 00 00 03 12 00 00 00 00 03 E8 03 E8 03 E8 03 E8 13 88 00 02 34 D3 00 00 00 00 00 02 3E 06 00 00 07 7C 7D E9] from host [10.200.2.90:5300] by command [30 03 00 01 00 1F 51 E3]
2023-06-21 09:51:40.296: Try to read data from host [10.200.2.90:5300] by the command [31 03 00 01 00 1F 50 32].
2023-06-21 09:51:40.652: Arrived data length:[67], Data(Hex):[31 03 3E 00 37 00 1D 00 15 00 69 00 0B 00 0A 00 0D 00 24 00 38 00 1F 00 19 00 70 09 18 09 14 09 16 00 FD 00 95 00 71 03 D2 03 A9 03 43 03 B1 13 85 00 02 9A 99 00 00 00 00 00 00 B8 70 00 00 01 6D 80 53] from host [10.200.2.90:5300] by command [31 03 00 01 00 1F 50 32]
2023-06-21 09:51:43.957: Try to read data from host [10.200.2.90:5300] by the command [32 03 00 01 00 1F 50 01].
2023-06-21 09:51:44.317: Arrived data length:[67], Data(Hex):[32 03 3E 01 CB 01 CA 01 C6 05 5D 02 9B 02 99 02 92 07 C7 03 2A 03 28 03 20 09 72 09 18 09 16 09 18 0D 7B 0D 71 0D 56 02 37 02 37 02 37 02 37 13 85 00 0D 49 EE 00 00 00 00 00 12 C2 45 00 00 00 09 24 E1] from host [10.200.2.90:5300] by command [32 03 00 01 00 1F 50 01]
2023-06-21 09:51:47.386: Try to read data from host [10.200.2.90:5300] by the command [33 03 00 01 00 1F 51 D0].
2023-06-21 09:51:47.749: Arrived data length:[67], Data(Hex):[33 03 3E 00 00 00 00 00 00 00 00 00 00 00 00 00 00 00 00 00 00 00 00 00 00 00 00 00 00 00 00 00 00 00 00 00 00 00 00 03 E8 03 E8 03 E8 03 E8 13 88 00 00 06 FB 00 00 00 00 00 00 00 19 00 00 00 3C 6D 62] from host [10.200.2.90:5300] by command [33 03 00 01 00 1F 51 D0]
2023-06-21 09:51:50.803: Try to read data from host [10.200.2.90:5300] by the command [34 03 00 01 00 1F 50 67].
2023-06-21 09:51:51.210: Arrived data length:[67], Data(Hex):[34 03 3E 00 07 00 05 00 12 00 1F 00 00 00 01 00 01 00 03 00 07 00 05 00 12 00 1F 09 17 09 14 09 16 00 23 00 1B 00 60 03 E7 03 C7 03 E5 03 E3 13 85 00 03 2D 49 00 00 00 00 00 00 00 0C 00 00 67 20 26 2A] from host [10.200.2.90:5300] by command [34 03 00 01 00 1F 50 67]
2023-06-21 09:51:54.241: Try to read data from host [10.200.2.90:5300] by the command [35 03 00 01 00 1F 51 B6].
2023-06-21 09:51:54.612: Arrived data length:[67], Data(Hex):[35 03 3E 00 8A 00 8A 00 7C 01 91 00 1E 00 18 00 17 00 50 00 8E 00 8C 00 7E 01 99 09 15 09 14 09 16 02 E0 02 E4 02 A6 03 CF 03 D8 03 D6 03 D4 13 85 00 03 C8 FD 00 00 00 00 00 00 0B 21 00 00 DB 79 D9 28] from host [10.200.2.90:5300] by command [35 03 00 01 00 1F 51 B6]
2023-06-21 09:51:57.621: Try to read data from host [10.200.2.90:5300] by the command [36 03 00 01 00 1F 51 85].
2023-06-21 09:51:57.994: Arrived data length:[67], Data(Hex):[36 03 3E 00 17 00 16 00 1B 00 49 00 1B 00 19 00 17 00 4C 00 24 00 22 00 24 00 6A 09 18 09 15 09 17 00 98 00 8F 00 9A 02 86 02 A2 02 EA 02 B2 13 86 00 0C 6E 09 00 00 00 01 00 05 D9 7B 00 00 00 09 13 19] from host [10.200.2.90:5300] by command [36 03 00 01 00 1F 51 85]
2023-06-21 09:52:01.056: Try to read data from host [10.200.2.90:5300] by the command [37 03 00 01 00 1F 50 54].
2023-06-21 09:52:01.430: Arrived data length:[67], Data(Hex):[37 03 3E 00 03 00 04 00 09 00 12 00 12 00 0C 00 11 00 30 00 12 00 0C 00 13 00 33 09 16 09 14 09 14 00 50 00 3A 00 54 00 CB 01 79 01 D2 01 5F 13 87 00 0A 3B B7 00 00 00 00 00 07 84 6D 00 00 00 00 31 AF] from host [10.200.2.90:5300] by command [37 03 00 01 00 1F 50 54]
2023-06-21 09:52:04.470: Try to read data from host [10.200.2.90:5300] by the command [38 03 00 01 00 1F 50 AB].
2023-06-21 09:52:04.850: Arrived data length:[67], Data(Hex):[38 03 3E 00 00 00 00 00 00 00 00 00 00 00 00 00 00 00 00 00 00 00 00 00 00 00 00 09 17 09 15 09 14 00 00 00 00 00 00 03 E8 03 E8 03 E8 03 E8 13 87 00 00 7F CC 00 00 00 00 00 00 6F 80 00 00 00 10 CE B7] from host [10.200.2.90:5300] by command [38 03 00 01 00 1F 50 AB]
2023-06-21 09:52:07.887: Try to read data from host [10.200.2.90:5300] by the command [39 03 00 01 00 1F 51 7A].
2023-06-21 09:52:08.267: Arrived data length:[67], Data(Hex):[39 03 3E 00 00 00 01 00 00 00 02 00 00 00 01 00 00 00 01 00 00 00 02 00 00 00 02 09 17 09 12 09 15 00 02 00 0A 00 02 03 20 03 1F 03 E8 03 3E 13 87 00 03 61 F6 00 00 00 00 00 02 63 B9 00 00 00 00 D9 7B] from host [10.200.2.90:5300] by command [39 03 00 01 00 1F 51 7A]
2023-06-21 09:52:11.299: Try to read data from host [10.200.2.90:5300] by the command [12 03 00 01 00 1F 57 61].
2023-06-21 09:52:11.686: Arrived data length:[67], Data(Hex):[12 03 3E 01 C1 01 C1 01 B9 05 3D 00 1A 00 12 00 15 00 42 01 C2 01 C2 01 BA 05 3E 09 1A 09 17 09 16 07 7E 07 7E 07 5F 03 E6 03 E7 03 E6 03 E6 13 87 00 03 D6 DA 00 00 01 51 00 00 16 CC 00 00 59 B8 08 B1] from host [10.200.2.90:5300] by command [12 03 00 01 00 1F 57 61]
2023-06-21 09:52:14.713: ExecutionforElectricityMeter time : 51569

